"Time / s","Vo:Measured voltage","IL:Measured current","Vin:Measured voltage","open1:Output","open3:Output","open2:Output","open4:Output","short1:Output","short2:Output","short3:Output","short4:Output"
1.1037824586754603,391.83476436033959,11.987261457379448,288.55321312467703,0,0,0,0,0,0,0,0
1.1037999999999999,391.95195093338515,12.080635949340195,289.27855359012568,0,0,0,0,0,0,0,0
1.10382,392.07305502487395,12.064453050511492,289.99247383360932,0,0,0,0,0,0,0,0
1.1038399999999999,392.19397973123938,12.068893099052891,290.69494567076629,0,0,0,0,0,0,0,0
1.1038599999999998,392.31518323528996,12.093571004649842,291.38594136921768,0,0,0,0,0,0,0,0
1.10388,392.43711477688151,12.13808960192803,292.06543364964267,0,0,0,0,0,0,0,0
1.1038999999999999,392.56195843496289,12.136632026538146,292.73339568683718,0,0,0,0,0,0,0,0
1.10392,392.68619541722074,12.154141635546384,293.38980111081582,0,0,0,0,0,0,0,0
1.1039399999999999,392.81273037963092,12.1247951353525,294.03462400780455,0,0,0,0,0,0,0,0
1.1039600000000001,392.93875630316552,12.11359479456168,294.6678389213111,0,0,0,0,0,0,0,0
1.10398,393.0646814263755,12.120159372109926,295.28942085308353,0,0,0,0,0,0,0,0
1.1039999999999999,393.19090504615843,12.144096738835804,295.8993452641372,0,0,0,0,0,0,0,0
1.10402,393.3178172764778,12.185004120271099,296.49758807570612,0,0,0,0,0,0,0,0
1.1040399999999999,393.4457988127615,12.24246834540457,297.08412567017768,0,0,0,0,0,0,0,0
1.10406,393.57522070211513,12.316066101273583,297.65893489206252,0,0,0,0,0,0,0,0
1.10408,393.70644411945972,12.405364193235814,298.22199304886641,0,0,0,0,0,0,0,0
1.1040999999999999,393.8398201497418,12.509919810770571,298.77327791202265,0,0,0,0,0,0,0,0
1.10412,393.97740461932892,12.497990274242047,299.31276771775362,0,0,0,0,0,0,0,0
1.1041399999999999,394.11482572517497,12.500364447044138,299.8404411679158,0,0,0,0,0,0,0,0
1.10416,394.25240839603401,12.516646978573677,300.35627743087446,0,0,0,0,0,0,0,0
1.1041799999999999,394.39046823292284,12.546433749811371,300.86025614228782,0,0,0,0,0,0,0,0
1.1041999999999998,394.53035808067375,12.523572913986817,301.35235740594408,0,0,0,0,0,0,0,0
1.10422,394.6698104169576,12.513357456663472,301.83256179453656,0,0,0,0,0,0,0,0
1.1042399999999999,394.80911403515734,12.515396979484347,302.30085035039656,0,0,0,0,0,0,0,0
1.10426,394.94854847958692,12.529293244215783,302.75720458631929,0,0,0,0,0,0,0,0
1.1042799999999999,395.09018539409158,12.488811842755116,303.20160648619998,0,0,0,0,0,0,0,0
1.1043000000000001,395.22992192576282,12.525179371988393,303.63403850582489,0,0,0,0,0,0,0,0
1.10432,395.37160830707091,12.506304488107176,304.05448357351048,0,0,0,0,0,0,0,0
1.1043399999999999,395.51111703347323,12.563513168087173,304.46292509080928,0,0,0,0,0,0,0,0
1.10436,395.65382456611854,12.564634284574439,304.85934693315323,0,0,0,0,0,0,0,0
1.1043799999999999,395.79661333858235,12.575105021275105,305.24373345047951,0,0,0,0,0,0,0,0
1.1044,395.93969672415574,12.594518402688376,305.61606946787361,0,0,0,0,0,0,0,0
1.10442,396.08327845265489,12.622461633731605,305.97634028614027,0,0,0,0,0,0,0,0
1.1044399999999999,396.22755248139634,12.658516365228795,306.32453168240789,0,0,0,0,0,0,0,0
1.10446,396.37270287245587,12.702258962628756,306.66062991067946,0,0,0,0,0,0,0,0
1.1044799999999999,396.51890367627897,12.753260777790105,306.98462170236627,0,0,0,0,0,0,0,0
1.1045,396.66631882170674,12.811088423668066,307.29649426683295,0,0,0,0,0,0,0,0
1.1045199999999999,396.81510201248682,12.875304051736766,307.59623529187911,0,0,0,0,0,0,0,0
1.1045399999999999,396.96539663032434,12.945465631979408,307.88383294424511,0,0,0,0,0,0,0,0
1.10456,397.11860718446593,12.954957441527947,308.15927587007064,0,0,0,0,0,0,0,0
1.1045799999999999,397.27252673234534,12.903274780751115,308.42255319533552,0,0,0,0,0,0,0,0
1.1046,397.42474416023663,12.922400153376174,308.67365452630656,0,0,0,0,0,0,0,0
1.1046199999999999,397.57788194387922,12.879510514328857,308.91256994992864,0,0,0,0,0,0,0,0
1.1046399999999998,397.72952107692083,12.906684429763288,309.13929003423226,0,0,0,0,0,0,0,0
1.10466,397.88225696096526,12.870991578041709,309.35380582869851,0,0,0,0,0,0,0,0
1.1046799999999999,398.03365737216507,12.904607181698335,309.55610886460732,0,0,0,0,0,0,0,0
1.1047,398.18629501511725,12.874495016119559,309.74619115538491,0,0,0,0,0,0,0,0
1.1047199999999999,398.33693793851234,12.912931709284779,309.92404519690439,0,0,0,0,0,0,0,0
1.1047400000000001,398.48970464256905,12.886788821885544,310.08966396779743,0,0,0,0,0,0,0,0
1.10476,398.64181188034644,12.862001099038041,310.2430409297113,0,0,0,0,0,0,0,0
1.1047799999999999,398.79282201357762,12.904622284433295,310.38417002759195,0,0,0,0,0,0,0,0
1.1048,398.94525447041616,12.881356496283468,310.51304568990508,0,0,0,0,0,0,0,0
1.1048199999999999,399.09583009707728,12.924728325274176,310.62966282885549,0,0,0,0,0,0,0,0
1.10484,399.24862243191484,12.901352559185238,310.73401684060161,0,0,0,0,0,0,0,0
1.10486,399.40079677447227,12.877287938471738,310.82610360542378,0,0,0,0,0,0,0,0
1.1048799999999999,399.55186766117549,12.918713585209481,310.90591948789523,0,0,0,0,0,0,0,0
1.1049,399.70430816096894,12.892080813914912,310.97346133702223,0,0,0,0,0,0,0,0
1.1049199999999999,399.85557368139831,12.930164821843636,311.02872648636685,0,0,0,0,0,0,0,0
1.10494,400.0081212375967,12.899317699272311,311.07171275415675,0,0,0,0,0,0,0,0
1.1049599999999999,400.15938465728539,12.9324183392277,311.10241844336684,0,0,0,0,0,0,0,0
1.1049799999999999,400.31180271688334,12.895720582824509,311.12084234178951,0,0,0,0,0,0,0,0
1.105,400.46279063293883,12.922208102756569,311.12698372208092,0,0,0,0,0,0,0,0
1.1050199999999999,400.61429827624323,12.944786347837216,311.12084234178963,0,0,0,0,0,0,0,0
1.10504,400.76544319889348,12.963037930382459,311.10241844336684,0,0,0,0,0,0,0,0
1.1050599999999999,400.91816287198321,12.909757406733657,311.07171275415669,0,0,0,0,0,0,0,0
1.1050799999999998,401.06904147847655,12.918124289304442,311.02872648636725,0,0,0,0,0,0,0,0
1.1051,401.21999532356568,12.92095427727112,310.97346133702212,0,0,0,0,0,0,0,0
1.1051199999999999,401.37088958120745,12.917838318965565,310.90591948789586,0,0,0,0,0,0,0,0
1.10514,401.52157991484961,12.908371080110618,310.82610360542373,0,0,0,0,0,0,0,0
1.1051599999999999,401.67065649468935,12.959080034959952,310.7340168406015,0,0,0,0,0,0,0,0
1.1051800000000001,401.82125607216472,12.935721430554951,310.62966282885537,0,0,0,0,0,0,0,0
1.1052,401.97194683106795,12.904796183210156,310.51304568990497,0,0,0,0,0,0,0,0
1.1052199999999999,402.12050892451191,12.932903918747318,310.38417002759428,0,0,0,0,0,0,0,0
1.10524,402.26957452243397,12.952689766279901,310.24304092971255,0,0,0,0,0,0,0,0
1.1052599999999999,402.42020262773639,12.89668210460653,310.08966396779738,0,0,0,0,0,0,0,0
1.10528,402.56810311192265,12.898568304314857,309.92404519690581,0,0,0,0,0,0,0,0
1.1052999999999999,402.71588170141882,12.890935153093634,309.74619115538638,0,0,0,0,0,0,0,0
1.1053199999999999,402.86331170092319,12.873381688989932,309.55610886461074,0,0,0,0,0,0,0,0
1.10534,403.01015721891315,12.845513159495413,309.35380582870027,0,0,0,0,0,0,0,0
1.1053599999999999,403.15617331890195,12.806941271254939,309.13929003423607,0,0,0,0,0,0,0,0
1.10538,403.30110617642737,12.757284435790039,308.91256994992847,0,0,0,0,0,0,0,0
1.1053999999999999,403.44469324165721,12.696168011091226,308.67365452630639,0,0,0,0,0,0,0,0
1.1054199999999998,403.5866634075237,12.623224538935672,308.42255319533996,0,0,0,0,0,0,0,0
1.10544,403.72570804121563,12.605365887163632,308.15927587007042,0,0,0,0,0,0,0,0
1.1054599999999999,403.86232907460357,12.642282764378049,307.88383294424744,0,0,0,0,0,0,0,0
1.10548,403.99960231708684,12.666343245099656,307.59623529187883,0,0,0,0,0,0,0,0
1.1054999999999999,404.13722672505401,12.677130677173421,307.29649426683272,0,0,0,0,0,0,0,0
1.1055200000000001,404.27489186857918,12.674236573641039,306.98462170236604,0,0,0,0,0,0,0,0
1.10554,404.41227812587772,12.657260863385567,306.66062991067923,0,0,0,0,0,0,0,0
1.1055599999999999,404.54905688340915,12.625812136742203,306.32453168241074,0,0,0,0,0,0,0,0
1.10558,404.68443680860037,12.646936086805919,305.97634028613999,0,0,0,0,0,0,0,0
1.1055999999999999,404.82007596790334,12.652840177337312,305.61606946787327,0,0,0,0,0,0,0,0
1.10562,404.95438314010477,12.710597727209349,305.24373345047923,0,0,0,0,0,0,0,0
1.10564,405.09024691402669,12.68487141549485,304.85934693315295,0,0,0,0,0,0,0,0
1.1056599999999999,405.22481470458189,12.710243067753375,304.46292509081263,0,0,0,0,0,0,0,0
1.10568,405.3609611605163,12.651285620295182,304.05448357351014,0,0,0,0,0,0,0,0
1.1056999999999999,405.49428026636753,12.64267846887337,303.63403850582455,0,0,0,0,0,0,0,0
1.10572,405.62715557480368,12.616529888713632,303.20160648619964,0,0,0,0,0,0,0,0
1.1057399999999999,405.75918432617931,12.572458188842589,302.75720458631889,0,0,0,0,0,0,0,0
1.1057599999999999,405.88995536228617,12.510092461069874,302.30085035040457,0,0,0,0,0,0,0,0
1.10578,406.01904937707826,12.429072801660663,301.83256179453616,0,0,0,0,0,0,0,0
1.1057999999999999,406.14324944964801,12.464397408865539,301.35235740595255,0,0,0,0,0,0,0,0
1.10582,406.26798096006246,12.480443662683575,300.86025614229197,0,0,0,0,0,0,0,0
1.1058399999999999,406.39280699955913,12.476809274619827,300.35627743087866,0,0,0,0,0,0,0,0
1.1058599999999998,406.51728193479653,12.453103531164983,299.84044116792484,0,0,0,0,0,0,0,0
1.10588,406.64095167321676,12.408947520342856,299.31276771775805,0,0,0,0,0,0,0,0
1.1058999999999999,406.76335393331397,12.343974351605826,298.77327791203203,0,0,0,0,0,0,0,0
1.10592,406.88281536491291,12.325627993110773,298.22199304886595,0,0,0,0,0,0,0,0
1.1059399999999999,407.00113062618823,12.353608007981114,297.65893489206724,0,0,0,0,0,0,0,0
1.1059600000000001,407.11978009435006,12.3597379840828,297.08412567017729,0,0,0,0,0,0,0,0
1.10598,407.23827605301108,12.343626366139119,296.49758807570572,0,0,0,0,0,0,0,0
1.1059999999999999,407.35612245122076,12.304894367423163,295.8993452641422,0,0,0,0,0,0,0,0
1.10602,407.47281519139489,12.243176183331412,295.28942085308302,0,0,0,0,0,0,0,0
1.1060399999999999,407.58784242178984,12.158119197845936,294.66783892131059,0,0,0,0,0,0,0,0
1.10606,407.69797129682996,12.185250377760548,294.03462400780404,0,0,0,0,0,0,0,0
1.10608,407.80839214693356,12.188431888341128,293.38980111081537,0,0,0,0,0,0,0,0
1.1060999999999999,407.91857824083058,12.167278771804842,292.73339568684264,0,0,0,0,0,0,0,0
1.10612,408.02799479744738,12.121419700586111,292.06543364964216,0,0,0,0,0,0,0,0
1.1061399999999999,408.13609928852196,12.050497180852316,291.38594136922336,0,0,0,0,0,0,0,0
1.10616,408.2423417454516,11.954167748652553,290.69494567076572,0,0,0,0,0,0,0,0
1.1061799999999999,408.34455995625825,11.968185735977332,289.99247383360881,0,0,0,0,0,0,0,0
1.1061999999999999,408.44676303959977,11.956177007923372,289.27855359013159,0,0,0,0,0,0,0,0
1.10622,408.5483871363615,11.917769969831376,288.55321312467646,0,0,0,0,0,0,0,0
1.1062399999999999,408.64886076225127,11.852607444775719,287.81648107245593,0,0,0,0,0,0,0,0
1.10626,408.7449710337126,11.896563159109949,287.06838651837671,0,0,0,0,0,0,0,0
1.1062799999999999,408.84169017045394,11.91313969388349,286.30895899594435,0,0,0,0,0,0,0,0
1.1062999999999998,408.93843324545907,11.901955142643041,285.5382284860504,0,0,0,0,0,0,0,0
1.10632,409.03460761004436,11.862642382189536,284.7562254158085,0,0,0,0,0,0,0,0
1.1063399999999999,409.12961321233405,11.794849262408613,283.96298065737511,0,0,0,0,0,0,0,0
1.10636,409.2228429195564,11.698238788566306,283.15852552668059,0,0,0,0,0,0,0,0
1.1063799999999999,409.31253426058674,11.640693965875853,282.34289178225066,0,0,0,0,0,0,0,0
1.1064000000000001,409.4002386256779,11.621939450720909,281.51611162389418,0,0,0,0,0,0,0,0
1.10642,409.48720881928148,11.573433901407013,280.67821769149111,0,0,0,0,0,0,0,0
1.1064399999999999,409.57118938262727,11.563078890095014,279.8292430636518,0,0,0,0,0,0,0,0
1.10646,409.65368224090537,11.590592973842968,278.96922125643295,0,0,0,0,0,0,0,0
1.1064799999999999,409.73639782668573,11.587381280087412,278.09818622203852,0,0,0,0,0,0,0,0
1.1065,409.81869932947296,11.553082726639934,277.21617234741649,0,0,0,0,0,0,0,0
1.1065199999999999,409.89994290224877,11.487351937184643,276.32321445300437,0,0,0,0,0,0,0,0
1.1065399999999999,409.97947798946581,11.389859409802245,275.4193477912188,0,0,0,0,0,0,0,0
1.10656,410.0566476583013,11.260291677958183,274.50460804515933,0,0,0,0,0,0,0,0
1.1065799999999999,410.12926583059925,11.235033227381326,273.57903132721799,0,0,0,0,0,0,0,0
1.1066,410.20012575436994,11.245487115408938,272.64265417755371,0,0,0,0,0,0,0,0
1.1066199999999999,410.26925366091541,11.291340554281275,271.69551356275002,0,0,0,0,0,0,0,0
1.1066399999999998,410.33894333546664,11.303912372689277,270.73764687428826,0,0,0,0,0,0,0,0
1.10666,410.40852548713644,11.28284444842971,269.76909192709616,0,0,0,0,0,0,0,0
1.1066799999999999,410.47732407806768,11.227794765719507,268.78988695808232,0,0,0,0,0,0,0,0
1.1067,410.54465664964152,11.138437572252112,267.80007062456446,0,0,0,0,0,0,0,0
1.1067199999999999,410.6098346516219,11.014463528976295,266.79968200281451,0,0,0,0,0,0,0,0
1.1067400000000001,410.67107469790312,10.924012038855599,265.7887605864442,0,0,0,0,0,0,0,0
1.10676,410.72821160446784,10.935265575738139,264.76734628491835,0,0,0,0,0,0,0,0
1.1067799999999999,410.78433653853341,10.979522040877731,263.73547942191556,0,0,0,0,0,0,0,0
1.1068,410.84095544789602,10.98800212448446,262.69320073376338,0,0,0,0,0,0,0,1
1.1068199999999999,410.89737109417518,10.960360923239584,261.64055136785839,0,0,0,0,0,0,0,1
1.10684,410.9528799727417,10.896269673600466,260.57757288097622,0,0,0,0,0,0,0,1
1.10686,411.00677262931328,10.795416066991491,259.50430723770666,0,0,0,0,0,0,0,1
1.1068799999999999,411.05833398351007,10.657504432531033,258.4207968087299,0,0,0,0,0,0,0,1
1.1069,411.10578682135804,10.550761056364712,257.32708436917267,0,0,0,0,0,0,0,1
1.1069199999999999,411.14811754553523,10.61196102355737,256.22321309694894,0,0,0,0,0,0,0,1
1.10694,411.19123034557401,10.635307223170566,255.10922657098655,0,0,0,0,0,0,0,1
1.1069599999999999,411.23441067666101,10.620459241322228,253.98516876958621,0,0,0,0,0,0,0,1
1.1069799999999999,411.27693802331709,10.567093008287392,252.85108406861517,0,0,0,0,0,0,0,1
1.107,411.31808620991256,10.47490092983217,251.70701723978519,0,0,0,0,0,0,0,1
1.1070199999999999,411.3571237134754,10.343592012031618,250.55301344891643,0,0,0,0,0,0,0,1
1.10704,411.39189657654543,10.2414421415188,249.38911825408169,0,0,0,0,0,0,0,1
1.1070599999999999,411.42257656323102,10.236774706501155,248.21537760389143,0,0,0,0,0,0,0,1
1.1070799999999998,411.45238534547741,10.260770837283744,247.03183783560618,0,0,0,0,0,0,0,1
1.1071,411.48225765530742,10.244554580354718,245.8385456733279,0,0,0,0,0,0,0,1
1.1071199999999999,411.51145963383357,10.187813084372754,244.63554822624192,0,0,0,0,0,0,0,1
1.10714,411.5392521612419,10.090249845609822,243.42289298656237,0,0,0,0,0,0,0,1
1.1071599999999999,411.56489115698685,9.951584820723518,242.2006278278964,0,0,0,0,0,0,0,1
1.1071800000000001,411.58526725046693,9.9087238707414347,240.96880100314655,0,0,0,0,0,0,0,1
1.1072,411.60374785967633,9.8928516036445338,239.72746114274895,0,0,0,0,0,0,0,1
1.1072199999999999,411.62116974403597,9.9036861609867284,238.47665725266467,0,0,0,0,0,0,0,1
1.10724,411.63840891043935,9.8723355537454438,237.21643871247809,0,0,0,0,0,0,0,1
1.1072599999999999,411.65472153224192,9.7985034328537512,235.94685527348224,0,0,0,0,0,0,0,1
1.10728,411.66935899837551,9.6819095815124321,234.66795705663441,0,0,0,0,0,0,0,1
1.1073,411.68025287909711,9.5908893821113885,233.3797945506694,0,0,0,0,0,0,0,1
1.1073199999999999,411.68748598627036,9.59381005739065,232.08241861002585,0,0,0,0,0,0,0,1
1.10734,411.69440050178787,9.5532005503061992,230.77588045287257,0,0,0,0,0,0,0,1
1.1073599999999999,411.69985184366556,9.5373822625243871,229.46023165912243,0,0,0,0,0,0,0,1
1.10738,411.7046628003057,9.4774666676615755,228.13552416831328,0,0,0,0,0,0,0,1
1.1073999999999999,411.70808310267,9.373178119968582,226.80181027765261,0,0,0,0,0,0,0,1
1.1074199999999998,411.70935822317563,9.2242568073298354,225.4591426398691,0,0,0,0,0,0,0,1
1.10744,411.70485616079714,9.2362786929570895,224.10757426116987,0,0,0,0,0,0,0,1
1.1074599999999999,411.69979573484994,9.2717918959902637,222.74715849918474,0,0,0,0,0,0,0,1
1.10748,411.69495092335325,9.261897430042028,221.37794906077391,0,0,0,0,0,0,0,1
1.1074999999999999,411.68957644345272,9.2063128794537459,220.00000000000631,0,0,0,0,0,0,0,1
1.1075200000000001,411.68292279899731,9.1047711316507538,218.61336571592656,0,0,0,0,0,0,0,1
1.10754,411.67423653318747,8.957020459821539,217.21810095050697,0,0,0,0,0,0,0,1
1.1075599999999999,411.66089774473494,8.900023473227094,215.81426078639885,0,0,0,0,0,0,0,1
1.10758,411.64536217482532,8.8649457873193516,214.40190064479535,0,0,0,0,0,0,0,1
1.1075999999999999,411.62852961834329,8.8515327189060322,212.98107628328208,0,0,0,0,0,0,0,1
1.10762,411.61112441397626,8.7909202911260547,211.55184379354625,0,0,0,0,0,0,0,1
1.10764,411.5924011626297,8.6828531282526153,210.11425959926518,0,0,0,0,0,0,0,1
1.1076599999999999,411.57161084112471,8.527090732524389,208.66838045378847,0,0,0,0,0,0,0,1
1.10768,411.54536339001402,8.5291509671906933,207.21426343792257,0,0,0,0,0,0,0,1
1.1076999999999999,411.51842518774561,8.5516299956874988,205.75196595778337,0,0,0,0,0,0,0,1
1.10772,411.49147493124826,8.5256787420143958,204.2815457422922,0,0,0,0,0,0,0,1
1.1077399999999999,411.4637770399226,8.4510418364455493,202.80306084118769,0,0,0,0,0,0,0,1
1.1077599999999999,411.43459245110694,8.3274781799306279,201.31656962249573,0,0,0,0,0,0,0,1
1.10778,411.40207186411368,8.2233163486756151,199.82213077033074,0,0,0,0,0,0,0,1
1.1077824586754601,411.40207186411368,8.2233163486756151,199.82213077033074,0,0,0,0,0,0,0,1
