"Time / s","Vo:Measured voltage","IL:Measured current","Vin:Measured voltage","open1:Output","open3:Output","open2:Output","open4:Output","short1:Output","short2:Output","short3:Output","short4:Output"
1.1516342288575234,389.21279963524694,-6.1992402005800189,-151.59666193511492,0,0,0,0,0,0,0,0
1.15164,389.13806722030557,-6.3500433249061858,-153.30077157331567,0,0,0,0,0,0,0,0
1.1516599999999999,389.06726799613165,-6.3639345790737476,-154.99882915953231,0,0,0,0,0,0,0,0
1.15168,388.99750653339265,-6.3704196749788036,-156.69076765738953,0,0,0,0,0,0,0,0
1.1516999999999999,388.92820212291588,-6.434120773974084,-158.37652027202193,0,0,0,0,0,0,0,0
1.1517199999999999,388.86004658986434,-6.554808439657978,-160.05602045281807,0,0,0,0,0,0,0,0
1.15174,388.79441568616454,-6.6674502229269166,-161.72920189600171,0,0,0,0,0,0,0,0
1.1517599999999999,388.73227828598641,-6.642261310244348,-163.39599854720413,0,0,0,0,0,0,0,0
1.15178,388.67020735168933,-6.6733947871149999,-165.05634460419273,0,0,0,0,0,0,0,0
1.1517999999999999,388.60891806458119,-6.7606177328821202,-166.71017451927307,0,0,0,0,0,0,0,0
1.1518199999999998,388.54912229384189,-6.9036851029195274,-168.35742300213198,0,0,0,0,0,0,0,0
1.15184,388.49322386983323,-6.9728607534605516,-169.99802502223451,0,0,0,0,0,0,0,0
1.1518599999999999,388.43944459488335,-6.9679187575609323,-171.63191581136275,0,0,0,0,0,0,0,0
1.15188,388.38599216923569,-7.0181101867782631,-173.25903086635037,0,0,0,0,0,0,0,0
1.1518999999999999,388.33359978825274,-7.1231876678911128,-174.8793059514517,0,0,0,0,0,0,0,0
1.1519200000000001,388.28299698625551,-7.2828910114616807,-176.49267710101003,0,0,0,0,0,0,0,0
1.15194,388.23726110012359,-7.3028558821577674,-178.09908062186571,0,0,0,0,0,0,0,0
1.1519599999999999,388.1925046273418,-7.3122393263151446,-179.69845309597292,0,0,0,0,0,0,0,0
1.15198,388.14827591765254,-7.3754938735627347,-181.29073138285941,0,0,0,0,0,0,0,0
1.1519999999999999,388.10532373663352,-7.4923584906226122,-182.87585262207597,0,0,0,0,0,0,0,0
1.15202,388.06439283405359,-7.662558651249169,-184.45375423577892,0,0,0,0,0,0,0,0
1.15204,388.02903217193614,-7.6271567197650656,-186.02437393108579,0,0,0,0,0,0,0,0
1.1520599999999999,387.99355841426552,-7.6445559175653708,-187.58764970263471,0,0,0,0,0,0,0,0
1.15208,387.95873758727504,-7.7144969632474991,-189.14351983498895,0,0,0,0,0,0,0,0
1.1520999999999999,387.92533155270951,-7.8367063458905672,-190.69192290503162,0,0,0,0,0,0,0,0
1.15212,387.89409780304732,-8.0108964055724332,-192.23279778448887,0,0,0,0,0,0,0,0
1.1521399999999999,387.86873127884087,-7.9782249569065957,-193.76608364223094,0,0,0,0,0,0,0,0
1.1521599999999999,387.84327300329659,-7.9969616002482589,-195.29171994677154,0,0,0,0,0,0,0,0
1.15218,387.81849973220415,-8.0668368496584968,-196.80964646861537,0,0,0,0,0,0,0,0
1.1521999999999999,387.79518373197203,-8.1875663539385002,-198.31980328259505,0,0,0,0,0,0,0,0
1.15222,387.77522049331577,-8.294234189647149,-199.82213077033259,0,0,0,0,0,0,0,0
1.1522399999999999,387.75917141086649,-8.2572947598284951,-201.31656962248408,0,0,0,0,0,0,0,0
1.1522599999999998,387.74294399419557,-8.2703205447003771,-202.80306084117615,0,0,0,0,0,0,0,0
1.15228,387.72732330655253,-8.3330339516971517,-204.28154574229401,0,0,0,0,0,0,0,0
1.1522999999999999,387.71308961835911,-8.4451419164548849,-205.7519659577587,0,0,0,0,0,0,0,0
1.15232,387.70101816604614,-8.6063360010214165,-207.21426343792442,0,0,0,0,0,0,0,0
1.1523399999999999,387.6943886715942,-8.6224785238266204,-208.668380453764,0,0,0,0,0,0,0,0
1.1523600000000001,387.68905700901485,-8.6224562295973275,-210.114259599267,0,0,0,0,0,0,0,0
1.15238,387.68412460394035,-8.6705817863817209,-211.55184379354807,0,0,0,0,0,0,0,0
1.1523999999999999,387.68037658567329,-8.7665561278762034,-212.98107628325809,0,0,0,0,0,0,0,0
1.15242,387.6785927627356,-8.9100642637368583,-214.40190064479714,0,0,0,0,0,0,0,0
1.1524399999999999,387.68238585179176,-8.9069689631524067,-215.81426078638788,0,0,0,0,0,0,0,0
1.15246,387.68692788541415,-8.886130751661188,-217.2181009505087,0,0,0,0,0,0,0,0
1.1524799999999999,387.69151321165259,-8.9118602220790102,-218.6133657159283,0,0,0,0,0,0,0,0
1.1524999999999999,387.69692934814111,-8.9838556334519488,-219.99999999999554,0,0,0,0,0,0,0,0
1.15252,387.7039582550766,-9.1017988109800996,-221.37794906077559,0,0,0,0,0,0,0,0
1.1525399999999999,387.71337605950947,-9.2653552661278837,-222.74715849917408,0,0,0,0,0,0,0,0
1.15256,387.72866479742038,-9.2803466649834441,-224.10757426117161,0,0,0,0,0,0,0,0
1.1525799999999999,387.74527874560198,-9.2756209071183502,-225.45914263985861,0,0,0,0,0,0,0,0
1.1525999999999998,387.76219834096463,-9.3154739702587648,-226.80181027764218,0,0,0,0,0,0,0,0
1.15262,387.78020404386814,-9.3995885958700818,-228.13552416831493,0,0,0,0,0,0,0,0
1.1526399999999999,387.80007029664387,-9.5276307788212584,-229.46023165911214,0,0,0,0,0,0,0,0
1.15266,387.82489087094928,-9.5700015234390001,-230.77588045287419,0,0,0,0,0,0,0,0
1.1526799999999999,387.85130745976232,-9.5909382546309327,-232.08241861001568,0,0,0,0,0,0,0,0
1.1527000000000001,387.87917217564183,-9.5901023461677255,-233.37979455067102,0,0,0,0,0,0,0,0
1.15272,387.90740079720041,-9.6317966081824338,-234.66795705663597,0,0,0,0,0,0,0,0
1.1527399999999999,387.9367633362013,-9.7156924392868405,-235.94685527347229,0,0,0,0,0,0,0,0
1.15276,387.96802338468586,-9.8414442574317889,-237.21643871247969,0,0,0,0,0,0,0,0
1.1527799999999999,388.00302520013889,-9.9440352004005401,-238.47665725265489,0,0,0,0,0,0,0,0
1.1528,388.04280110627133,-9.8937506695391413,-239.72746114275049,0,0,0,0,0,0,0,0
1.15282,388.08200275045948,-9.8841910978124563,-240.96880100314806,0,0,0,0,0,0,0,0
1.1528399999999999,388.12139236809071,-9.9150390413815721,-242.20062782788685,0,0,0,0,0,0,0,0
1.15286,388.16172578034951,-9.9859597832935378,-243.42289298656388,0,0,0,0,0,0,0,0
1.1528799999999999,388.20375207358853,-10.096601484088874,-244.6355482262216,0,0,0,0,0,0,0,0
1.1529,388.24932978752599,-10.181900239772363,-245.83854567332943,0,0,0,0,0,0,0,0
1.1529199999999999,388.29737954608288,-10.241451932366818,-247.0318378355862,0,0,0,0,0,0,0,0
1.1529399999999999,388.34899842027238,-10.210162314566819,-248.21537760387156,0,0,0,0,0,0,0,0
1.15296,388.40036397406556,-10.217065193475708,-249.38911825408314,0,0,0,0,0,0,0,0
1.1529799999999999,388.45221363330165,-10.261826120819546,-250.55301344889691,0,0,0,0,0,0,0,0
1.153,388.50527789282347,-10.344093492977507,-251.70701723978664,0,0,0,0,0,0,0,0
1.1530199999999999,388.560279988057,-10.463498717387576,-252.85108406860627,0,0,0,0,0,0,0,0
1.1530399999999998,388.61910067990732,-10.554900273749393,-253.9851687695774,0,0,0,0,0,0,0,0
1.15306,388.68196219763934,-10.553107163828455,-255.10922657098794,0,0,0,0,0,0,0,0
1.1530799999999999,388.74586091064293,-10.522460479529872,-256.2232130969403,0,0,0,0,0,0,0,0
1.1531,388.8094806383246,-10.527378347848559,-257.32708436917403,0,0,0,0,0,0,0,0
1.1531199999999999,388.87352921820525,-10.567517192554243,-258.42079680872149,0,0,0,0,0,0,0,0
1.1531400000000001,388.93870718017888,-10.642516538705006,-259.50430723770802,0,0,0,0,0,0,0,0
1.15316,389.00570741315823,-10.751999192390755,-260.57757288097753,0,0,0,0,0,0,0,0
1.1531799999999999,389.07641507897364,-10.830739555993937,-261.64055136785015,0,0,0,0,0,0,0,0
1.1532,389.14956875491634,-10.87829861736194,-262.69320073376468,0,0,0,0,0,0,0,0
1.1532199999999999,389.22399923252658,-10.959119493431409,-263.73547942190748,0,0,0,0,0,0,0,0
1.15324,389.30258436783083,-10.943078470136308,-264.76734628491965,0,0,0,0,0,0,0,0
1.15326,389.38114569980138,-10.959479230522422,-265.78876058644545,0,0,0,0,0,0,0,0
1.1532799999999999,389.4603479154448,-11.007962232465394,-266.79968200280666,0,0,0,0,0,0,0,0
1.1533,389.54084787462295,-11.088151657678269,-267.80007062456571,0,0,0,0,0,0,0,0
1.1533199999999999,389.62453516079609,-11.134732896574073,-268.78988695807465,0,0,0,0,0,0,0,0
1.15334,389.71004246869478,-11.147263974580959,-269.76909192709741,0,0,0,0,0,0,0,0
1.1533599999999999,389.79609943490436,-11.190283242175182,-270.7376468742807,0,0,0,0,0,0,0,0
1.1533799999999998,389.88333927120595,-11.263411988808514,-271.69551356274263,0,0,0,0,0,0,0,0
1.1534,389.97463534544499,-11.236295122725108,-272.6426541775549,0,0,0,0,0,0,0,0
1.1534199999999999,390.06563414744363,-11.238446065821369,-273.57903132721071,0,0,0,0,0,0,0,0
1.15344,390.15695267057623,-11.269502231807397,-274.50460804516047,0,0,0,0,0,0,0,0
1.1534599999999999,390.24919982009158,-11.329085543526995,-275.41934779120351,0,0,0,0,0,0,0,0
1.1534799999999998,390.34297608983871,-11.416802641236396,-276.32321445298925,0,0,0,0,0,0,0,0
1.1535,390.44015732183755,-11.467186996168909,-277.21617234741763,0,0,0,0,0,0,0,0
1.1535199999999999,390.53925568765686,-11.479775532116077,-278.0981862220238,0,0,0,0,0,0,0,0
1.15354,390.63887757376068,-11.519228795900803,-278.96922125643403,0,0,0,0,0,0,0,0
1.1535599999999999,390.73959651258264,-11.585158479252335,-279.82924306364509,0,0,0,0,0,0,0,0
1.15358,390.84348299361699,-11.612038055993404,-280.67821769149219,0,0,0,0,0,0,0,0
1.1536,390.94898567820138,-11.599400619955196,-281.51611162389526,0,0,0,0,0,0,0,0
1.1536199999999999,391.05444958624247,-11.611977399588552,-282.34289178224424,0,0,0,0,0,0,0,0
1.15364,391.16042063275415,-11.649389416759149,-283.15852552668161,0,0,0,0,0,0,0,0
1.1536599999999999,391.26743610531605,-11.711243649657607,-283.96298065736886,0,0,0,0,0,0,0,0
1.15368,391.37602436345759,-11.797133259464873,-284.75622541580952,0,0,0,0,0,0,0,0
1.1536999999999999,391.48864319507987,-11.776173934630462,-285.53822848604432,0,0,0,0,0,0,0,0
1.1537199999999999,391.60101295278884,-11.778358151962875,-286.30895899593838,0,0,0,0,0,0,0,0
1.15374,391.71364142850075,-11.803307449751269,-287.06838651837762,0,0,0,0,0,0,0,0
1.1537599999999999,391.82702770469905,-11.850630143246377,-287.81648107245013,0,0,0,0,0,0,0,0
1.15378,391.94166186782707,-11.91992155616165,-288.55321312467737,0,0,0,0,0,0,0,0
1.1537999999999999,392.05802472698684,-12.010764259101522,-289.27855359012602,0,0,0,0,0,0,0,0
1.1538199999999998,392.17896067012521,-11.992035474141185,-289.99247383360324,0,0,0,0,0,0,0,0
1.15384,392.29966377598083,-11.99393480957051,-290.69494567076657,0,0,0,0,0,0,0,0
1.1538599999999999,392.42059232040623,-12.016078489623014,-291.38594136921802,0,0,0,0,0,0,0,0
1.15388,392.54219566556998,-12.058070660699993,-292.06543364964301,0,0,0,0,0,0,0,0
1.1538999999999999,392.66491399521453,-12.119503630674195,-292.73339568683753,0,0,0,0,0,0,0,0
1.1539200000000001,392.78981138296547,-12.13451020916146,-293.38980111081617,0,0,0,0,0,0,0,0
1.15394,392.91657774757317,-12.102625186759095,-294.03462400780484,0,0,0,0,0,0,0,0
1.1539599999999999,393.04277879145326,-12.088881565747906,-294.6678389213057,0,0,0,0,0,0,0,0
1.15398,393.16882265289746,-12.092899511730387,-295.28942085308381,0,0,0,0,0,0,0,0
1.1539999999999999,393.29510856050558,-12.114288304198253,-295.89934526413748,0,0,0,0,0,0,0,0
1.15402,393.42202659193583,-12.152646578523772,-296.4975880757064,0,0,0,0,0,0,0,0
1.15404,393.54995743830727,-12.207562573923514,-297.08412567017797,0,0,0,0,0,0,0,0
1.1540599999999999,393.67927217439887,-12.278614387250073,-297.65893489205769,0,0,0,0,0,0,0,0
1.15408,393.81033203476352,-12.365370232464905,-298.22199304886664,0,0,0,0,0,0,0,0
1.1540999999999999,393.94348819588663,-12.467388705641113,-298.77327791202288,0,0,0,0,0,0,0,0
1.15412,394.08153793017175,-12.452893628984336,-299.31276771775867,0,0,0,0,0,0,0,0
1.1541399999999999,394.21936755086512,-12.452691506589758,-299.84044116792074,0,0,0,0,0,0,0,0
1.1541599999999999,394.35730171737418,-12.466388427424967,-300.35627743087008,0,0,0,0,0,0,0,0
1.15418,394.49565579459153,-12.493581718326956,-300.8602561422926,0,0,0,0,0,0,0,0
1.1541999999999999,394.63615422783732,-12.468104420743137,-301.35235740594874,0,0,0,0,0,0,0,0
1.15422,394.77615710534315,-12.455258034159241,-301.83256179453673,0,0,0,0,0,0,0,0
1.1542399999999999,394.91595284916025,-12.454653643633467,-302.30085035040094,0,0,0,0,0,0,0,0
1.1542599999999998,395.05582066678028,-12.46589450325861,-302.75720458631537,0,0,0,0,0,0,0,0
1.15428,395.19603037605282,-12.48857628967451,-303.20160648620021,0,0,0,0,0,0,0,0
1.1542999999999999,395.33748935525773,-12.456415734960508,-303.6340385058212,0,0,0,0,0,0,0,0
1.15432,395.47762694233791,-12.500745517543884,-304.05448357351065,0,0,0,0,0,0,0,0
1.1543399999999999,395.61950777055523,-12.489380738040941,-304.46292509080951,0,0,0,0,0,0,0,0
1.1543600000000001,395.76118475890223,-12.487792403727545,-304.8593469331534,0,0,0,0,0,0,0,0
1.15438,395.90288140549865,-12.495581205261471,-305.24373345047968,0,0,0,0,0,0,0,0
1.1543999999999999,396.04481173672184,-12.512341735203174,-305.61606946787043,0,0,0,0,0,0,0,0
1.15442,396.18718017156937,-12.537662749183205,-305.97634028614044,0,0,0,0,0,0,0,0
1.1544399999999999,396.33018139221065,-12.571127430470934,-306.32453168240806,0,0,0,0,0,0,0,0
1.15446,396.47400022079205,-12.612313657784579,-306.66062991067963,0,0,0,0,0,0,0,0
1.15448,396.61881150258029,-12.660794276179539,-306.98462170236638,0,0,0,0,0,0,0,0
1.1544999999999999,396.76477999549576,-12.7161373708513,-307.29649426683034,0,0,0,0,0,0,0,0
1.15452,396.91206026611479,-12.777906543686731,-307.59623529187922,0,0,0,0,0,0,0,0
1.1545399999999999,397.06079659218784,-12.845661192396248,-307.88383294424528,0,0,0,0,0,0,0,0
1.15456,397.2111228717381,-12.918956792058253,-308.15927587007076,0,0,0,0,0,0,0,0
1.1545799999999999,397.36481918300427,-12.931136488270781,-308.42255319533564,0,0,0,0,0,0,0,0
1.1545999999999998,397.51801941627747,-12.947913161029206,-308.67365452630446,0,0,0,0,0,0,0,0
1.15462,397.673257426362,-12.902632803093555,-308.91256994992875,0,0,0,0,0,0,0,0
1.1546399999999999,397.82576645966543,-12.927380137245736,-309.13929003423237,0,0,0,0,0,0,1,0
1.15466,397.98048886068364,-12.889220832712999,-309.35380582869863,0,0,0,0,0,0,1,0
1.1546799999999999,398.13428657927284,-12.854000622972208,-309.55610886460744,0,0,0,0,0,0,1,0
1.1546999999999998,398.28558617958436,-12.887697873487969,-309.74619115538331,0,0,0,0,0,0,1,0
1.15472,398.43929035439851,-12.857218616918038,-309.92404519690604,0,0,0,0,0,0,1,0
1.1547399999999999,398.5922375305413,-12.828479728265913,-310.08966396779465,0,0,0,0,0,0,1,0
1.15476,398.74361262084136,-12.867532237946179,-310.24304092971272,0,0,0,0,0,0,1,0
1.1547799999999999,398.89671747427968,-12.841103273809169,-310.38417002759326,0,0,0,0,0,0,1,0
1.1548,399.04750993329554,-12.881694035302216,-310.51304568990508,0,0,0,0,0,0,1,0
1.15482,399.20084432942099,-12.855951392120129,-310.62966282885554,0,0,0,0,0,0,1,0
1.1548399999999999,399.35350970938839,-12.829915505483557,-310.7340168406007,0,0,0,0,0,0,1,0
1.15486,399.50464466452217,-12.869761847145609,-310.82610360542384,0,0,0,0,0,0,1,0
1.1548799999999999,399.65750229265905,-12.841962696545956,-310.90591948789529,0,0,0,0,0,0,1,0
1.1549,399.80877711967406,-12.879274183168057,-310.97346133702223,0,0,0,0,0,0,1,0
1.1549199999999999,399.96170582146539,-12.848068680488405,-311.02872648636691,0,0,0,0,0,0,1,0
1.1549399999999999,400.11296157599384,-12.881205631917243,-311.07171275415641,0,0,0,0,0,0,1,0
1.15496,400.26576279316112,-12.844958508116221,-311.10241844336684,0,0,0,0,0,0,1,0
1.1549799999999999,400.41676388105788,-12.872291133878713,-311.12084234178957,0,0,0,0,0,0,1,0
1.155,400.56752365455208,-12.896122138059422,-311.12698372208092,0,0,0,0,0,0,1,0
1.1550199999999999,400.71874087371202,-12.916050763674674,-311.12084234178963,0,0,0,0,0,0,1,0
1.1550399999999998,400.87196275479135,-12.864863955889177,-311.10241844336701,0,0,0,0,0,0,1,0
1.15506,401.02301118557591,-12.87571525530312,-311.07171275415669,0,0,0,0,0,0,1,0
1.1550799999999999,401.17419764012828,-12.881433597761355,-311.02872648636725,0,0,0,0,0,0,1,0
1.1551,401.32539668560997,-12.881608091162585,-310.97346133702212,0,0,0,0,0,0,1,0
1.1551199999999999,401.47647332888107,-12.875831302772692,-310.9059194878958,0,0,0,0,0,0,1,0
1.1551400000000001,401.62728310442708,-12.86369952096425,-310.82610360542367,0,0,0,0,0,0,1,0
1.15516,401.77603088824208,-12.911757349423613,-310.73401684060144,0,0,0,0,0,0,1,0
1.1551799999999999,401.9266243959741,-12.88573662583604,-310.62966282885634,0,0,0,0,0,0,1,0
1.1552,402.07560350289265,-12.919149627513779,-310.51304568990491,0,0,0,0,0,0,1,0
1.1552199999999999,402.22686054504283,-12.877617363004081,-310.38417002759422,0,0,0,0,0,0,1,0
1.15524,402.37534785203337,-12.894739376036844,-310.24304092971113,0,0,0,0,0,0,1,0
1.15526,402.52407728431382,-12.903137232001978,-310.08966396779726,0,0,0,0,0,0,1,0
1.1552799999999999,402.67284041226611,-12.902399892569786,-309.92404519690729,0,0,0,0,0,0,1,0
1.1553,402.82141936226901,-12.892122031794877,-309.74619115538462,0,0,0,0,0,0,1,0
1.1553199999999999,402.96958695653262,-12.871904292387812,-309.55610886460886,0,0,0,0,0,0,1,0
1.15534,403.11710685882178,-12.841353538293351,-309.35380582869823,0,0,0,0,0,0,1,0
1.1553599999999999,403.26373372596663,-12.800083103425191,-309.13929003423397,0,0,0,0,0,0,1,0
1.1553799999999999,403.40921336507705,-12.747713036409337,-308.91256994993046,0,0,0,0,0,0,1,0
1.1554,403.55328289635128,-12.683870341191115,-308.67365452630622,0,0,0,0,0,0,1,0
1.1554199999999999,403.69567092139511,-12.608189213362362,-308.42255319533751,0,0,0,0,0,0,1,0
1.15544,403.83609769693493,-12.5203112720693,-308.1592758700703,0,0,0,0,0,0,1,0
1.1554599999999999,403.97224115467833,-12.554509077197466,-307.88383294424733,0,0,0,0,0,0,1,0
1.1554799999999998,404.10897304903824,-12.575863552462158,-307.59623529188138,0,0,0,0,0,0,1,0
1.1555,404.24599261858185,-12.583959654660301,-307.29649426683255,0,0,0,0,0,0,1,0
1.1555199999999999,404.38298975247278,-12.578390498054352,-306.98462170236877,0,0,0,0,0,0,1,0
1.15554,404.5196451847284,-12.558757604084571,-306.66062991067906,0,0,0,0,0,0,1,0
1.1555599999999999,404.65479966323829,-12.592096998932128,-306.32453168241062,0,0,0,0,0,0,1,0
1.1555800000000001,404.79049612778562,-12.610620463254968,-305.97634028613982,0,0,0,0,0,0,1,0
1.1556,404.92639072211051,-12.613917013066208,-305.6160694678731,0,0,0,0,0,0,1,0
1.1556199999999999,405.06051279643935,-12.669076997528933,-305.24373345048247,0,0,0,0,0,0,1,0
1.1556342288575232,405.06051279643935,-12.669076997528933,-305.24373345048247,0,0,0,0,0,0,1,0
