"Time / s","Vo:Measured voltage","IL:Measured current","Vin:Measured voltage","open1:Output","open3:Output","open2:Output","open4:Output","short1:Output","short2:Output","short3:Output","short4:Output"
1.109319370187837,404.35515949894886,2.7829150571769734,67.870248715072663,0,0,0,0,0,0,0,0
1.1093199999999999,404.21620114402594,2.7217285151268249,65.9611326377008,0,0,0,0,0,0,0,0
1.10934,404.07681921670172,2.5976753030064934,64.049412527738681,0,0,0,0,0,0,0,0
1.1093599999999999,403.93628292291839,2.545334390157389,62.135163856657414,0,0,0,0,0,0,0,0
1.10938,403.79539326554601,2.4299179419266896,60.218462195682207,0,0,0,0,0,0,0,0
1.1093999999999999,403.65341687739635,2.3859148024425743,58.299383212947383,0,0,0,0,0,0,0,0
1.1094199999999999,403.51115124437445,2.2786357430720647,56.378002670387865,0,0,0,0,0,0,0,0
1.10944,403.36794866870878,2.242480366130593,54.454396420782714,0,0,0,0,0,0,0,0
1.1094599999999999,403.22451237914157,2.142856942890119,52.52864040489996,0,0,0,0,0,0,0,0
1.10948,403.08032391730654,2.0468929991575289,50.600810648185174,0,0,0,0,0,0,0,0
1.1094999999999999,402.93555806236145,1.9544778861154775,48.670983258143337,0,0,0,0,0,0,0,0
1.1095199999999998,402.79004771124488,1.9326301259098624,46.739234421020555,0,0,0,0,0,0,0,0
1.10954,402.6443970218167,1.8469578033092691,44.805640398935729,0,0,0,0,0,0,0,0
1.1095599999999999,402.49816007762837,1.76450180829353,42.870277526905006,0,0,0,0,0,0,0,0
1.10958,402.35148420728683,1.685159783768361,40.933222209705676,0,0,0,0,0,0,0,0
1.1095999999999999,402.2042168964274,1.6758615709217355,38.994550918999934,0,0,0,0,0,0,0,0
1.1096200000000001,402.05688002045611,1.6024184873954355,37.054340190175729,0,0,0,0,0,0,0,0
1.10964,401.90927921743889,1.4648002989263536,35.112666619465564,0,0,0,0,0,0,0,0
1.1096599999999999,401.76106969362081,1.3299393412553799,33.169606860799789,0,0,0,0,0,0,0,0
1.10968,401.61215643718447,1.3316161255173504,31.225237622833031,0,0,0,0,0,0,0,0
1.1096999999999999,401.46322556370922,1.2688663060832064,29.279635665968691,0,0,0,0,0,0,0,0
1.10972,401.31412089908093,1.141670088163609,27.332877799205413,0,0,0,0,0,0,0,0
1.1097399999999999,401.16457192528378,1.0168709837067389,25.385040877245622,0,0,0,0,0,0,0,0
1.1097599999999999,401.01457548474582,0.96122261139292264,23.43620179733816,0,0,0,0,0,0,0,0
1.10978,400.86441456260519,0.90776219642089051,21.486437496295306,0,0,0,0,0,0,0,0
1.1097999999999999,400.71415453681885,0.7896225765563919,19.535824947508416,0,0,0,0,0,0,0,0
1.10982,400.56356798412372,0.7403204072537527,17.584441157785637,0,0,0,0,0,0,0,0
1.1098399999999999,400.4129144592265,0.62623721711153268,15.63236316445299,0,0,0,0,0,0,0,0
1.1098599999999998,400.26201038768721,0.58079453273958626,13.679668032189507,0,0,0,0,0,0,0,0
1.10988,400.1110690826664,0.47047894065632206,11.72643285003779,0,0,0,0,0,0,0,0
1.1098999999999999,399.95995551088652,0.42861701887562559,9.7727347284136936,0,0,0,0,0,0,0,0
1.10992,399.80883144975547,0.3218003319750557,7.8186507959384466,0,0,0,0,0,0,0,0
1.1099399999999999,399.65761756179177,0.21664846147745245,5.8642581965351281,0,0,0,0,0,0,0,0
1.1099600000000001,399.50634748581359,0.17968855281501422,3.9096340862240631,0,0,0,0,0,0,0,0
1.10998,399.35509897318167,0.14423157753251098,1.9548556303066904,0,0,0,0,0,0,0,0
1.1099999999999999,399.20388708799732,0.043686669717058833,1.8598815560528056e-11,0,0,0,0,0,0,0,0
1.11002,399.05270212972761,0.011094695382456722,-1.9548556303048636,0,0,0,0,0,0,0,0
1.1100399999999999,398.9015744279954,-0.086636741170558376,-3.9096340862399206,0,0,0,0,0,0,0,0
1.11006,398.75052321338086,-0.18302156028198774,-5.8642581965333012,0,0,0,0,0,0,0,0
1.11008,398.59956145935502,-0.27810314244436446,-7.8186507959366205,0,0,0,0,0,0,0,0
1.1100999999999999,398.44869066982437,-0.43833433961677687,-9.7727347283941928,0,0,0,0,0,0,0,0
1.11012,398.29808288239877,-0.53091620053919142,-11.726432850035966,0,0,0,0,0,0,0,0
1.1101399999999999,398.14770002635424,-0.55595398065003609,-13.679668032170014,0,0,0,0,0,0,0,0
1.11016,397.99742174666329,-0.64622245509895193,-15.632363164451165,0,0,0,0,0,0,0,0
1.1101799999999999,397.84742305383725,-0.73537447507682541,-17.584441157783811,0,0,0,0,0,0,0,0
1.1101999999999999,397.6976913330401,-0.82343657710113505,-19.535824947488944,0,0,0,0,0,0,0,0
1.11022,397.54825378491478,-0.91043458757895945,-21.486437496293483,0,0,0,0,0,0,0,0
1.1102399999999999,397.39907992805973,-0.9963894410283366,-23.436201797318706,0,0,0,0,0,0,0,0
1.11026,397.25030473566619,-1.0813255160745983,-25.385040877243807,0,0,0,0,0,0,0,0
1.1102799999999999,397.10189397393538,-1.1652580143084572,-27.332877799203594,0,0,0,0,0,0,0,0
1.1102999999999998,396.95375123985872,-1.3143607044290138,-29.279635665949264,0,0,0,0,0,0,0,0
1.11032,396.80641667040527,-1.3301725578038701,-31.225237622831219,0,0,0,0,0,0,0,0
1.1103399999999999,396.65937150561354,-1.3450606949996855,-33.169606860780391,0,0,0,0,0,0,0,0
1.11036,396.51249710862925,-1.4251169006949487,-35.112666619463752,0,0,0,0,0,0,0,0
1.1103799999999999,396.36595128907447,-1.5702756062125436,-37.05434019017391,0,0,0,0,0,0,0,0
1.1104000000000001,396.22045700016372,-1.5823614964995341,-38.994550918998122,0,0,0,0,0,0,0,0
1.11042,396.07520003501099,-1.5935281028984118,-40.933222209703864,0,0,0,0,0,0,0,0
1.1104399999999999,395.9301305031413,-1.6697611918064448,-42.87027752688568,0,0,0,0,0,0,0,0
1.11046,395.78544535352125,-1.8109851609305476,-44.805640398933924,0,0,0,0,0,0,0,0
1.1104799999999999,395.64163536755768,-1.9511841351071306,-46.739234421001264,0,0,0,0,0,0,0,0
1.1105,395.49882374697205,-2.0244252518018038,-48.670983258141533,0,0,0,0,0,0,0,0
1.11052,395.35651781666701,-2.0966474427963013,-50.600810648183369,0,0,0,0,0,0,0,0
1.1105399999999999,395.21497107447902,-2.1678362227235128,-52.528640404863303,0,0,0,0,0,0,0,0
1.11056,395.07407380572846,-2.2379655295584509,-54.454396420780917,0,0,0,0,0,0,0,0
1.1105799999999999,394.93386034282139,-2.3070099670533804,-56.378002670351279,0,0,0,0,0,0,0,0
1.1106,394.79420375851862,-2.3749381909799405,-58.299383212945585,0,0,0,0,0,0,0,0
1.1106199999999999,394.65502529737313,-2.5074962785076846,-60.218462195680416,0,0,0,0,0,0,0,0
1.1106399999999998,394.51721931492989,-2.5730845716570725,-62.135163856620977,0,0,0,0,0,0,0,0
1.11066,394.37991433390511,-2.7031824793422286,-64.049412527736891,0,0,0,0,0,0,0,0
1.1106799999999999,394.24379207801184,-2.7662719609830604,-65.961132637681743,0,0,0,0,0,0,0,0
1.1107,394.10884118432688,-2.7623766285104407,-67.870248715070886,0,0,0,0,0,0,0,0
1.1107199999999999,393.97409110211851,-2.8228305933464588,-69.776685391235972,0,0,0,0,0,0,0,0
1.1107400000000001,393.83987290068092,-2.9475234229349918,-71.680367403355874,0,0,0,0,0,0,0,0
1.11076,393.70681816375941,-3.0707247467418854,-73.581219597289916,0,0,0,0,0,0,0,0
1.1107799999999999,393.57549148031353,-3.0611893851294454,-75.479166930665514,0,0,0,0,0,0,0,0
1.1108,393.44434790722067,-3.1156948177018209,-77.374134475788878,0,0,0,0,0,0,0,0
1.1108199999999999,393.31375567520467,-3.2341208698194368,-79.26604742255175,0,0,0,0,0,0,0,0
1.11084,393.18457332683568,-3.3508171225349277,-81.154831081504682,0,0,0,0,0,0,0,0
1.11086,393.05707195648017,-3.3346928829502707,-83.040410886668781,0,0,0,0,0,0,0,0
1.1108799999999999,392.92972271357723,-3.3822550070522484,-84.922712398599046,0,0,0,0,0,0,0,0
1.1109,392.80293032395599,-3.4933737436450634,-86.801661307271814,0,0,0,0,0,0,0,0
1.1109199999999999,392.67709851771428,-3.6679140719748276,-88.677183434967404,0,0,0,0,0,0,0,0
1.11094,392.55387725536627,-3.7094705867421442,-90.549204739317631,0,0,0,0,0,0,0,0
1.1109599999999999,392.43134443818684,-3.7488670784733169,-92.417651316092872,0,0,0,0,0,0,0,0
1.1109799999999999,392.30935626459706,-3.8514039789176193,-94.282449402238541,0,0,0,0,0,0,0,0
1.111,392.18892534913766,-3.9515777758358417,-96.143525378736086,0,0,0,0,0,0,0,0
1.1110199999999999,392.06982648100507,-4.0492885423932892,-98.00080577345895,0,0,0,0,0,0,0,0
1.11104,391.95228112313464,-4.0791146376847145,-99.854217264190893,0,0,0,0,0,0,0,0
1.1110599999999999,391.83524716885466,-4.1716181352609167,-101.7036866813863,0,0,0,0,0,0,0,0
1.1110799999999998,391.71981389942806,-4.2613645510120444,-103.54914101117616,0,0,0,0,0,0,0,0
1.1111,391.6057295605641,-4.3482411150777693,-105.39050739820013,0,0,0,0,0,0,0,0
1.1111199999999999,391.49322843568831,-4.3668908287195265,-107.2277131484328,0,0,0,0,0,0,0,0
1.11114,391.38118024962625,-4.4477092014192232,-109.06068573218678,0,0,0,0,0,0,0,0
1.1111599999999999,391.27074272772535,-4.5253276985889528,-110.88935278676018,0,0,0,0,0,0,0,0
1.1111800000000001,391.16163634268793,-4.5996210667021318,-112.71364211960812,0,0,0,0,0,0,0,0
1.1112,391.0539333502972,-4.6704680963142877,-114.53348171082882,0,0,0,0,0,0,0,0
1.1112199999999999,390.94733495643419,-4.7377402146454886,-116.34879971630434,0,0,0,0,0,0,0,0
1.11124,390.84164128442558,-4.8664499692250098,-118.15952447040452,0,0,0,0,0,0,0,0
1.1112599999999999,390.73850820952134,-4.9261826739681558,-119.96558448878375,0,0,0,0,0,0,0,0
1.11128,390.6362414396296,-5.0470451410314174,-121.76690847131768,0,0,0,0,0,0,0,0
1.1113,390.53611935794578,-5.0986814449236153,-123.5634253047872,0,0,0,0,0,0,0,0
1.1113199999999999,390.43754146713144,-5.1460676550031215,-125.35506406580021,0,0,0,0,0,0,0,0
1.11134,390.34016825201024,-5.1890541582835601,-127.14175402354233,0,0,0,0,0,0,0,0
1.1113599999999999,390.24354819148647,-5.2925321923369877,-128.92342464252101,0,0,0,0,0,0,0,0
1.11138,390.14881021824544,-5.3912891102617246,-130.70000558546315,0,0,0,0,0,0,0,0
1.1113999999999999,390.05637381454591,-5.4201630769641698,-132.47142671596296,0,0,0,0,0,0,0,0
1.1114199999999999,389.9650097005333,-5.4440240298248712,-134.23761810136352,0,0,0,0,0,0,0,0
1.11144,389.87424006117783,-5.5276908497752339,-135.99851001546898,0,0,0,0,0,0,0,0
1.1114599999999999,389.78467969027724,-5.6709623695185725,-137.75403294124985,0,0,0,0,0,0,0,0
1.11148,389.69776516132663,-5.7437384841677002,-139.50411757369878,0,0,0,0,0,0,0,0
1.1114999999999999,389.61324613893845,-5.7458879055857839,-141.24869482243938,0,0,0,0,0,0,0,0
1.1115199999999998,389.52911049922534,-5.8071030765268414,-142.98769581456492,0,0,0,0,0,0,0,0
1.11154,389.44600118477518,-5.9271759371475534,-144.72105189730956,0,0,0,0,0,0,0,0
1.1115599999999999,389.36517442560984,-6.0410007542388522,-146.44869464071178,0,0,0,0,0,0,0,0
1.11158,389.28754893692388,-6.0186366756219831,-148.17055584042549,0,0,0,0,0,0,0,0
1.1115999999999999,389.21003643910291,-6.0545526239219871,-149.88656752028771,0,0,0,0,0,0,0,0
1.1116200000000001,389.13330662653505,-6.1485347869191793,-151.59666193512663,0,0,0,0,0,0,0,0
1.11164,389.05802641666639,-6.3003586780598413,-153.30077157331198,0,0,0,0,0,0,0,0
1.1116599999999999,388.98641435514651,-6.3801439868642058,-154.99882915952861,0,0,0,0,0,0,0,0
1.11168,388.91688646004394,-6.3877022389351081,-156.69076765738583,0,0,0,0,0,0,0,0
1.1116999999999999,388.84782851372393,-6.4524730795414413,-158.37652027201827,0,0,0,0,0,0,0,0
1.11172,388.77993229404717,-6.5742269013410981,-160.05602045284476,0,0,0,0,0,0,0,0
1.11174,388.71457660770631,-6.6879444261299996,-161.72920189599807,0,0,0,0,0,0,0,0
1.1117599999999999,388.65273730750823,-6.6638671201333048,-163.39599854720052,0,0,0,0,0,0,0,0
1.11178,388.59097847700593,-6.6961077177119117,-165.05634460418909,0,0,0,0,0,0,0,0
1.1117999999999999,388.53001523388122,-6.7844331034843854,-166.71017451928441,0,0,0,0,0,0,0,0
1.11182,388.47055938123879,-6.9285980390453465,-168.35742300215813,0,0,0,0,0,0,0,0
1.1118399999999999,388.41502256523864,-6.9988923432752461,-169.99802502223096,0,0,0,0,0,0,0,0
1.1118599999999998,388.36162752875134,-6.9950895345076596,-171.63191581135919,0,0,0,0,0,0,0,0
1.11188,388.3085743428685,-7.0464141931521347,-173.25903086634685,0,0,0,0,0,0,0,0
1.1118999999999999,388.25659611639475,-7.1526187277319524,-174.8793059514482,0,0,0,0,0,0,0,0
1.11192,388.20642229422407,-7.3134427318852326,-176.49267710100651,0,0,0,0,0,0,0,0
1.1119399999999999,388.1608988810446,-7.3345592104616371,-178.09908062186219,0,0,0,0,0,0,0,0
1.1119600000000001,388.11662127202101,-7.3451040795959113,-179.69845309598389,0,0,0,0,0,0,0,0
1.11198,388.07288737804242,-7.4095123784326606,-181.29073138285594,0,0,0,0,0,0,0,0
1.1119999999999999,388.030445850013,-7.5275228313753679,-182.8758526220725,0,0,0,0,0,0,0,0
1.11202,387.99108884942405,-7.634206973023935,-184.45375423577548,0,0,0,0,0,0,0,0
1.1120399999999999,387.95535221749412,-7.5999857478952464,-186.02437393108238,0,0,0,0,0,0,0,0
1.11206,387.91951984464004,-7.6185713236795234,-187.58764970264542,0,0,0,0,0,0,0,0
1.11208,387.88435783097538,-7.6897041397447934,-189.14351983498554,0,0,0,0,0,0,0,0
1.1120999999999999,387.85062810802651,-7.813110404839966,-190.69192290502824,0,0,0,0,0,0,0,0
1.11212,387.81908823394286,-7.988502177677737,-192.23279778448548,0,0,0,0,0,0,0,0
1.1121399999999999,387.79342038510981,-7.9570870535892126,-193.76608364222758,0,0,0,0,0,0,0,0
1.11216,387.76767996632327,-7.9770846740476822,-195.29171994678197,0,0,0,0,0,0,0,0
1.1121799999999999,387.74264379415717,-8.048225232162558,-196.80964646861204,0,0,0,0,0,0,0,0
1.1121999999999999,387.71908419091358,-8.1702240548645761,-198.31980328259175,0,0,0,0,0,0,0,0
1.11222,387.69889426453324,-8.2781775901455283,-199.82213077032932,0,0,0,0,0,0,0,0
1.1122399999999999,387.68263157471335,-8.2425654925207983,-201.31656962248084,0,0,0,0,0,0,0,0
1.11226,387.66621156968756,-8.2569219173700734,-202.80306084118629,0,0,0,0,0,0,0,0
1.1122799999999999,387.6504193539804,-8.3209689069321886,-204.2815457422908,0,0,0,0,0,0,0,0
1.1122999999999998,387.63603523351748,-8.4344130310405987,-205.75196595775549,0,0,0,0,0,0,0,0
1.11232,387.62383447445063,-8.5969454854338938,-207.21426343793439,0,0,0,0,0,0,0,0
1.1123399999999999,387.61709317232845,-8.6144668293175659,-208.66838045376088,0,0,0,0,0,0,0,0
1.11236,387.61167110342518,-8.6158378233711073,-210.11425959926385,0,0,0,0,0,0,0,0
1.1123799999999999,387.60667113165829,-8.6653578764766692,-211.55184379354492,0,0,0,0,0,0,0,0
1.1124000000000001,387.60287839407954,-8.7627275109838454,-212.98107628328074,0,0,0,0,0,0,0,0
1.11242,387.60107270022718,-8.9076313251860171,-214.40190064479404,0,0,0,0,0,0,0,0
1.1124399999999999,387.60486629838135,-8.9059704322636435,-215.81426078638481,0,0,0,0,0,0,0,0
1.11246,387.6094330243161,-8.8865791002340515,-217.21810095050566,0,0,0,0,0,0,0,0
1.1124799999999999,387.61406757497139,-8.9137545480376321,-218.61336571592528,0,0,0,0,0,0,0,0
1.1125,387.61955743950256,-8.987194577207525,-220.00000000000503,0,0,0,0,0,0,0,0
1.11252,387.62668454188156,-9.1065805561019069,-221.37794906077261,0,0,0,0,0,0,0,0
1.1125399999999999,387.63622496520526,-9.2715775401584821,-222.74715849917109,0,0,0,0,0,0,0,0
1.11256,387.65233513795897,-9.2234468801786136,-224.10757426116862,0,0,0,0,0,0,0,0
1.1125799999999999,387.66799121651462,-9.2202139927579001,-225.45914263985566,0,0,0,0,0,0,0,0
1.1126,387.68397969774406,-9.2615779767395008,-226.80181027765133,0,0,0,0,0,0,0,0
1.1126199999999999,387.70108134447747,-9.3472210508867271,-228.13552416831203,0,0,0,0,0,0,0,0
1.1126399999999999,387.72007089216885,-9.4768086816823676,-229.46023165910924,0,0,0,0,0,0,0,0
1.11266,387.7427577149308,-9.5853780556064443,-230.77588045287132,0,0,0,0,0,0,0,0
1.1126799999999999,387.76949724541373,-9.6079384208946639,-232.08241861001287,0,0,0,0,0,0,0,0
1.1127,387.79771680998573,-9.608732841708127,-233.37979455066818,0,0,0,0,0,0,0,0
1.1127199999999999,387.82632971432275,-9.652049824560434,-234.66795705663318,0,0,0,0,0,0,0,0
1.1127399999999998,387.85610581539959,-9.7375601819655877,-235.94685527346954,0,0,0,0,0,0,0,0
1.11276,387.88780853990329,-9.8649177490559854,-237.21643871247693,0,0,0,0,0,0,0,0
1.1127799999999999,387.92376692227469,-9.9044763644071683,-238.47665725265213,0,0,0,0,0,0,0,0
1.1128,387.9621417226686,-9.9204909911567132,-239.72746114274776,0,0,0,0,0,0,0,0
1.1128199999999999,388.00189180262112,-9.9125892736863488,-240.96880100314539,0,0,0,0,0,0,0,0
1.1128400000000001,388.04186067955851,-9.9450832090103241,-242.20062782789523,0,0,0,0,0,0,0,0
1.11286,388.08280393421109,-10.017637447163015,-243.42289298656127,0,0,0,0,0,0,0,0
1.1128799999999999,388.12547040072207,-10.129899520843177,-244.63554822621896,0,0,0,0,0,0,0,0
1.1129,388.17172364444258,-10.216817896814067,-245.83854567333765,0,0,0,0,0,0,0,0
1.1129199999999999,388.22183444039865,-10.213298887329223,-247.03183783558362,0,0,0,0,0,0,0,0
1.11294,388.27295172282879,-10.183629586007184,-248.21537760389032,0,0,0,0,0,0,0,0
1.1129599999999999,388.32384739287414,-10.192162949072797,-249.38911825408061,0,0,0,0,0,0,0,0
1.1129799999999999,388.37525905493789,-10.238563848706876,-250.55301344890486,0,0,0,0,0,0,0,0
1.113,388.42791736914512,-10.322479998157577,-251.70701723978411,0,0,0,0,0,0,0,0
1.1130199999999999,388.48254572286589,-10.443542118430013,-252.8510840686038,0,0,0,0,0,0,0,0
1.11304,388.54102224502054,-10.536620982342468,-253.98516876958513,0,0,0,0,0,0,0,0
1.1130599999999999,388.60218193842957,-10.601289897544316,-255.1092265709855,0,0,0,0,0,0,0,0
1.1130799999999998,388.66709175848882,-10.572381760179132,-256.22321309693785,0,0,0,0,0,0,0,0
1.1131,388.73175674777127,-10.579015358769107,-257.32708436917164,0,0,0,0,0,0,0,0
1.1131199999999999,388.79688426716388,-10.62084637352824,-258.4207968087191,0,0,0,0,0,0,0,0
1.11314,388.86317435534636,-10.697513596689243,-259.50430723770563,0,0,0,0,0,0,0,0
1.1131599999999999,388.93131939565734,-10.808639112564181,-260.5775728809752,0,0,0,0,0,0,0,0
1.1131800000000001,389.00375303448965,-10.824189025826495,-261.64055136785737,0,0,0,0,0,0,0,0
1.1132,389.0768177440068,-10.873372558896165,-262.69320073376235,0,0,0,0,0,0,0,0
1.1132199999999999,389.15261763624466,-10.890976525902714,-263.73547942190527,0,0,0,0,0,0,0,0
1.11324,389.22984276138862,-10.876576144907339,-264.76734628491738,0,0,0,0,0,0,0,0
1.1132599999999999,389.30707871210632,-10.894647806556518,-265.78876058644323,0,0,0,0,0,0,0,0
1.11328,389.38499077752255,-10.944831173763331,-266.7996820028136,0,0,0,0,0,0,0,0
1.1133,389.46423640287566,-11.02674961990501,-267.80007062456355,0,0,0,0,0,0,0,0
1.1133193701878368,389.46423640287566,-11.02674961990501,-267.80007062456355,0,0,0,0,0,0,0,0
