Time / s,Vo:Measured voltage,IL:Measured current,Vin:Measured voltage,short1:Output,short2:Output,short3:Output,short4:Output,open1:Output,open3:Output,open2:Output,open4:Output
1.1953134452937717,402.8587105843965,-12.910856365027607,-309.7461911553843,0,0,0,0,0,0,0,0
1.19532,403.0072898891869,-12.889675182504927,-309.5561088646102,0,0,0,0,0,0,0,0
1.1953399999999998,403.1551987498504,-12.858150782967288,-309.3538058287016,0,0,0,0,0,0,0,0
1.19536,403.302191600664,-12.81589708759461,-309.1392900342335,0,0,0,0,0,0,0,0
1.19538,403.4480140400333,-12.762534737755969,-308.91256994992995,0,0,0,0,0,0,0,0
1.1954,403.5924029934201,-12.69769133525918,-308.67365452630565,0,0,0,0,0,0,0,0
1.19542,403.7350868817711,-12.62100167831813,-308.422553195337,0,0,0,0,0,0,0,0
1.1954399999999998,403.8757857953333,-12.532107993097735,-308.15927587007207,0,0,0,0,0,0,0,0
1.19546,404.0121742468133,-12.565296729034966,-307.8838329442467,0,0,0,0,0,0,0,0
1.19548,404.1491277391111,-12.58563630657301,-307.5962352918808,0,0,0,0,0,0,0,0
1.1955,404.2863453922823,-12.592712276739906,-307.29649426683187,0,0,0,0,0,0,0,0
1.19552,404.4235169907409,-12.58611835079596,-306.98462170236803,0,0,0,0,0,0,0,0
1.19554,404.5603231775677,-12.565456649596886,-306.6606299106784,0,0,0,0,0,0,0,0
1.19556,404.6948298730493,-12.59776919095004,-306.3245316824098,0,0,0,0,0,0,0,0
1.19558,404.82985636640126,-12.615282478640028,-305.97634028614226,0,0,0,0,0,0,0,0
1.1956,404.96505922813446,-12.617586080230474,-305.6160694678723,0,0,0,0,0,0,0,0
1.19562,405.1008570789424,-12.60428022603596,-305.24373345048167,0,0,0,0,0,0,0,0
1.19564,405.2345017914645,-12.64247353945228,-304.859346933152,0,0,0,0,0,0,0,0
1.19566,405.36877831486254,-12.66430102062514,-304.4629250908116,0,0,0,0,0,0,0,0
1.19568,405.5033098373004,-12.669352027620224,-304.0544835735128,0,0,0,0,0,0,0,0
1.1957,405.63771047292926,-12.657226016090029,-303.6340385058234,0,0,0,0,0,0,0,0
1.19572,405.7715854974921,-12.627532778145358,-303.2016064862024,0,0,0,0,0,0,0,0
1.19574,405.90453158920536,-12.579892675229583,-302.7572045863177,0,0,0,0,0,0,0,0
1.19576,406.03613707477336,-12.513936864864638,-302.30085035040327,0,0,0,0,0,0,0,0
1.1957799999999998,406.16598218038206,-12.4293075211431,-301.8325617945392,0,0,0,0,0,0,0,0
1.1958,406.2936392875442,-12.325658048842737,-301.35235740595124,0,0,0,0,0,0,0,0
1.19582,406.4166804565645,-12.338092398893092,-300.8602561422952,0,0,0,0,0,0,0,0
1.19584,406.53973370595605,-12.330889030061268,-300.3562774308773,0,0,0,0,0,0,0,0
1.19586,406.6623543586229,-12.303659244620086,-299.8404411679234,0,0,0,0,0,0,0,0
1.19588,406.78408932291535,-12.2560261220631,-299.3127677177518,0,0,0,0,0,0,0,0
1.1959,406.90366365412615,-12.255426184894304,-298.7732779120306,0,0,0,0,0,0,0,0
1.19592,407.0213675189431,-12.301540006389988,-298.22199304887454,0,0,0,0,0,0,0,0
1.19594,407.139809832422,-12.326204087959423,-297.6589348920606,0,0,0,0,0,0,0,0
1.19596,407.2585114306706,-12.3290161468893,-297.084125670181,0,0,0,0,0,0,0,0
1.19598,407.3769845723537,-12.309586449379331,-296.49758807570413,0,0,0,0,0,0,0,0
1.196,407.4947332219273,-12.267538030133183,-295.8993452641406,0,0,0,0,0,0,0,0
1.19602,407.61125333754745,-12.202506904950482,-295.28942085308694,0,0,0,0,0,0,0,0
1.19604,407.7260331634888,-12.114142276208506,-294.66783892130894,0,0,0,0,0,0,0,0
1.19606,407.83795234607487,-12.070063220124462,-294.03462400780813,0,0,0,0,0,0,0,0
1.19608,407.94725103891335,-12.069973598323472,-293.3898011108136,0,0,0,0,0,0,0,0
1.1961,408.05624098621206,-12.045577338819797,-292.7333956868409,0,0,0,0,0,0,0,0
1.19612,408.1643880063059,-11.996504877560024,-292.0654336496465,0,0,0,0,0,0,0,0
1.19614,408.27115020855126,-11.922400469216132,-291.38594136922154,0,0,0,0,0,0,0,0
1.19616,408.3736458050684,-11.959015106991613,-290.6949456707701,0,0,0,0,0,0,0,0
1.19618,408.47661436689714,-11.969970450472506,-289.9924738336069,0,0,0,0,0,0,0,0
1.1962,408.579499589589,-11.954882294587488,-289.27855359012966,0,0,0,0,0,0,0,0
1.1962199999999998,408.6817372674201,-11.913380662648692,-288.5532131246811,0,0,0,0,0,0,0,0
1.19624,408.7827556045795,-11.845110003336249,-287.81648107245394,0,0,0,0,0,0,0,0
1.19626,408.88139109889227,-11.81786045342402,-287.06838651838154,0,0,0,0,0,0,0,0
1.19628,408.97779936305005,-11.83132865306734,-286.3089589959423,0,0,0,0,0,0,0,0
1.1963,409.0741619064856,-11.817043982968134,-285.5382284860483,0,0,0,0,0,0,0,0
1.19632,409.1698862413338,-11.774640940208366,-284.75622541580645,0,0,0,0,0,0,0,0
1.19634,409.2643725109498,-11.703768990640564,-283.9629806573729,0,0,0,0,0,0,0,0
1.19636,409.3570138120973,-11.604092750382204,-283.15852552668576,0,0,0,0,0,0,0,0
1.19638,409.44491870702905,-11.611743179422652,-282.3428917822485,0,0,0,0,0,0,0,0
1.1964,409.5326429417202,-11.589999715683136,-281.5161116238995,0,0,0,0,0,0,0,0
1.19642,409.6195683373648,-11.53850566046097,-280.6782176914889,0,0,0,0,0,0,0,0
1.19644,409.7045065811423,-11.525188743391414,-279.8292430636496,0,0,0,0,0,0,0,0
1.19646,409.78754307504926,-11.54974091511477,-278.96922125643846,0,0,0,0,0,0,0,0
1.19648,409.8707365011727,-11.543555865749523,-278.0981862220283,0,0,0,0,0,0,0,0
1.1965,409.95344979802593,-11.50627400617842,-277.2161723474302,0,0,0,0,0,0,0,0
1.19652,410.0350388986872,-11.43755145833656,-276.32321445299385,0,0,0,0,0,0,0,0
1.19654,410.1148530588813,-11.33706022302918,-275.41934779120817,0,0,0,0,0,0,0,0
1.1965599999999998,410.1907715945175,-11.272837339452265,-274.50460804516524,0,0,0,0,0,0,0,0
1.19658,410.2642493713256,-11.244624327392732,-273.5790313272155,0,0,0,0,0,0,0,0
1.1966,410.3355602051423,-11.252126520268076,-272.64265417755973,0,0,0,0,0,0,0,0
1.19662,410.40666356176695,-11.22665794417294,-271.6955135627475,0,0,0,0,0,0,0,0
1.19664,410.4763412924567,-11.236274592031007,-270.7376468742857,0,0,0,0,0,0,0,0
1.1966599999999998,410.54584748038445,-11.21225259528598,-269.7690919271024,0,0,0,0,0,0,0,0
1.19668,410.6145060941013,-11.154251344100611,-268.7898869580797,0,0,0,0,0,0,0,0
1.1967,410.68163470969887,-11.061946491505216,-267.8000706245708,0,0,0,0,0,0,0,0
1.19672,410.74654483992526,-10.935030102554666,-266.79968200281183,0,0,0,0,0,0,0,0
1.19674,410.8063790035439,-10.910118005897187,-265.7887605864507,0,0,0,0,0,0,0,0
1.19676,410.8641625026368,-10.918513597994629,-264.7673462849156,0,0,0,0,0,0,0,0
1.19678,410.9217420943533,-10.891447374092872,-263.7354794219128,0,0,0,0,0,0,0,0
1.1968,410.9778953169112,-10.89707051458052,-262.69320073377,0,0,0,0,0,0,0,0
1.19682,411.0337847922247,-10.866583118949016,-261.6405513678556,0,0,0,0,0,0,0,0
1.19684,411.0887072063037,-10.799657659557028,-260.57757288098304,0,0,0,0,0,0,0,0
1.19686,411.14195332048007,-10.69598310690754,-259.50430723770376,0,0,0,0,0,0,0,0
1.19688,411.1928082948742,-10.555265064172191,-258.42079680872706,0,0,0,0,0,0,0,0
1.1969,411.2384601205256,-10.514278431145312,-257.32708436917966,0,0,0,0,0,0,0,0
1.19692,411.2813188158336,-10.572792795106846,-256.22321309694604,0,0,0,0,0,0,0,0
1.19694,411.32490316578543,-10.59344317261984,-255.10922657099368,0,0,0,0,0,0,0,0
1.19696,411.3684984150086,-10.57589031588802,-253.9851687695832,0,0,0,0,0,0,0,0
1.19698,411.41138385970953,-10.519811325238596,-252.85108406861207,0,0,0,0,0,0,0,0
1.1969999999999998,411.4528331582566,-10.424899779996071,-251.7070172397925,0,0,0,0,0,0,0,0
1.19702,411.4921146440384,-10.290865862838636,-250.55301344891336,0,0,0,0,0,0,0,0
1.19704,411.5271519626223,-10.186009681485924,-249.3891182540892,0,0,0,0,0,0,0,0
1.19706,411.55830251981945,-10.178674916229802,-248.21537760387764,0,0,0,0,0,0,0,0
1.19708,411.58822139137936,-10.200017860701196,-247.03183783560303,0,0,0,0,0,0,0,0
1.1971,411.6181494257279,-10.18114686676169,-245.83854567332472,0,0,0,0,0,0,0,0
1.19712,411.64735271717086,-10.12175016762776,-244.6355482262278,0,0,0,0,0,0,0,0
1.19714,411.675092119065,-10.021532344714856,-243.42289298657016,0,0,0,0,0,0,0,0
1.19716,411.7006235440173,-9.880214440010535,-242.2006278278932,0,0,0,0,0,0,0,0
1.19718,411.72086000106736,-9.834748395491884,-240.96880100315445,0,0,0,0,0,0,0,0
1.1972,411.7400701852085,-9.816299864147004,-239.72746114274565,0,0,0,0,0,0,0,0
1.19722,411.757270737465,-9.824563946205217,-238.4766572526613,0,0,0,0,0,0,0,0
1.19724,411.7742371131443,-9.790647742642587,-237.21643871248625,0,0,0,0,0,0,0,0
1.19726,411.7902255521857,-9.71425589454667,-235.9468552734789,0,0,0,0,0,0,0,0
1.19728,411.8044875277224,-9.595109173671528,-234.66795705664256,0,0,0,0,0,0,0,0
1.1973,411.81526331395486,-9.50156890336274,-233.379794550666,0,0,0,0,0,0,0,0
1.19732,411.8223548088452,-9.502014155816893,-232.0824186100224,0,0,0,0,0,0,0,0
1.1973399999999998,411.828394820201,-9.527560290154558,-230.77588045288093,0,0,0,0,0,0,0,0
1.19736,411.8344917006448,-9.509288097773728,-229.46023165911896,0,0,0,0,0,0,0,0
1.19738,411.839899479009,-9.44690709658046,-228.13552416832172,0,0,0,0,0,0,0,0
1.1974,411.84386767174885,-9.340142550546414,-226.80181027764905,0,0,0,0,0,0,0,0
1.19742,411.8456415525888,-9.18873556099556,-225.45914263986552,0,0,0,0,0,0,0,0
1.1974399999999998,411.8431174873492,-9.129703700520077,-224.10757426117857,0,0,0,0,0,0,0,0
1.19746,411.83735916822656,-9.162798158550553,-222.74715849918115,0,0,0,0,0,0,0,0
1.19748,411.8317702986871,-9.150498026768709,-221.37794906078267,0,0,0,0,0,0,0,0
1.1975,411.82560578991,-9.092521713433651,-220.00000000000264,0,0,0,0,0,0,0,0
1.19752,411.8181163534316,-8.988602926142697,-218.61336571593543,0,0,0,0,0,0,0,0
1.19754,411.80854875372336,-8.838490754266342,-217.21810095050324,0,0,0,0,0,0,0,0
1.19756,411.794866670031,-8.779195516159374,-215.81426078639512,0,0,0,0,0,0,0,0
1.19758,411.7780498574383,-8.810466364035706,-214.4019006448044,0,0,0,0,0,0,0,0
1.1976,411.7613592485,-8.794805289308881,-212.9810762832783,0,0,0,0,0,0,0,0
1.19762,411.74405323974497,-8.731942849473029,-211.5518437935554,0,0,0,0,0,0,0,0
1.19764,411.7253863802727,-8.621624407356858,-210.1142595992483,0,0,0,0,0,0,0,0
1.19766,411.7046096070496,-8.463610204427502,-208.66838045377148,0,0,0,0,0,0,0,0
1.19768,411.6786256805816,-8.463485006645653,-207.2142634379451,0,0,0,0,0,0,0,0
1.1977,411.65165730024046,-8.48379618486653,-205.75196595776623,0,0,0,0,0,0,0,0
1.19772,411.62463657180746,-8.45567800589849,-204.28154574230163,0,0,0,0,0,0,0,0
1.19774,411.59682790825553,-8.378875768291644,-202.8030608411837,0,0,0,0,0,0,0,0
1.19776,411.567492250914,-8.25314904117742,-201.31656962249176,0,0,0,0,0,0,0,0
1.1977799999999998,411.5350446938567,-8.146851505825898,-199.82213077034027,0,0,0,0,0,0,0,0
1.1978,411.4992146221216,-8.128327374292237,-198.3198032826028,0,0,0,0,0,0,0,0
1.19782,411.4621574244876,-8.128754772697802,-196.8096464686232,0,0,0,0,0,0,0,0
1.19784,411.4247541241893,-8.079312803306786,-195.29171994677932,0,0,0,0,0,0,0,0
1.19786,411.3862778496618,-7.979763486421156,-193.7660836422388,0,0,0,0,0,0,0,0
1.19788,411.3459986434455,-7.829882539891255,-192.23279778448287,0,0,0,0,0,0,0,0
1.1979,411.3013427707136,-7.766540002834968,-190.6919229050396,0,0,0,0,0,0,0,0
1.19792,411.2545476927015,-7.789504216836688,-189.1435198349969,0,0,0,0,0,0,0,0
1.19794,411.2077308415013,-7.761447502394586,-187.58764970264272,0,0,0,0,0,0,0,0
1.19796,411.1601795009671,-7.682136978942335,-186.0243739310939,0,0,0,0,0,0,0,0
1.19798,411.1111780702777,-7.551352809639878,-184.4537542357728,0,0,0,0,0,0,0,0
1.198,411.06000824717376,-7.368888251553477,-182.87585262208407,0,0,0,0,0,0,0,0
1.19802,411.00339711005375,-7.40852116824024,-181.2907313828676,0,0,0,0,0,0,0,0
1.19804,410.94698398597694,-7.39602260068165,-179.69845309598114,0,0,0,0,0,0,0,0
1.19806,410.89007230769175,-7.331166980091409,-178.09908062187392,0,0,0,0,0,0,0,0
1.19808,410.8319628473637,-7.213741114691933,-176.49267710100375,0,0,0,0,0,0,0,0
1.1981,410.771953882882,-7.043544234496662,-174.87930595146003,0,0,0,0,0,0,0,0
1.19812,410.70689792539406,-7.0941637970461295,-173.25903086635873,0,0,0,0,0,0,0,0
1.19814,410.6421675507207,-7.091562970274789,-171.63191581137116,0,0,0,0,0,0,0,0
1.19816,410.5770840040236,-7.035525325167127,-169.99802502224293,0,0,0,0,0,0,0,0
1.19818,410.5109661081213,-6.925846138775873,-168.3574230021553,0,0,0,0,0,0,0,0
1.1982,410.4431304136178,-6.7623324336914825,-166.7101745192965,0,0,0,0,0,0,0,0
1.1982199999999998,410.370803653242,-6.749966000599512,-165.05634460420126,0,0,0,0,0,0,0,0
1.19824,410.2977485507798,-6.751727778068909,-163.3959985472127,0,0,0,0,0,0,0,0
1.19826,410.2244075062874,-6.699017215277686,-161.72920189602542,0,0,0,0,0,0,0,0
1.19828,410.15011927132167,-6.591639520654973,-160.05602045282671,0,0,0,0,0,0,0,0
1.1983,410.07422055442754,-6.429410968516977,-158.3765202720306,0,0,0,0,0,0,0,0
1.19832,352.3431932271347,-7.149590089593148,-156.6907676573829,1,0,0,0,0,0,0,0
1.19834,104.86633391847936,-9.620339373979633,-154.99882915954103,1,0,0,0,0,0,0,0
1.19836,23.48440460918257,-13.859829233234532,-153.30077157332445,1,0,0,0,0,0,0,0
1.19838,5.369128419204577,-18.736826418205904,-151.59666193512373,1,0,0,0,0,0,0,0
1.1984,1.367078377792095,-23.710478497359407,-149.88656752030028,1,0,0,0,0,0,0,0
1.19842,0.512985604031028,-28.659992357596817,-148.17055584042254,1,0,0,0,0,0,0,0
1.19844,0.360689545916506,-33.55828455177265,-146.44869464072443,1,0,0,0,0,0,0,0
1.19846,0.3704787925107873,-38.39924392141933,-144.72105189732224,1,0,0,0,0,0,0,0
1.19848,0.4161349806227427,-43.18131093991831,-142.98769581457765,1,0,0,0,0,0,0,0
1.1985,0.4634379299660129,-47.903939337820496,-141.24869482245214,1,0,0,0,0,0,0,0
1.19852,0.5102534256158715,-52.56693846560624,-139.50411757369577,1,0,0,0,0,0,0,0
1.19854,0.5564768126738229,-57.170142346016526,-137.75403294126272,1,0,0,0,0,0,0,0
1.1985599999999998,0.6021014839473158,-61.71338843424526,-135.99851001548186,1,0,0,0,0,0,0,0
1.19858,0.6471255902769483,-66.19651659818489,-134.23761810137643,1,0,0,0,0,0,0,0
1.1986,0.6915475348173052,-70.61936907518695,-132.47142671597595,1,0,0,0,0,0,0,0
1.19862,0.735365755475649,-74.98179047589822,-130.7000055854601,1,0,0,0,0,0,0,0
1.19864,0.7785787144626152,-79.28362779028251,-128.92342464253406,1,0,0,0,0,0,0,0
1.1986599999999998,0.8211848978452785,-83.52473039365778,-127.1417540235554,1,0,0,0,0,0,0,0
1.19868,0.8631828155824128,-87.70495005264331,-125.35506406581332,1,0,0,0,0,0,0,0
1.1987,0.9045710015821604,-91.82414093101528,-123.56342530480036,1,0,0,0,0,0,0,0
1.19872,0.9453480137598702,-95.882159595465,-121.76690847131458,1,0,0,0,0,0,0,0
1.19874,0.9855124340950444,-99.87886502126425,-119.96558448879698,1,0,0,0,0,0,0,0
1.19876,1.0250628686873564,-103.8141185978352,-118.15952447038508,1,0,0,0,0,0,0,0
1.19878,1.0639979478116777,-107.68778413422358,-116.34879971631764,1,0,0,0,0,0,0,0
1.1988,1.1023163259721946,-111.49972786447792,-114.53348171084214,1,0,0,0,0,0,0,0
1.19882,1.1400166819555329,-115.24981845293276,-112.7136421195885,1,0,0,0,0,0,0,0
1.19884,1.177097718882942,-118.9379269993956,-110.88935278677356,1,0,0,0,0,0,0,0
1.19886,1.2135581642615223,-122.56392704423725,-109.06068573216707,1,0,0,0,0,0,0,0
1.19888,1.2493967700344766,-126.12769457338725,-107.22771314844624,1,0,0,0,0,0,0,0
1.1989,1.284612312630396,-129.62910802323083,-105.3905073982136,1,0,0,0,0,0,0,0
1.19892,1.3192035930115973,-133.06804828541152,-103.54914101118968,1,0,0,0,0,0,0,0
1.19894,1.3531694367214742,-136.44439871153403,-101.70368668139984,1,0,0,0,0,0,0,0
1.19896,1.3865086939308833,-139.75804511777224,-99.85421726418768,1,0,0,0,0,0,0,0
1.19898,1.419220239483563,-143.00887578937895,-98.0008057734725,1,0,0,0,0,0,0,0
1.1989999999999998,1.451302972940562,-146.19678148509783,-96.14352537874971,1,0,0,0,0,0,0,0
1.19902,1.4827558186237262,-149.32165544147998,-94.2824494022522,1,0,0,0,0,0,0,0
1.19904,1.5135777256581735,-152.38339337709908,-92.41765131610656,1,0,0,0,0,0,0,0
1.19906,1.5437676680137808,-155.38189349666953,-90.54920473931442,1,0,0,0,0,0,0,0
1.19908,1.5733246445457594,-158.31705649507094,-88.67718343498116,1,0,0,0,0,0,0,0
1.1991,1.6022476790341398,-161.18878556126572,-86.80166130726857,1,0,0,0,0,0,0,0
1.19912,1.6305358202224,-163.9969863821287,-84.92271239861283,1,0,0,0,0,0,0,0
1.19914,1.658188141854975,-166.74156714616666,-83.0404108866826,1,0,0,0,0,0,0,0
1.19916,1.6852037427138846,-169.42243854714977,-81.15483108150144,1,0,0,0,0,0,0,0
1.19918,1.7115817466543335,-172.03951378763713,-79.2660474225656,1,0,0,0,0,0,0,0
1.1992,1.7373213026392929,-174.59270858240544,-77.37413447578564,1,0,0,0,0,0,0,0
1.19922,1.7624215847731513,-177.08194116178018,-75.47916693067943,1,0,0,0,0,0,0,0
1.19924,1.7868817923343194,-179.5071322748637,-73.58121959730384,1,0,0,0,0,0,0,0
1.19926,1.8107011498068737,-181.86820519266712,-71.6803674033526,1,0,0,0,0,0,0,0
1.19928,1.8338789069111885,-184.1650857111423,-69.77668539124994,1,0,0,0,0,0,0,0
