"Time / s","Vo:Measured voltage","IL:Measured current","Vin:Measured voltage","open1:Output","open3:Output","open2:Output","open4:Output","short1:Output","short2:Output","short3:Output","short4:Output"
1.1349699270938083,400.23372942515755,-12.890421697459818,-311.1024184433669,0,0,0,0,0,0,0,0
1.1349799999999999,400.3866760584491,-12.851851266643729,-311.12084234178951,0,0,0,0,0,0,0,0
1.135,400.53776212054424,-12.876468500228645,-311.12698372208092,0,0,0,0,0,0,0,0
1.1350199999999999,400.68853822966446,-12.897173577783912,-311.12084234178963,0,0,0,0,0,0,0,0
1.13504,400.83969358393006,-12.913567671612734,-311.10241844336673,0,0,0,0,0,0,0,0
1.13506,400.99276491474245,-12.858419772098699,-311.07171275415658,0,0,0,0,0,0,0,0
1.1350799999999999,401.14356595254293,-12.864926192814632,-311.02872648636708,0,0,0,0,0,0,0,0
1.1351,401.2943983459453,-12.865898419796396,-310.97346133702194,0,0,0,0,0,0,0,0
1.1351199999999999,401.44348376710309,-12.927817416816193,-310.90591948789557,0,0,0,0,0,0,0,0
1.13514,401.59475155892062,-12.91651729194639,-310.82610360542338,0,0,0,0,0,0,0,0
1.1351599999999999,401.74561807040783,-12.898450298506257,-310.7340168406011,0,0,0,0,0,0,0,0
1.1351799999999999,401.89670441581234,-12.873221505255838,-310.62966282885594,0,0,0,0,0,0,0,0
1.1352,402.04541189150189,-12.907407338059771,-310.51304568990452,0,0,0,0,0,0,0,0
1.1352199999999999,402.19641385279476,-12.866659640275959,-310.38417002759377,0,0,0,0,0,0,0,0
1.13524,402.34466621307786,-12.884567412767188,-310.24304092971198,0,0,0,0,0,0,0,0
1.1352599999999999,402.49317918634921,-12.893756761464179,-310.08966396779675,0,0,0,0,0,0,0,0
1.1352799999999998,402.64174446418326,-12.893816171221362,-309.92404519690672,0,0,0,0,0,0,0,0
1.1353,402.79014428294704,-12.884339836333767,-309.7461911553857,0,0,0,0,0,0,0,0
1.1353199999999999,402.93815156357527,-12.864927917097152,-309.55610886461,0,0,0,0,0,0,0,0
1.13534,403.08553005723701,-12.835186792676682,-309.35380582869942,0,0,0,0,0,0,0,0
1.1353599999999999,403.23203449679795,-12.794729310133034,-309.13929003423516,0,0,0,0,0,0,0,0
1.1353800000000001,403.37741075399595,-12.743175029458591,-308.91256994992966,0,0,0,0,0,0,0,0
1.1354,403.52139600221705,-12.680150464477963,-308.67365452630764,0,0,0,0,0,0,0,0
1.1354199999999999,403.66371888478562,-12.605289319469639,-308.42255319533899,0,0,0,0,0,0,0,0
1.13544,403.80268433691583,-12.585516498047099,-308.15927587007184,0,0,0,0,0,0,0,0
1.1354599999999999,403.94099468202239,-12.553231117528998,-307.88383294424892,0,0,0,0,0,0,0,0
1.13548,404.07771810471439,-12.575377805840461,-307.59623529188036,0,0,0,0,0,0,0,0
1.1355,404.21474744722491,-12.584266041699127,-307.29649426683426,0,0,0,0,0,0,0,0
1.1355199999999999,404.35177258465416,-12.579488476901831,-306.98462170237053,0,0,0,0,0,0,0,0
1.13554,404.48847422631906,-12.560646170937838,-306.66062991067793,0,0,0,0,0,0,0,0
1.1355599999999999,404.62369267953886,-12.594769501292072,-306.3245316824125,0,0,0,0,0,0,0,0
1.13558,404.75947100581476,-12.61407500282702,-305.97634028613857,0,0,0,0,0,0,0,0
1.1355999999999999,404.89546529354146,-12.618151241746821,-305.61606946787185,0,0,0,0,0,0,0,0
1.1356199999999999,405.03132245563216,-12.60659605464738,-305.24373345048122,0,0,0,0,0,0,0,0
1.13564,405.16506586505875,-12.646526316657887,-304.85934693315141,0,0,0,0,0,0,0,0
1.1356599999999999,405.29948048320176,-12.670087641728387,-304.46292509081104,0,0,0,0,0,0,0,0
1.13568,405.43418940157812,-12.676868404439908,-304.05448357350849,0,0,0,0,0,0,0,0
1.1356999999999999,405.56880661540941,-12.666467079736957,-303.6340385058229,0,0,0,0,0,0,0,0
1.1357199999999998,405.7029372593073,-12.638492482354948,-303.20160648620185,0,0,0,0,0,0,0,0
1.13574,405.83617784824628,-12.592564000247918,-302.75720458631713,0,0,0,0,0,0,0,0
1.1357599999999999,405.96811652367739,-12.528311821885932,-302.30085035040275,0,0,0,0,0,0,0,0
1.13578,406.09833330463863,-12.445377157295455,-301.83256179453434,0,0,0,0,0,0,0,0
1.1357999999999999,406.22640034373109,-12.343412452719324,-301.35235740595061,0,0,0,0,0,0,0,0
1.1358200000000001,406.34988356687944,-12.357498376675027,-300.86025614228998,0,0,0,0,0,0,0,0
1.13584,406.47341560403487,-12.351935081496379,-300.35627743087667,0,0,0,0,0,0,0,0
1.1358599999999999,406.59655149623143,-12.326332967830769,-299.84044116792279,0,0,0,0,0,0,0,0
1.13588,406.71883784992571,-12.280314220824311,-299.31276771775595,0,0,0,0,0,0,0,0
1.1358999999999999,406.83824043167124,-12.281301927941829,-298.77327791202993,0,0,0,0,0,0,0,0
1.13592,406.95738564782164,-12.261187644360708,-298.22199304886885,0,0,0,0,0,0,0,0
1.1359399999999999,407.07497705287875,-12.287422603071544,-297.65893489206502,0,0,0,0,0,0,0,0
1.1359599999999999,407.19286303234514,-12.291825673807852,-297.08412567018547,0,0,0,0,0,0,0,0
1.13598,407.31055626728465,-12.274006257103132,-296.49758807570873,0,0,0,0,0,0,0,0
1.1359999999999999,407.42756112513672,-12.233586512030744,-295.89934526414532,0,0,0,0,0,0,0,0
1.13602,407.54337394741299,-12.170201569271713,-295.2894208530862,0,0,0,0,0,0,0,0
1.1360399999999999,407.65748334192608,-12.083499737077149,-294.66783892131383,0,0,0,0,0,0,0,0
1.1360599999999998,407.76742323860861,-12.109033090247232,-294.03462400781314,0,0,0,0,0,0,0,0
1.13608,407.87761707864678,-12.110621781996457,-293.38980111081867,0,0,0,0,0,0,0,0
1.1360999999999999,407.98753820576525,-12.087881763511165,-292.73339568684611,0,0,0,0,0,0,0,0
1.13612,408.09665193379482,-12.040442614072418,-292.06543364963949,0,0,0,0,0,0,0,0
1.1361399999999999,408.20441584922662,-11.967947744094969,-291.38594136922688,0,0,0,0,0,0,0,0
1.1361600000000001,408.30874448217162,-11.938089033455142,-290.69494567076299,0,0,0,0,0,0,0,0
1.13618,408.4113040589499,-11.950587228626182,-289.99247383360603,0,0,0,0,0,0,0,0
1.1361999999999999,408.5138137395553,-11.937051058774616,-289.27855359012881,0,0,0,0,0,0,0,0
1.13622,408.61570949355018,-11.897109752776499,-288.55321312467356,0,0,0,0,0,0,0,0
1.1362399999999999,408.71641968321245,-11.830406961007661,-287.81648107245303,0,0,0,0,0,0,0,0
1.13626,408.81346422639973,-11.872841066690743,-287.06838651837376,0,0,0,0,0,0,0,0
1.13628,408.91108090046606,-11.887874615540989,-286.3089589959414,0,0,0,0,0,0,0,0
1.1362999999999999,409.0086842909069,-11.875126563674144,-285.53822848604733,0,0,0,0,0,0,0,0
1.13632,409.105681280299,-11.834230661531691,-284.75622541580543,0,0,0,0,0,0,0,0
1.1363399999999999,409.20147136700132,-11.764835643270025,-283.96298065737199,0,0,0,0,0,0,0,0
1.13636,409.29544698766784,-11.666605408609831,-283.15852552667741,0,0,0,0,0,0,0,0
1.1363799999999999,409.38549349854833,-11.607433535309859,-282.34289178224748,0,0,0,0,0,0,0,0
1.1363999999999999,409.47316444111766,-11.587057893678589,-281.51611162389844,0,0,0,0,0,0,0,0
1.13642,409.56006516836624,-11.53693241573389,-280.67821769148787,0,0,0,0,0,0,0,0
1.1364399999999999,409.64429957096365,-11.524974362459439,-279.82924306364845,0,0,0,0,0,0,0,0
1.13646,409.72736850598301,-11.550890861777408,-278.96922125642959,0,0,0,0,0,0,0,0
1.1364799999999999,409.81062245776803,-11.546068940846881,-278.09818622203511,0,0,0,0,0,0,0,0
1.1364999999999998,409.89342432293859,-11.510148374579471,-277.21617234742911,0,0,0,0,0,0,0,0
1.13652,409.97512997960257,-11.442784650104814,-276.32321445300084,0,0,0,0,0,0,0,0
1.1365399999999999,410.05508861547094,-11.343649134884055,-275.41934779121527,0,0,0,0,0,0,0,0
1.13656,410.13264305922371,-11.212429237285575,-274.5046080451641,0,0,0,0,0,0,0,0
1.1365799999999999,410.20492994944942,-11.185534350616324,-273.57903132722276,0,0,0,0,0,0,0,0
1.1366000000000001,410.27508612094789,-11.194370829437005,-272.6426541775586,0,0,0,0,0,0,0,0
1.13662,410.3445155969851,-11.238638175128521,-271.69551356275497,0,0,0,0,0,0,0,0
1.1366399999999999,410.41447006033479,-11.249617648727847,-270.73764687429315,0,0,0,0,0,0,0,0
1.13666,410.48428006307205,-11.22695193735569,-269.76909192710121,0,0,0,0,0,0,0,0
1.1366799999999999,410.55326942677112,-11.170299837737462,-268.78988695808744,0,0,0,0,0,0,0,0
1.1367,410.62075556876624,-11.079336412896634,-267.80007062456059,0,0,0,0,0,0,0,0
1.13672,410.68604983134964,-10.953753141569209,-266.79968200281058,0,0,0,0,0,0,0,0
1.1367399999999999,410.74704221747197,-10.861700340303484,-265.78876058645864,0,0,0,0,0,0,0,0
1.13676,410.80391460793186,-10.871387166758039,-264.76734628491437,0,0,0,0,0,0,0,0
1.1367799999999999,410.86127634022279,-10.845631699972733,-263.73547942191152,0,0,0,0,0,0,0,0
1.1368,410.91657670283013,-10.852559338891579,-262.69320073375923,0,0,0,0,0,0,0,0
1.1368199999999999,410.97163910887133,-10.823394203918193,-261.64055136785424,0,0,0,0,0,0,0,0
1.1368399999999999,411.02576057362484,-10.757808211580432,-260.57757288098173,0,0,0,0,0,0,0,0
1.13686,411.07823217672308,-10.65548976970987,-259.50430723770245,0,0,0,0,0,0,0,0
1.1368799999999999,411.12833938549079,-10.516143912202477,-258.4207968087257,0,0,0,0,0,0,0,0
1.1369,411.17279276006013,-10.545039407851613,-257.3270843691684,0,0,0,0,0,0,0,0
1.1369199999999999,411.2174183942837,-10.536377892162646,-256.22321309694462,0,0,0,0,0,0,0,0
1.1369399999999998,411.26035540429274,-10.558360139237115,-255.10922657099229,0,0,0,0,0,0,0,0
1.13696,411.3033286994314,-10.542152098976725,-253.98516876958178,0,0,0,0,0,0,0,0
1.1369799999999999,411.34561780453356,-10.487430343081522,-252.85108406861073,0,0,0,0,0,0,0,0
1.137,411.38649659653299,-10.393887917694858,-251.70701723978073,0,0,0,0,0,0,0,0
1.1370199999999999,411.42523361724818,-10.261234467969144,-250.55301344891194,0,0,0,0,0,0,0,0
1.1370400000000001,411.46000289644945,-10.157760395747705,-249.38911825407712,0,0,0,0,0,0,0,0
1.13706,411.48995573426174,-10.220358506847981,-248.21537760388682,0,0,0,0,0,0,0,0
1.1370799999999999,411.52067055610797,-10.243054819621024,-247.03183783560158,0,0,0,0,0,0,0,0
1.1371,411.55141869354225,-10.225520853576581,-245.8385456733341,0,0,0,0,0,0,0,0
1.1371199999999999,411.58146593032819,-10.167444364176999,-244.63554822623723,0,0,0,0,0,0,0,0
1.13714,411.6100728007724,-10.068529461442923,-243.42289298656866,0,0,0,0,0,0,0,0
1.1371599999999999,411.63649489004155,-9.9284967224948328,-242.20062782790268,0,0,0,0,0,0,0,0
1.1371799999999999,411.65893660317653,-9.8156810481990728,-240.96880100316409,0,0,0,0,0,0,0,0
1.1372,411.67653794522175,-9.8670440885228743,-239.72746114275537,0,0,0,0,0,0,0,0
1.1372199999999999,411.69466493522572,-9.8765203493001934,-238.47665725267112,0,0,0,0,0,0,0,0
1.13724,411.71257853867701,-9.8437980433994259,-237.21643871248463,0,0,0,0,0,0,0,0
1.1372599999999999,411.72953466290835,-9.768581415759078,-235.94685527348881,0,0,0,0,0,0,0,0
1.1372799999999998,411.74478444166806,-9.650590848535229,-234.6679570566526,0,0,0,0,0,0,0,0
1.1373,411.75757452138311,-9.4895629606507725,-233.37979455066437,0,0,0,0,0,0,0,0
1.1373199999999999,411.76575154641563,-9.4224843217370271,-232.08241861003253,0,0,0,0,0,0,0,0
1.13734,411.77047278478403,-9.4491109733900256,-230.77588045286745,0,0,0,0,0,0,0,0
1.1373599999999999,411.77526993075588,-9.4319435780921328,-229.46023165911728,0,0,0,0,0,0,0,0
1.1373800000000001,411.77939741482891,-9.3706912910707469,-228.13552416830811,0,0,0,0,0,0,0,0
1.1374,411.78210514875553,-9.2650790062339627,-226.80181027764738,0,0,0,0,0,0,0,0
1.1374199999999999,411.78263879506761,-9.1148474475784056,-225.45914263986384,0,0,0,0,0,0,0,0
1.13744,411.77770103008157,-9.1256090435447543,-224.10757426116459,0,0,0,0,0,0,0,0
1.1374599999999999,411.77191013375722,-9.1598818572264022,-222.74715849917939,0,0,0,0,0,0,0,0
1.13748,411.76630798026008,-9.1487603131375206,-221.37794906076851,0,0,0,0,0,0,0,0
1.1375,411.76014947441911,-9.0919624722985883,-220.00000000000091,0,0,0,0,0,0,0,0
1.1375199999999999,411.75268531574289,-8.9892216952868704,-218.61336571593372,0,0,0,0,0,0,0,0
1.13754,411.74316225100404,-8.8402867247736392,-217.21810095050151,0,0,0,0,0,0,0,0
1.1375599999999999,411.7295430387947,-8.7821457479558287,-215.81426078639336,0,0,0,0,0,0,0,0
1.13758,411.71280635723053,-8.8145476405594465,-214.40190064478983,0,0,0,0,0,0,0,0
1.1375999999999999,411.69621365494964,-8.8000158866847755,-212.98107628327654,0,0,0,0,0,0,0,0
1.1376199999999999,411.67902329216685,-8.7382807363232562,-211.55184379355362,0,0,0,0,0,0,0,0
1.13764,411.66048977684147,-8.6290872455213847,-210.11425959925955,0,0,0,0,0,0,0,0
1.1376599999999999,411.63986399998902,-8.4721953497679259,-208.66838045378279,0,0,0,0,0,0,0,0
1.13768,411.61404426766529,-8.4731571712043756,-207.21426343793007,0,0,0,0,0,0,0,0
1.1376999999999999,411.58725499874413,-8.4945415344552622,-205.75196595777766,0,0,0,0,0,0,0,0
1.1377199999999998,411.56042954655601,-8.467493241949926,-204.28154574231311,0,0,0,0,0,0,0,0
1.13774,411.53283226594937,-8.3917573238756606,-202.8030608411953,0,0,0,0,0,0,0,0
1.1377599999999999,411.50372403609231,-8.2670930820481825,-201.31656962250341,0,0,0,0,0,0,0,0
1.13778,411.47236247848133,-8.0932741542143631,-199.82213077033845,0,0,0,0,0,0,0,0
1.1377999999999999,411.43517761832101,-8.1443432246658372,-198.31980328261452,0,0,0,0,0,0,0,0
1.1378200000000001,411.3983850062105,-8.1457902533269131,-196.80964646860755,0,0,0,0,0,0,0,0
1.13784,411.36126098677494,-8.0973633868193602,-195.2917199467912,0,0,0,0,0,0,0,0
1.1378599999999999,411.32307861534315,-7.9988244117051543,-193.76608364225072,0,0,0,0,0,0,0,0
1.13788,411.28310785798612,-7.8499488133316646,-192.23279778448094,0,0,0,0,0,0,0,0
1.1378999999999999,411.23982522108162,-7.7190570723689991,-190.69192290503764,0,0,0,0,0,0,0,0
1.13792,411.19239833791511,-7.7429778773677311,-189.14351983498094,0,0,0,0,0,0,0,0
1.13794,411.14496331843566,-7.7158871641743909,-187.58764970264079,0,0,0,0,0,0,0,0
1.1379599999999999,411.09680757100801,-7.6375518404907474,-186.0243739310919,0,0,0,0,0,0,0,0
1.13798,411.08066241336365,-3.8085283059180974,-184.45375423577079,1,0,0,0,0,0,0,0
1.1379999999999999,410.95376634435502,0.22787140121304683,-182.87585262208214,1,0,0,0,0,0,0,0
1.13802,410.79748596576468,0.15281263517933191,-181.29073138285122,1,0,0,0,0,0,0,0
1.1380399999999999,410.64156830220685,0.076798675973500111,-179.69845309597915,1,0,0,0,0,0,0,0
1.1380599999999998,410.48594093650411,0.038552374755003865,-178.09908062187193,1,0,0,0,0,0,0,0
1.13808,410.33047156789479,-0.00017649272363247205,-176.49267710100173,1,0,0,0,0,0,0,0
1.1380999999999999,410.17507279241357,-0.00017487935270714172,-174.87930595145801,1,0,0,0,0,0,0,0
1.13812,410.0197328689581,-0.00017325907784439346,-173.25903086634202,1,0,0,0,0,0,0,0
1.1381399999999999,409.86445177524001,-0.00017163196300993359,-171.63191581136911,1,0,0,0,0,0,0,0
1.1381599999999998,409.70922948897891,-0.000169998072439455,-169.99802502224091,1,0,0,0,0,0,0,0
1.13818,409.55406598790461,-0.00016835747063614521,-168.35742300215327,1,0,0,0,0,0,0,0
1.1381999999999999,409.39896124975326,-0.00016671022236818342,-166.71017451929441,1,0,0,0,0,0,0,0
1.13822,409.24391525227117,-0.00016505639266608163,-165.05634460418418,1,0,0,0,0,0,0,0
1.1382399999999999,409.08892797321209,-0.00016339604682023397,-163.39599854722567,1,0,0,0,0,0,0,0
1.13826,408.93399939033799,-0.0001617292503782216,-161.72920189600825,1,0,0,0,0,0,0,0
1.13828,408.77912948142034,-0.00016005606914234425,-160.05602045283979,1,0,0,0,0,0,0,0
1.1382999999999999,408.62431822423804,-0.00015837656916691705,-158.37652027204373,1,0,0,0,0,0,0,0
1.13832,408.46956559657866,-0.0001566908167557082,-156.69076765739612,1,0,0,0,0,0,0,0
1.1383399999999999,408.31487157623786,-0.00015499887845936663,-154.99882915955422,1,0,0,0,0,0,0,0
1.13836,408.16023614102068,-0.0001533008210726888,-153.30077157332232,1,0,0,0,0,0,0,0
1.1383799999999999,408.00565926874003,-0.00015159671163210341,-151.59666193513701,1,0,0,0,0,0,0,0
1.1383999999999999,407.85114093721705,-0.00014988661741291792,-149.88656752031363,1,0,0,0,0,0,0,0
1.13842,407.69668112428116,-0.00014817060592670864,-148.17055584043595,1,0,0,0,0,0,0,0
1.1384399999999999,407.54227980777046,-0.00014644874491870152,-146.44869464073787,1,0,0,0,0,0,0,0
1.13846,407.38793696553159,-0.00014472110236497427,-144.72105189730445,1,0,0,0,0,0,0,0
1.1384799999999999,407.23365257541934,-0.00014298774646995905,-142.98769581457549,1,0,0,0,0,0,0,0
1.1384999999999998,407.07942661529671,-0.000141248745663563,-141.24869482246572,1,0,0,0,0,0,0,0
1.13852,406.92525906303598,-0.00013950416859849786,-139.50411757369358,1,0,0,0,0,0,0,0
1.1385399999999999,406.77114989651676,-0.00013775408414775714,-137.75403294126053,1,0,0,0,0,0,0,0
1.13856,406.6170990936273,-0.00013599856140163134,-135.99851001546375,1,0,0,0,0,0,0,0
1.1385799999999999,406.46310663226444,-0.00013423766966518409,-134.23761810137424,1,0,0,0,0,0,0,0
1.1386000000000001,406.30917249033342,-0.00013247147845537417,-132.47142671595773,1,0,0,0,0,0,0,0
1.13862,406.15529664574757,-0.00013070005749843834,-130.70000558545789,1,0,0,0,0,0,0,0
1.1386399999999999,406.00147907642901,-0.00012892347672702675,-128.92342464253181,1,0,0,0,0,0,0,0
1.13866,405.8477197603072,-0.00012714180627749043,-127.14175402353703,1,0,0,0,0,0,0,0
1.1386799999999999,405.69401867532184,-0.00012535511648715996,-125.35506406581109,1,0,0,0,0,0,0,0
1.1387,405.54037579941883,-0.00012356347789145672,-123.56342530478189,1,0,0,0,0,0,0,0
1.13872,405.38679111055399,-0.00012176696122123713,-121.76690847131233,1,0,0,0,0,0,0,0
1.1387399999999999,405.23326458669084,-0.00011996563739988687,-119.96558448879472,1,0,0,0,0,0,0,0
1.13876,405.07979620580181,-0.00011815957754057002,-118.15952447039915,1,0,0,0,0,0,0,0
1.1387799999999999,404.92638594586697,-0.00011634885294346972,-116.34879971631536,1,0,0,0,0,0,0,0
1.1388,404.77303378487494,-0.00011453353509286,-114.53348171082344,1,0,0,0,0,0,0,0
1.1388199999999999,404.61973970082249,-0.00011271369565441403,-112.71364211960271,1,0,0,0,0,0,0,0
1.1388399999999999,404.46650367171469,-0.00011088940647226024,-110.88935278678782,1,0,0,0,0,0,0,0
1.13886,404.31332567556592,-0.00010906073956619576,-109.06068573218137,1,0,0,0,0,0,0,0
1.1388799999999999,404.16020569039711,-0.00010722776712889147,-107.22771314846057,1,0,0,0,0,0,0,0
1.1389,404.00714369423912,-0.00010539056152292785,-105.3905073982113,1,0,0,0,0,0,0,0
1.1389199999999999,403.85413966513119,-0.00010354919527806941,-103.54914101120406,1,0,0,0,0,0,0,0
1.1389399999999998,403.70119358111964,-0.00010170374108828592,-101.70368668141424,1,0,0,0,0,0,0,0
1.13896,403.54830542025991,-9.9854271808932468e-05,-99.854217264202134,1,0,0,0,0,0,0,0
1.1389699270938081,403.54830542025991,-9.9854271808932468e-05,-99.854217264202134,1,0,0,0,0,0,0,0
