Time / s,Vo:Measured voltage,IL:Measured current,Vin:Measured voltage,short1:Output,short2:Output,short3:Output,short4:Output,open1:Output,open3:Output,open2:Output,open4:Output
1.1857876905476683,406.1581736988328,12.456390576657997,301.83256179453406,0,0,0,0,0,0,0,0
1.1858,406.28391791722265,12.420576118202346,301.3523574059504,0,0,0,0,0,0,0,0
1.18582,406.40757492313287,12.433169590610484,300.8602561422943,0,0,0,0,0,0,0,0
1.18584,406.5312497612952,12.426110170907108,300.35627743087645,0,0,0,0,0,0,0,0
1.18586,406.6544974706822,12.39900902674612,299.84044116792256,0,0,0,0,0,0,0,0
1.18588,406.7768646727827,12.35148911005307,299.31276771775566,0,0,0,0,0,0,0,0
1.1859,406.8978898414519,12.283185375897606,298.7732779120297,0,0,0,0,0,0,0,0
1.18592,407.0154603480463,12.329383837257952,298.2219930488736,0,0,0,0,0,0,0,0
1.18594,407.13377274288047,12.354135854486174,297.65893489206474,0,0,0,0,0,0,0,0
1.18596,407.25234796238567,12.357039061767871,297.0841256701852,0,0,0,0,0,0,0,0
1.18598,407.3706983635872,12.337703639789709,296.49758807570845,0,0,0,0,0,0,0,0
1.186,407.4883280072901,12.295752535378906,295.89934526414504,0,0,0,0,0,0,0,0
1.18602,407.6047329459286,12.230821674145242,295.2894208530915,0,0,0,0,0,0,0,0
1.18604,407.7194015159421,12.142560166013398,294.66783892130786,0,0,0,0,0,0,0,0
1.18606,407.829106774209,12.166540472483668,294.0346240078128,0,0,0,0,0,0,0,0
1.18608,407.9390355547543,12.166582391971229,293.38980111081247,0,0,0,0,0,0,0,0
1.1861,408.0486614162294,12.142302605023165,292.73339568683974,0,0,0,0,0,0,0,0
1.1861199999999998,408.1574499030296,12.09333141486613,292.06543364964534,0,0,0,0,0,0,0,0
1.18614,408.26485884772313,12.019312950071996,291.38594136922035,0,0,0,0,0,0,0,0
1.18616,408.3691627915738,11.98795225836462,290.694945670769,0,0,0,0,0,0,0,0
1.18618,408.47202733999006,11.998957916919387,289.9924738336057,0,0,0,0,0,0,0,0
1.1862,408.5748115618636,11.983922626297208,289.27855359012847,0,0,0,0,0,0,0,0
1.18622,408.6769513332218,11.942476339384951,288.5532131246732,0,0,0,0,0,0,0,0
1.18624,408.77787493836695,11.874263432526014,287.8164810724527,0,0,0,0,0,0,0,0
1.18626,408.8743636542965,11.915202260668975,287.06838651838024,0,0,0,0,0,0,0,0
1.18628,408.9713970246132,11.928754129822938,286.308958995941,0,0,0,0,0,0,0,0
1.1863,409.0683899975387,11.914538634009569,285.53822848604693,0,0,0,0,0,0,0,0
1.18632,409.16474983152347,11.872190152893724,284.7562254158051,0,0,0,0,0,0,0,0
1.18634,409.2598764137518,11.801358040868957,283.9629806573716,0,0,0,0,0,0,0,0
1.18636,409.3531625824556,11.701706808608018,283.1585255266844,0,0,0,0,0,0,0,0
1.18638,409.4428458031159,11.641142685172536,282.3428917822471,0,0,0,0,0,0,0,0
1.1864,409.5304788726996,11.61939181252824,281.5161116238981,0,0,0,0,0,0,0,0
1.18642,409.6173151839517,11.567892574921974,280.6782176914874,0,0,0,0,0,0,0,0
1.18644,409.70180801021127,11.554573670021126,279.82924306364805,0,0,0,0,0,0,0,0
1.1864599999999998,409.7840457041815,11.579130906139998,278.969221256437,0,0,0,0,0,0,0,0
1.18648,409.8664453724214,11.57296915237358,278.0981862220347,0,0,0,0,0,0,0,0
1.1865,409.9483703814472,11.535728700856907,277.21617234742865,0,0,0,0,0,0,0,0
1.18652,410.029177089456,11.467065545119164,276.32321445300045,0,0,0,0,0,0,0,0
1.18654,410.1082151742078,11.366651547970028,275.4193477912148,0,0,0,0,0,0,0,0
1.1865599999999998,410.1837068093297,11.302524991722995,274.504608045172,0,0,0,0,0,0,0,0
1.18658,410.2571052550758,11.274415576088572,273.5790313272224,0,0,0,0,0,0,0,0
1.1866,410.3279922982336,11.282019369231383,272.64265417756667,0,0,0,0,0,0,0,0
1.18662,410.39777406983154,11.32504846654952,271.6955135627459,0,0,0,0,0,0,0,0
1.18664,410.4680607492237,11.334782504244291,270.73764687429275,0,0,0,0,0,0,0,0
1.18666,410.5381828108638,11.310864615116913,269.7690919270919,0,0,0,0,0,0,0,0
1.18668,410.60746400747,11.252954043131291,268.789886958078,0,0,0,0,0,0,0,0
1.1867,410.6752216963097,11.160726299913838,267.8000706245691,0,0,0,0,0,0,0,0
1.18672,410.7407671684141,11.03387331397436,266.79968200281013,0,0,0,0,0,0,0,0
1.18674,410.80231439918407,10.94055760525527,265.78876058644886,0,0,0,0,0,0,0,0
1.18676,410.85969732447575,10.948984953263247,264.76734628491386,0,0,0,0,0,0,0,0
1.18678,410.9175480527385,10.921963285098874,263.73547942191107,0,0,0,0,0,0,0,0
1.1868,410.9729730316875,10.92762155492686,262.6932007337682,0,0,0,0,0,0,0,0
1.18682,411.0281407388789,10.897184971857758,261.64055136785373,0,0,0,0,0,0,0,0
1.18684,411.0823482128373,10.830325866663287,260.5775728809812,0,0,0,0,0,0,0,0
1.18686,411.1348865642474,10.72673306078678,259.50430723770194,0,0,0,0,0,0,0,0
1.18688,411.1850412992724,10.586112000937389,258.4207968087252,0,0,0,0,0,0,0,0
1.1868999999999998,411.22916639899455,10.613759110504663,257.3270843691778,0,0,0,0,0,0,0,0
1.18692,411.2740953148209,10.603860665812922,256.2232130969441,0,0,0,0,0,0,0,0
1.18694,411.31698381870297,10.624607101583727,255.10922657099172,0,0,0,0,0,0,0,0
1.18696,411.3598911535787,10.607164823901549,253.9851687695813,0,0,0,0,0,0,0,0
1.18698,411.4020969345506,10.551210766157684,252.85108406861025,0,0,0,0,0,0,0,0
1.187,411.4428751353378,10.456438334204398,251.70701723978016,0,0,0,0,0,0,0,0
1.18702,411.48149440101446,10.322557530786671,250.5530134489114,0,0,0,0,0,0,0,0
1.18704,411.5147649368933,10.286439717868586,249.3891182540872,0,0,0,0,0,0,0,0
1.18706,411.5462003822458,10.279281320115963,248.21537760388628,0,0,0,0,0,0,0,0
1.18708,411.5767124822469,10.300792703339436,247.031837835601,0,0,0,0,0,0,0,0
1.1871,411.6072425527296,10.282078420016708,245.8385456733336,0,0,0,0,0,0,0,0
1.18712,411.6370565189704,10.2228265324988,244.6355482262367,0,0,0,0,0,0,0,0
1.18714,411.6654150620484,10.122741454767468,243.4228929865791,0,0,0,0,0,0,0,0
1.18716,411.6915739191018,9.981544064872107,242.2006278279021,0,0,0,0,0,0,0,0
1.18718,411.7134251648668,9.867576214769768,240.96880100316352,0,0,0,0,0,0,0,0
1.1872,411.7307035808973,9.917829660210868,239.72746114274352,0,0,0,0,0,0,0,0
1.18722,411.7484946948831,9.92620310457818,238.4766572526592,0,0,0,0,0,0,0,0
1.18724,411.7660596461205,9.892385010404714,237.2164387124955,0,0,0,0,0,0,0,0
1.18726,411.78265451979263,9.816079868854974,235.9468552734767,0,0,0,0,0,0,0,0
1.18728,411.79753063147183,9.69700830479532,234.6679570566404,0,0,0,0,0,0,0,0
1.1873,411.808617579586,9.603527917025804,233.3797945506637,0,0,0,0,0,0,0,0
1.18732,411.8169812149391,9.5354033258655,232.08241861002017,0,0,0,0,0,0,0,0
1.1873399999999998,411.822431374628,9.561000953793954,230.77588045287868,0,0,0,0,0,0,0,0
1.18736,411.8279462892124,9.542791447639566,229.46023165911663,0,0,0,0,0,0,0,0
1.18738,411.832780218968,9.480484176148844,228.1355241683195,0,0,0,0,0,0,0,0
1.1874,411.8361829088752,9.373804249858168,226.8018102776468,0,0,0,0,0,0,0,0
1.18742,411.83739985819017,9.222492612436298,225.45914263986324,0,0,0,0,0,0,0,0
1.18744,411.8328009786226,9.23218997835682,224.107574261164,0,0,0,0,0,0,0,0
1.18746,411.82760637873344,9.265402436035888,222.7471584991788,0,0,0,0,0,0,0,0
1.18748,411.82258982718014,9.253210331037538,221.3779490607804,0,0,0,0,0,0,0,0
1.1875,411.8170061116664,9.195331921228552,220.00000000000023,0,0,0,0,0,0,0,0
1.18752,411.81010581758215,9.09150076607845,218.61336571593307,0,0,0,0,0,0,0,0
1.18754,411.80113558061936,8.941465809141906,217.21810095050083,0,0,0,0,0,0,0,0
1.18756,411.7874810004328,8.882232583483857,215.8142607863927,0,0,0,0,0,0,0,0
1.18758,411.77159693096064,8.844945974037621,214.401900644802,0,0,0,0,0,0,0,0
1.1876,411.75438428677074,8.829351749453467,212.98107628327585,0,0,0,0,0,0,0,0
1.18762,411.7365648316196,8.766565397136342,211.55184379355296,0,0,0,0,0,0,0,0
1.18764,411.7173932979193,8.656332129611373,210.11425959925887,0,0,0,0,0,0,0,0
1.18766,411.69496240093,8.567015613742083,208.66838045378208,0,0,0,0,0,0,0,0
1.1876799999999998,411.66926313337456,8.566988637527203,207.21426343794252,0,0,0,0,0,0,0,0
1.1877,411.6432115316616,8.518793301207662,205.75196595777692,0,0,0,0,0,0,0,0
1.18772,411.6157008991386,8.490772830188016,204.28154574231243,0,0,0,0,0,0,0,0
1.18774,411.5874115728295,8.414076648298503,202.80306084119465,0,0,0,0,0,0,0,0
1.18776,411.557604656317,8.288464169437036,201.31656962250267,0,0,0,0,0,0,0,0
1.1877799999999998,411.5238321264396,8.250864512777001,199.8221307703513,0,0,0,0,0,0,0,0
1.1878,411.4882900484543,8.232459530284425,198.31980328260016,0,0,0,0,0,0,0,0
1.18782,411.45176612115193,8.233000577231852,196.80964646863427,0,0,0,0,0,0,0,0
1.18784,411.41490519112057,8.183663907782616,195.2917199467768,0,0,0,0,0,0,0,0
1.18786,411.3769802998759,8.084211400212855,193.76608364223617,0,0,0,0,0,0,0,0
1.18788,411.3372614007103,7.934418631775584,192.23279778448023,0,0,0,0,0,0,0,0
1.1879,411.29339917457935,7.871154721346566,190.6919229050369,0,0,0,0,0,0,0,0
1.18792,411.2474728219873,7.825647013460398,189.1435198349943,0,0,0,0,0,0,0,0
1.18794,411.2002235313463,7.797659538871754,187.58764970264005,0,0,0,0,0,0,0,0
1.18796,411.1522488646332,7.718425078048862,186.0243739310912,0,0,0,0,0,0,0,0
1.18798,411.102833348811,7.587723653531514,184.45375423577008,0,0,0,0,0,0,0,0
1.188,411.0502632949497,7.473846333144694,182.8758526220814,0,0,0,0,0,0,0,0
1.18802,410.9941481523956,7.513565120618399,181.2907313828649,0,0,0,0,0,0,0,0
1.18804,410.93824001381546,7.501145338046924,179.6984530959784,0,0,0,0,0,0,0,0
1.18806,410.8818422491007,7.43636128778943,178.0990806218712,0,0,0,0,0,0,0,0
1.18808,410.824255565556,7.318999650168957,176.49267710100096,0,0,0,0,0,0,0,0
1.1881,410.7647781742127,7.148859528283977,174.87930595145727,0,0,0,0,0,0,0,0
1.1881199999999998,410.7005264249031,7.131079780519552,173.25903086635594,0,0,0,0,0,0,0,0
1.18814,410.6354099576311,7.128532643787152,171.63191581136834,0,0,0,0,0,0,0,0
1.18816,410.56994947259375,7.072554285934347,169.99802502224014,0,0,0,0,0,0,0,0
1.18818,410.5034638934876,6.9629398551906405,168.3574230021525,0,0,0,0,0,0,0,0
1.1882,410.4352698697815,6.799496243944764,166.71017451929364,0,0,0,0,0,0,0,0
1.18822,410.3622992639833,6.855590965803368,165.05634460418338,0,0,0,0,0,0,0,0
1.18824,410.28971080313846,6.857413256094322,163.3959985472249,0,0,0,0,0,0,0,0
1.18826,410.21684537337006,6.804757174020288,161.72920189602254,0,0,0,0,0,0,0,0
1.18828,410.1430416813242,6.697427810902113,160.056020452839,0,0,0,0,0,0,0,0
1.1883,410.0676363889016,6.535241324576231,158.37652027204294,0,0,0,0,0,0,0,0
1.18832,409.9884332290552,6.454672278724523,156.69076765738006,0,0,0,0,0,0,0,0
1.18834,409.9072409611233,6.455494225095944,154.99882915955342,0,0,0,0,0,0,0,0
1.18836,409.82577305805495,6.400851258849422,153.3007715733369,0,0,0,0,0,0,0,0
1.18838,409.7433900016732,6.290559549102368,151.59666193512078,0,0,0,0,0,0,0,0
1.1884,409.6594504592,6.12444565260664,149.88656752029735,0,0,0,0,0,0,0,0
1.18842,409.57146193727897,6.107113713665694,148.17055584041958,0,0,0,0,0,0,0,0
1.18844,409.4827211369175,6.101809729540908,146.44869464072147,0,0,0,0,0,0,0,0
1.1884599999999998,409.39365171207857,6.040087351551833,144.72105189731928,0,0,0,0,0,0,0,0
1.18848,409.3036374944752,5.921774691434864,142.98769581457466,0,0,0,0,0,0,0,0
1.1885,409.2120607272309,5.746709577459784,141.24869482244915,0,0,0,0,0,0,0,0
1.18852,409.11670565230327,5.719281798370206,139.50411757369278,0,0,0,0,0,0,0,0
1.18854,409.0204134728622,5.702887191443744,137.7540329412597,0,0,0,0,0,0,0,0
1.1885599999999998,408.92369678024016,5.629168795766487,135.99851001547884,0,0,0,0,0,0,0,0
1.18858,408.825964419049,5.497967278400958,134.2376181013734,0,0,0,0,0,0,0,0
1.1886,408.7260406023753,5.377247732358791,132.4714267159729,0,0,0,0,0,0,0,0
1.18862,408.6233470285927,5.403023666921769,130.70000558545703,0,0,0,0,0,0,0,0
1.18864,408.5206638993727,5.370761731911119,128.923424642531,0,0,0,0,0,0,0,0
1.18866,408.41742777704457,5.280307167700504,127.1417540235362,0,0,0,0,0,0,0,0
1.18868,408.3130739774653,5.131513606746504,125.35506406581024,0,0,0,0,0,0,0,0
1.1887,408.20625447972407,5.060304541961202,123.56342530479726,0,0,0,0,0,0,0,0
1.18872,408.0978897335352,4.998433744079545,121.7669084713115,0,0,0,0,0,0,0,0
1.18874,407.9883952552902,4.945720568553419,119.96558448879388,0,0,0,0,0,0,0,0
1.18876,407.8781978007037,4.834001432721559,118.15952447039832,0,0,0,0,0,0,0,0
1.18878,407.7662419681613,4.731099327874811,116.34879971631452,0,0,0,0,0,0,0,0
1.1888,407.6529326344001,4.636840832829552,114.533481710839,0,0,0,0,0,1,0,0
1.18882,407.53769384717054,4.618963384884596,112.71364211960189,0,0,0,0,0,1,0,0
1.18884,407.4220967089054,4.541438642392464,110.88935278678696,0,0,0,0,0,1,0,0
1.18886,407.30514049705033,4.472019133219983,109.0606857321805,0,0,0,0,0,1,0,0
1.18888,407.18719026417375,4.410534668822424,107.2277131484597,0,0,0,0,0,1,0,0
1.1888999999999998,407.06798230699445,4.356806244575793,105.39050739822709,0,0,0,0,0,1,0,0
1.18892,406.9478642908216,4.310666790038577,103.5491410112032,0,0,0,0,0,1,0,0
1.18894,406.8271929686091,4.204142116280889,101.7036866814134,0,0,0,0,0,1,0,0
1.18896,406.7048244911172,4.172681979506413,99.85421726418454,0,0,0,0,0,1,0,0
1.18898,406.5820355055464,4.080543649653323,98.00080577346937,0,0,0,0,0,1,0,0
1.189,406.45836615825937,3.927617546706432,96.14352537872968,0,0,0,0,0,1,0,0
1.18902,406.3326338794272,3.849238646423132,94.282449402249,0,0,0,0,0,1,0,0
1.18904,406.20554356514657,3.845195229432784,92.41765131610336,0,0,0,0,0,1,0,0
1.18906,406.0782609849073,3.7799146466501488,90.5492047393112,0,0,0,0,0,1,0,0
1.18908,405.9503591326669,3.653295352079733,88.67718343497792,0,0,0,0,0,1,0,0
1.1891,405.820967084717,3.5328741566840534,86.80166130726536,0,0,0,0,0,1,0,0
1.18912,405.68981129079145,3.5537315470869686,84.9227123986096,0,0,0,0,0,1,0,0
1.18914,405.55864242048847,3.5128218265434814,83.04041088667934,0,0,0,0,0,1,0,0
1.18916,405.427067193484,3.410052225278666,81.1548310814982,0,0,0,0,0,1,0,0
1.18918,405.2946919048367,3.2453352308874743,79.26604742256237,0,0,0,0,0,1,0,0
1.1892,405.160179179348,3.2211615947488044,77.37413447578238,0,0,0,0,0,1,0,0
1.18922,405.0252235100125,3.2022670730778087,75.47916693067617,0,0,0,0,0,1,0,0
1.18924,404.8900316800432,3.1210259387126227,73.58121959730057,0,0,0,0,0,1,0,0
1.18926,404.7542446542731,2.9773595906942294,71.68036740334934,0,0,0,0,0,1,0,0
1.18928,404.6171833756045,2.838627791378468,69.77668539124667,0,0,0,0,0,1,0,0
1.1893,404.4787519838154,2.772111481044337,67.87024871506433,0,0,0,0,0,1,0,0
1.18932,404.33968938283147,2.7102279606107267,65.96113263769246,0,0,0,0,0,1,0,0
1.1893399999999998,404.2001996611464,2.585478563612178,64.04941252774763,0,0,0,0,0,1,0,0
1.18936,404.0595559305594,2.5324834135309144,62.13516385664906,0,0,0,0,0,1,0,0
1.18938,403.9185557074588,2.4164134924901184,60.2184621956912,0,0,0,0,0,1,0,0
1.1894,403.77646991331966,2.371798726025741,58.299383212939,0,0,0,0,0,1,0,0
1.18942,403.6340921377935,2.2639087667397155,56.378002670379466,0,0,0,0,0,1,0,0
1.18944,403.49077932877447,2.227184225247521,54.45439642079172,0,0,0,0,0,1,0,0
1.18946,403.34723043486576,2.126992320475289,52.52864040489155,0,0,0,0,0,1,0,0
1.18948,403.202802610807,2.0976820622364727,50.60081064821165,0,0,0,0,0,1,0,0
1.1895,403.0581893368157,2.0047212270275336,48.670983258134896,0,0,0,0,0,1,0,0
1.18952,402.9128142929338,1.9823680065565927,46.7392344210296,0,0,0,0,0,1,0,0
1.18954,402.7672970210988,1.8961898345664,44.80564039892729,0,0,0,0,0,1,0,0
1.18956,402.62140545366447,1.74614623799458,42.87027752689655,0,0,0,0,0,1,0,0
1.18958,402.47462099096816,1.6663580240342086,40.933222209714735,0,0,0,0,0,1,0,0
1.1896,402.32724946893984,1.65665522982486,38.994550918991465,0,0,0,0,0,1,0,0
1.18962,402.1798071962057,1.5828080355868288,37.05434019018481,0,0,0,0,0,1,0,0
1.18964,402.0320998127124,1.4447862108640908,35.11266661945708,0,0,0,0,0,1,0,0
1.18966,401.8837856185296,1.3095425818587332,33.169606860791305,0,0,0,0,0,1,0,0
1.1896799999999998,401.7347760613835,1.3108985560969286,31.225237622842133,0,0,0,0,0,1,0,0
1.1897,401.5857481465264,1.2478282827558935,29.2796356659602,0,0,0,0,0,1,0,0
1.18972,401.43654570099,1.1203119689104126,27.33287779921453,0,0,0,0,0,1,0,0
1.18974,401.2869014908448,0.9952135527171831,25.38504087723712,0,0,0,0,0,1,0,0
1.18976,401.136815817401,0.9393070195158996,23.436201797329645,0,0,0,0,0,1,0,0
