Time / s,Vo:Measured voltage,IL:Measured current,Vin:Measured voltage,short1:Output,short2:Output,short3:Output,short4:Output,open1:Output,open3:Output,open2:Output,open4:Output
1.166420116007612,409.5964681611492,11.612397727088654,280.6782176914846,0,0,0,0,0,0,0,0
1.16644,409.68118999705297,11.59953543801752,279.8292430636451,0,0,0,0,0,0,0,0
1.16646,409.7643665006029,11.624544572721764,278.9692212564262,0,0,0,0,0,0,0,0
1.16648,409.8477137125692,11.618813290963182,278.0981862220317,0,0,0,0,0,0,0,0
1.1665,409.9305945527459,11.581981694254305,277.21617234742564,0,0,0,0,0,0,0,0
1.16652,410.0123649289544,11.51370559568908,276.32321445299726,0,0,0,0,0,0,0,0
1.16654,410.0923740651377,11.41365668790859,275.4193477912117,0,0,0,0,0,0,0,0
1.16656,410.1699648327043,11.281522703529076,274.50460804516047,0,0,0,0,0,0,0,0
1.16658,410.2429453236473,11.253727164471211,273.5790313272192,0,0,0,0,0,0,0,0
1.1666,410.31342412144346,11.261651665508376,272.64265417756343,0,0,0,0,0,0,0,0
1.16662,410.3828073902957,11.305007948480933,271.6955135627512,0,0,0,0,0,0,0,0
1.16664,410.4527023471247,11.315077827050134,270.7376468742894,0,0,0,0,0,0,0,0
1.16666,410.5224396353758,11.291504282016176,269.7690919270974,0,0,0,0,0,0,0,0
1.16668,410.59134317361526,11.233946401676098,268.7898869580836,0,0,0,0,0,0,0,0
1.1666999999999998,410.6587304817498,11.142079538393686,267.80007062457474,0,0,0,0,0,0,0,0
1.16672,410.7239130101677,11.01559545789231,266.79968200281576,0,0,0,0,0,0,0,0
1.16674,410.7851076027266,10.922653675635589,265.78876058645466,0,0,0,0,0,0,0,0
1.16676,410.8421508298255,10.931456731485982,264.76734628491965,0,0,0,0,0,0,0,0
1.16678,410.89813520558096,10.97328451106239,263.73547942191686,0,0,0,0,0,0,0,0
1.1667999999999998,410.95456655479126,10.979340017512618,262.69320073377406,0,0,0,0,0,0,0,0
1.16682,411.0107477445271,10.949279078840547,261.6405513678597,0,0,0,0,0,0,0,0
1.16684,411.0659753905218,10.882773881194064,260.5775728809872,0,0,0,0,0,0,0,0
1.16686,411.119540178116,10.779513110456616,259.50430723769824,0,0,0,0,0,0,0,0
1.16688,411.1707271857476,10.639202086892832,258.42079680873127,0,0,0,0,0,0,0,0
1.1669,411.2162885975496,10.598607043790857,257.3270843691641,0,0,0,0,0,0,0,0
1.16692,411.2602900617868,10.588977640590173,256.2232130969403,0,0,0,0,0,0,0,0
1.16694,411.3029069415697,10.61001406821204,255.109226570988,0,0,0,0,0,0,0,0
1.16696,411.3455482545325,10.59286730114942,253.9851687695774,0,0,0,0,0,0,0,0
1.16698,411.3874937162212,10.537214155281667,252.85108406860627,0,0,0,0,0,0,0,0
1.167,411.42801739853456,10.442747916911626,251.70701723977623,0,0,0,0,0,0,0,0
1.16702,411.4663880424254,10.309178467244694,250.55301344890745,0,0,0,0,0,0,0,0
1.16704,411.49941990585376,10.27337197258512,249.3891182540832,0,0,0,0,0,0,0,0
1.16706,411.53062449904064,10.266527070643717,248.21537760388225,0,0,0,0,0,0,0,0
1.16708,411.56091350695743,10.288353891813026,247.0318378355969,0,0,0,0,0,0,0,0
1.1671,411.5912263438111,10.269959407472124,245.83854567332943,0,0,0,0,0,0,0,0
1.16712,411.6208290108616,10.211031561465964,244.6355482262325,0,0,0,0,0,0,0,0
1.1671399999999998,411.6489822629744,10.11127464778824,243.42289298657488,0,0,0,0,0,0,0,0
1.16716,411.6749419088526,9.970409423062844,242.200627827898,0,0,0,0,0,0,0,0
1.16718,411.6955934403063,9.925379272609256,240.96880100315929,0,0,0,0,0,0,0,0
1.1672,411.71430836890687,9.907351470071058,239.72746114275049,0,0,0,0,0,0,0,0
1.16722,411.7319243727404,9.916045035092296,238.47665725266623,0,0,0,0,0,0,0,0
1.16724,411.74931993446745,9.882550346778215,237.2164387124797,0,0,0,0,0,0,0,0
1.16726,411.7657511938549,9.806571784711204,235.94685527348383,0,0,0,0,0,0,0,0
1.16728,411.78046951906816,9.687829861155254,234.6679570566476,0,0,0,0,0,0,0,0
1.1673,411.7914058996119,9.59467920733209,233.37979455067105,0,0,0,0,0,0,0,0
1.16732,411.79864386524366,9.595506317844755,232.08241861002747,0,0,0,0,0,0,0,0
1.16734,411.8055274035533,9.552803794889824,230.77588045287416,0,0,0,0,0,0,0,0
1.16736,411.81091233699,9.534912230193044,229.4602316591241,0,0,0,0,0,0,0,0
1.16738,411.8156217490709,9.472925228737578,228.13552416832687,0,0,0,0,0,0,0,0
1.1674,411.8189054213452,9.366567798396874,226.80181027765423,0,0,0,0,0,0,0,0
1.16742,411.8187412353525,9.284203764431636,225.4591426398708,0,0,0,0,0,0,0,0
1.16744,411.8161292981921,9.225596152426505,224.1075742611593,0,0,0,0,0,0,0,0
1.16746,411.8108356016653,9.259110587685488,222.74715849918644,0,0,0,0,0,0,0,0
1.16748,411.8057249454863,9.247222152683351,221.37794906078804,0,0,0,0,0,0,0,0
1.1675,411.8000521424186,9.189649014950222,219.9999999999956,0,0,0,0,0,0,0,0
1.16752,411.7930678014214,9.08612464319526,218.6133657159283,0,0,0,0,0,0,0,0
1.16754,411.7840185802576,8.936397889815952,217.21810095049605,0,0,0,0,0,0,0,0
1.16756,411.7702915419279,8.877468482064263,215.81426078638788,0,0,0,0,0,0,0,0
1.1675799999999998,411.75395971889526,8.90910107335137,214.4019006447972,0,0,0,0,0,0,0,0
1.1676,411.73776677234616,8.893793441100636,212.98107628327097,0,0,0,0,0,0,0,0
1.16762,411.7209710040274,8.831275926939085,211.55184379354807,0,0,0,0,0,0,0,0
1.16764,411.7028268646216,8.721293679532133,210.114259599254,0,0,0,0,0,0,0,0
1.16766,411.6825851890648,8.563606727949848,208.6683804537772,0,0,0,0,0,0,0,0
1.16768,411.65773155670576,8.495189217821645,207.2142634379244,0,0,0,0,0,0,0,0
1.1677,411.6302222078903,8.515806263059375,205.751965957772,0,0,0,0,0,0,0,0
1.16772,411.6026728902596,8.488003087528378,204.2815457423073,0,0,0,0,0,0,0,0
1.16774,411.57434818969466,8.411524782034322,202.8030608411896,0,0,0,0,0,0,0,0
1.16776,411.5445092169065,8.286130705141506,201.31656962249755,0,0,0,0,0,0,0,0
1.16778,411.511313390376,8.180168166357529,199.82213077033256,0,0,0,0,0,0,0,0
1.1678,411.4747388455938,8.1619860382273,198.31980328260863,0,0,0,0,0,0,0,0
1.16782,411.43719688064135,8.162764248988434,196.8096464686291,0,0,0,0,0,0,0,0
1.16784,411.39932186550055,8.113680958136449,195.2917199467853,0,0,0,0,0,0,0,0
1.16786,411.36038707550495,8.01449797603013,193.76608364224475,0,0,0,0,0,0,0,0
1.16788,411.31966269666566,7.864990808284845,192.23279778448887,0,0,0,0,0,0,0,0
1.1679,411.2739925681488,7.8705594494244355,190.6919229050456,0,0,0,0,0,0,0,0
1.1679199999999998,411.22771285552216,7.893884012215161,189.14351983500296,0,0,0,0,0,0,0,0
1.16794,411.1814240419204,7.866179856375186,187.5876497026488,0,0,0,0,0,0,0,0
1.16796,411.1344133339344,7.787213910358883,186.0243739311,0,0,0,0,0,0,0,0
1.16798,411.0859650505429,7.656766147583104,184.4537542357789,0,0,0,0,0,0,0,0
1.168,411.03435479736805,7.5431248239268545,182.87585262209024,0,0,0,0,0,0,0,0
1.1680199999999998,410.9795171515133,7.514566606064363,181.29073138287376,0,0,0,0,0,0,0,0
1.16804,410.923629332966,7.502361059078066,179.69845309598736,0,0,0,0,0,0,0,0
1.16806,410.8672547341756,7.437790885543632,178.09908062188018,0,0,0,0,0,0,0,0
1.16808,410.80969405630753,7.320642724159587,176.49267710099545,0,0,0,0,0,0,0,0
1.1681,410.7502455037018,7.150715636501733,174.8793059514517,0,0,0,0,0,0,0,0
1.16812,410.6860244803159,7.133141178352185,173.2590308663357,0,0,0,0,0,0,0,0
1.16814,410.620941024408,7.130796422692084,171.63191581136277,0,0,0,0,0,0,0,0
1.16816,410.5555161102381,7.075019926749564,169.99802502223451,0,0,0,0,0,0,0,0
1.16818,410.48906865370014,6.965606803078988,168.35742300214685,0,0,0,0,0,0,0,0
1.1682,410.4209152960099,6.80236390851324,166.710174519288,0,0,0,0,0,0,0,0
1.16822,410.3483021810193,6.790262554633728,165.05634460417772,0,0,0,0,0,0,0,0
1.16824,410.2749285428928,6.792289755723481,163.3959985472192,0,0,0,0,0,0,0,0
1.16826,410.201280779612,6.7398489926378815,161.7292018960168,0,0,0,0,0,0,0,0
1.16828,410.12669772263433,6.632745315870608,160.05602045283322,0,0,0,0,0,0,0,0
1.1683,410.0505161581217,6.470794840778647,158.37652027203717,0,0,0,0,0,0,0,0
1.16832,409.97010812132,6.458789779444088,156.69076765738953,0,0,0,0,0,0,0,0
1.16834,409.88897152799535,6.459842619255018,154.99882915954765,0,0,0,0,0,0,0,0
1.1683599999999998,409.8075619323204,6.405429776912367,153.30077157333108,0,0,0,0,0,0,0,0
1.16838,409.72523980606974,6.295367388410644,151.59666193513036,0,0,0,0,0,0,0,0
1.1684,409.64136380604174,6.129481977515205,149.88656752030695,0,0,0,0,0,0,0,0
1.16842,409.5535786704913,6.112369459789841,148.17055584042924,0,0,0,0,0,0,0,0
1.16844,409.46490313013487,6.1072785416863065,146.44869464073116,0,0,0,0,0,0,0,0
1.16846,409.3759012599333,6.045768387455642,144.72105189731334,0,0,0,0,0,0,0,0
1.16848,409.2859568813956,5.927667081542175,142.9876958145844,0,0,0,0,0,0,0,0
1.1685,409.1944522271461,5.752812425053615,141.24869482245893,0,0,0,0,0,0,0,0
1.16852,409.0991686611477,5.72558538020614,139.5041175737026,0,0,0,0,0,0,0,0
1.16854,409.0029490720541,5.7093877079685456,137.75403294126954,0,0,0,0,0,0,0,0
1.16856,408.9063069664289,5.6358653697362335,135.99851001547282,0,0,0,0,0,0,0,0
1.16858,408.8086511789748,5.504859010194345,134.2376181013833,0,0,0,0,0,0,0,0
1.1686,408.7088048392484,5.384330815706349,132.47142671598283,0,0,0,0,0,0,0,0
1.16862,408.6061873464661,5.410288568105268,130.70000558545098,0,0,0,0,0,0,0,0
1.16864,408.50358202801687,5.378207589051514,128.923424642541,0,0,0,0,0,0,0,0
1.16866,408.4004254371326,5.287933100713646,127.14175402353008,0,0,0,0,0,0,0,0
1.16868,408.29615288039537,5.139318717445285,125.35506406580411,0,0,0,0,0,0,0,0
1.1687,408.189413909168,5.068282274287981,123.56342530479112,0,0,0,0,0,0,0,0
1.16872,408.0811300416194,5.006580411337575,121.76690847130531,0,0,0,0,0,0,0,0
1.16874,407.9717167088944,4.954032508079111,119.96558448878768,0,0,0,0,0,0,0,0
1.16876,407.86160186740153,4.842477787250924,118.1595244703921,0,0,0,0,0,0,0,0
1.16878,407.74972879826754,4.739736459187252,116.34879971630828,0,0,0,0,0,0,0,0
1.1687999999999998,407.6365022970908,4.64563512946239,114.53348171083276,0,0,0,0,0,0,0,0
1.16882,407.521344976838,4.627908523410178,112.71364211959562,0,0,0,0,0,0,0,0
1.16884,407.40583055093,4.550533820528725,110.88935278678072,0,0,0,0,0,0,0,0
1.16886,407.28895688904447,4.4812608246933445,109.06068573217424,0,0,0,0,0,0,0,0
1.16888,407.17108897019534,4.419919376996789,107.22771314845342,0,0,0,0,0,0,0,0
1.1689,407.0525194789285,4.298494005736128,105.39050739820414,0,0,0,0,0,0,0,0
1.16892,406.9319485657434,4.252504891168597,103.54914101119688,0,0,0,0,0,0,0,0
1.16894,406.8103559357556,4.21393187526246,101.70368668140704,0,0,0,0,0,0,0,0
1.16896,406.6880685067479,4.182609245467272,99.85421726419492,0,0,0,0,0,0,0,0
1.16898,406.56536157779,4.09060770869711,98.00080577347978,0,0,0,0,0,0,0,0
1.169,406.4417752894256,3.937817676739414,96.14352537874016,0,0,0,0,0,0,0,0
1.16902,406.3161239348855,3.859568579858687,94.28244940225947,0,0,0,0,0,0,0,0
1.16904,406.18911228711926,3.855648770873577,92.4176513161138,0,0,0,0,0,0,0,0
1.16906,406.06190920273,3.790491158159671,90.54920473932172,0,0,0,0,0,0,0,0
1.16908,405.9340876708941,3.663994189546069,88.67718343498846,0,0,0,0,0,0,0,0
1.1691,405.80477512382976,3.5436919532785653,86.80166130727591,0,0,0,0,0,0,0,0
1.16912,405.6736946404823,3.5646595610146963,84.92271239862019,0,0,0,0,0,0,0,0
1.1691399999999998,405.5426017517111,3.523859499329295,83.04041088668993,0,0,0,0,0,0,0,0
1.16916,405.4111031733714,3.4211989939117475,81.1548310815088,0,0,0,0,0,0,0,0
1.16918,405.2788051966732,3.2565905278494154,79.26604742257298,0,0,0,0,0,0,0,0
1.1692,405.1445730716234,3.164993500094895,77.37413447577589,0,0,0,0,0,0,0,0
1.16922,405.00930031183935,3.146213971559188,75.47916693068682,0,0,0,0,0,0,0,0
1.16924,404.8737921791517,3.0650898047655524,73.58121959727688,0,0,0,0,0,0,0,0
1.16926,404.737689649444,2.921542393198655,71.68036740334281,0,0,0,0,0,0,0,0
1.16928,404.6003221155581,2.782928775467932,69.77668539124014,0,0,0,0,0,0,0,0
1.1693,404.4614303074199,2.7839370493410804,67.87024871505777,0,0,0,0,0,0,0,0
1.16932,404.3224354185013,2.7221482086042923,65.9611326376859,0,0,0,0,0,0,0,0
1.16934,404.183013869832,2.597493080155804,64.04941252772376,0,0,0,0,0,0,0,0
1.16936,404.0424351026692,2.5445860381624152,62.13516385664248,0,0,0,0,0,0,0,0
1.16938,403.9011920225289,2.495918003938096,60.2184621956846,0,0,0,0,0,0,0,0
1.1694,403.7594742646555,2.4513666005779187,58.299383212932405,0,0,0,0,0,0,0,0
1.16942,403.61746466975086,2.3435381461604807,56.37800267037287,0,0,0,0,0,0,0,0
1.16944,304.8463428674423,3.1048349075795656,54.45439642078511,0,1,0,0,0,0,0,0
1.16946,200.9028069172726,3.744423302732456,52.528640404884925,0,1,0,0,0,0,0,0
1.16948,100.05088555932174,4.353157882731445,50.60081064820504,0,1,0,0,0,0,0,0
1.1695,25.41934109864497,5.185414093533902,48.67098325814575,0,1,0,0,0,0,0,0
1.16952,5.631365280869857,6.556026659046565,46.73923442102297,0,1,0,0,0,0,0,0
1.16954,1.2954637870823944,8.03166575522119,44.80564039893815,0,1,0,0,0,0,0,0
1.16956,0.3543129864672791,9.479666220479436,42.87027752690743,0,1,0,0,0,0,0,0
1.1695799999999998,0.1585777519491077,10.870850220004884,40.93322220972561,0,1,0,0,0,0,0,0
1.1696,0.1261239959992427,12.198781007715183,38.99455091900235,0,1,0,0,0,0,0,0
1.16962,0.1309309044125356,13.46204121580104,37.05434019019571,0,1,0,0,0,0,0,0
1.16964,0.1426898914021985,14.660269677667351,35.11266661946799,0,1,0,0,0,0,0,0
1.16966,0.1542132283661092,15.793361273421032,33.16960686080222,0,1,0,0,0,0,0,0
1.16968,0.1651051483468733,16.861288436794695,31.22523762283546,0,1,0,0,0,0,0,0
1.1697,0.1753463329543812,17.864030307528836,29.27963566597112,0,1,0,0,0,0,0,0
1.16972,0.1849356702316634,18.801568791585083,27.33287779922546,0,1,0,0,0,0,0,0
1.16974,0.1938729519955119,19.67388837153595,25.385040877248056,0,1,0,0,0,0,0,0
1.16976,0.2021580381448566,20.48097609798722,23.43620179734059,0,1,0,0,0,0,0,0
1.16978,0.2097908163030151,21.22282158964759,21.4864374962801,0,1,0,0,0,0,0,0
1.1698,0.2167711998726556,21.899417033719608,19.5358249474932,0,1,0,0,0,0,0,0
1.16982,0.2230991279450811,22.510757186209226,17.584441157805728,0,1,0,0,0,0,0,0
1.16984,0.228774565298108,23.05683937213524,15.632363164437765,0,1,0,0,0,0,0,0
1.16986,0.2337975023972618,23.53766348563742,13.679668032174275,0,1,0,0,0,0,0,0
1.16988,0.238167955396169,23.95323198998296,11.726432850022556,0,1,0,0,0,0,0,0
1.1699,0.2418859661359372,24.303549917471333,9.772734728398456,0,1,0,0,0,0,0,0
1.1699199999999998,0.2449516021435334,24.588624869238604,7.818650795940883,0,1,0,0,0,0,0,0
1.16994,0.2473649566291382,24.808467014959305,5.864258196519885,0,1,0,0,0,0,0,0
1.16996,0.2491261484824903,24.96308909244733,3.9096340862441856,0,1,0,0,0,0,0,0
1.16998,0.2502353222682174,25.052506407155683,1.9548556302914444,0,1,0,0,0,0,0,0
1.17,0.2506926482201537,25.07673683157452,3.3525966865869426e-12,0,1,0,0,0,0,0,0
1.1700199999999998,0.1255381604196974,25.03926966282337,-1.9548556302847395,0,1,0,0,0,0,0,0
1.17004,0.1247817691293211,24.937358322755905,-3.9096340862374808,0,1,0,0,0,0,0,0
1.17006,0.1239996164517865,24.77031232906,-5.86425819651318,0,1,0,0,0,0,0,0
1.17008,0.1228925736092033,24.53814732151574,-7.818650795934181,0,1,0,0,0,0,0,0
1.1701,0.121460039836385,24.240883150684724,-9.772734728391754,0,1,0,0,0,0,0,0
1.17012,0.1197021234932773,23.87854223918036,-11.726432850033529,0,1,0,0,0,0,0,0
1.17014,0.1176189474005445,23.45114957696227,-13.679668032167577,0,1,0,0,0,0,0,0
1.17016,0.1152106472144348,22.95873272034117,-15.632363164431066,0,1,0,0,0,0,0,0
1.17018,0.1124773714176455,22.401321790891284,-17.584441157781377,0,1,0,0,0,0,0,0
1.1702,0.1094192813134543,21.77894947426129,-19.535824947486507,0,1,0,0,0,0,0,0
1.17022,0.1060365510193534,21.091651018884487,-21.486437496291053,0,1,0,0,0,0,0,0
1.17024,0.1023293674601761,20.33946423458752,-23.43620179731627,0,1,0,0,0,0,0,0
1.17026,0.0982979303607202,19.522429491097945,-25.385040877223744,0,1,0,0,0,0,0,0
1.17028,0.093942452237863,18.640589716450723,-27.332877799201164,0,1,0,0,0,0,0,0
1.1703,0.0892631583921748,17.69399039529405,-29.27963566594684,0,1,0,0,0,0,0,0
1.17032,0.0842602868990238,16.682679567093594,-31.225237622828782,0,1,0,0,0,0,0,0
1.17034,0.0789340885991805,15.606707824236617,-33.16960686077797,0,1,0,0,0,0,0,0
1.1703599999999998,0.073284827088916,14.466128310034916,-35.11266661944375,0,1,0,0,0,0,0,0
1.17038,0.0673127787095969,13.260996716626954,-37.054340190189045,0,1,0,0,0,0,0,0
1.1704,0.061018232536777,11.991371282779689,-38.99455091897816,0,1,0,0,0,0,0,0
