Time / s,Vo:Measured voltage,IL:Measured current,Vin:Measured voltage,short1:Output,short2:Output,short3:Output,short4:Output,open1:Output,open3:Output,open2:Output,open4:Output
1.1347034983500748,398.25915925641465,-12.856702042716153,-309.7461911553856,0,0,0,0,0,0,0,0
1.13472,398.41214917406194,-12.826921884903468,-309.92404519690507,0,0,0,0,0,0,0,0
1.13474,398.56276415037456,-12.865309249912393,-310.0896639677952,0,0,0,0,0,0,0,0
1.13476,398.71588158666174,-12.83867431473958,-310.2430409297119,0,0,0,0,0,0,0,0
1.13478,398.86832359316816,-12.812977530961284,-310.38417002759246,0,0,0,0,0,0,0,0
1.1348,399.0192590541408,-12.85431367808159,-310.5130456899044,0,0,0,0,0,0,0,0
1.13482,399.1719658727142,-12.829316165010129,-310.62966282885486,0,0,0,0,0,0,0,0
1.1348399999999998,399.3223866209013,-12.87057689427984,-310.73401684060013,0,0,0,0,0,0,0,0
1.13486,399.47535379428894,-12.844650368999195,-310.8261036054233,0,0,0,0,0,0,0,0
1.13488,399.6260011899111,-12.88420855583119,-310.9059194878949,0,0,0,0,0,0,0,0
1.1349,399.7791468214364,-12.855705722616236,-310.9734613370219,0,0,0,0,0,0,0,0
1.13492,399.92990094377774,-12.89191643134632,-311.0287264863666,0,0,0,0,0,0,0,0
1.1349399999999998,400.08306547415833,-12.859195652673987,-311.07171275415624,0,0,0,0,0,0,0,0
1.13496,400.23372942515766,-12.890421697459876,-311.1024184433669,0,0,0,0,0,0,0,0
1.13498,400.3866760584492,-12.85185126664378,-311.1208423417895,0,0,0,0,0,0,0,0
1.135,400.5377621205444,-12.876468500228691,-311.12698372208087,0,0,0,0,0,0,0,0
1.13502,400.6885382296646,-12.897173577783947,-311.1208423417896,0,0,0,0,0,0,0,0
1.13504,400.83969358393017,-12.913567671612768,-311.1024184433668,0,0,0,0,0,0,0,0
1.13506,400.99276491474257,-12.858419772098728,-311.0717127541566,0,0,0,0,0,0,0,0
1.13508,401.14356595254304,-12.86492619281466,-311.0287264863671,0,0,0,0,0,0,0,0
1.1351,401.2943983459455,-12.865898419796425,-310.97346133702194,0,0,0,0,0,0,0,0
1.13512,401.4434837671032,-12.927817416816216,-310.9059194878956,0,0,0,0,0,0,0,0
1.13514,401.59475155892073,-12.916517291946406,-310.8261036054234,0,0,0,0,0,0,0,0
1.13516,401.745618070408,-12.898450298506273,-310.7340168406011,0,0,0,0,0,0,0,0
1.13518,401.8967044158125,-12.873221505255854,-310.62966282885594,0,0,0,0,0,0,0,0
1.1352,402.045411891502,-12.907407338059786,-310.51304568990446,0,0,0,0,0,0,0,0
1.13522,402.1964138527949,-12.866659640275968,-310.38417002759377,0,0,0,0,0,0,0,0
1.13524,402.344666213078,-12.884567412767192,-310.243040929712,0,0,0,0,0,0,0,0
1.13526,402.49317918634927,-12.89375676146418,-310.08966396779675,0,0,0,0,0,0,0,0
1.1352799999999998,402.6417444641834,-12.893816171221363,-309.9240451969067,0,0,0,0,0,0,0,0
1.1353,402.7901442829472,-12.884339836333767,-309.7461911553857,0,0,0,0,0,0,0,0
1.13532,402.9381515635753,-12.86492791709715,-309.55610886461,0,0,0,0,0,0,0,0
1.13534,403.0855300572371,-12.835186792676678,-309.3538058286994,0,0,0,0,0,0,0,0
1.13536,403.23203449679806,-12.794729310133024,-309.1392900342352,0,0,0,0,0,0,0,0
1.13538,403.37741075399606,-12.74317502945858,-308.91256994992966,0,0,0,0,0,0,0,0
1.1354,403.5213960022172,-12.680150464477943,-308.67365452630764,0,0,0,0,0,0,0,0
1.13542,403.66371888478574,-12.605289319469618,-308.42255319533893,0,0,0,0,0,0,0,0
1.13544,403.802684336916,-12.585516498047078,-308.15927587007184,0,0,0,0,0,0,0,0
1.13546,403.9409946820225,-12.553231117528972,-307.88383294424887,0,0,0,0,0,0,0,0
1.13548,404.0777181047145,-12.575377805840436,-307.5962352918804,0,0,0,0,0,0,0,0
1.1355,404.21474744722497,-12.5842660416991,-307.29649426683426,0,0,0,0,0,0,0,0
1.13552,404.3517725846543,-12.579488476901805,-306.98462170237053,0,0,0,0,0,0,0,0
1.13554,404.4884742263192,-12.560646170937806,-306.660629910678,0,0,0,0,0,0,0,0
1.13556,404.623692679539,-12.594769501292038,-306.3245316824125,0,0,0,0,0,0,0,0
1.13558,404.7594710058149,-12.614075002826985,-305.97634028613857,0,0,0,0,0,0,0,0
1.1356,404.8954652935416,-12.618151241746784,-305.61606946787185,0,0,0,0,0,0,0,0
1.13562,405.0313224556322,-12.60659605464734,-305.2437334504812,0,0,0,0,0,0,0,0
1.13564,405.16506586505886,-12.64652631665784,-304.8593469331514,0,0,0,0,0,0,0,0
1.13566,405.2994804832018,-12.67008764172834,-304.46292509081104,0,0,0,0,0,0,0,0
1.13568,405.43418940157824,-12.676868404439862,-304.0544835735085,0,0,0,0,0,0,0,0
1.1357,405.5688066154095,-12.666467079736908,-303.6340385058229,0,0,0,0,0,0,0,0
1.1357199999999998,405.70293725930736,-12.6384924823549,-303.20160648620185,0,0,0,0,0,0,0,0
1.13574,405.8361778482464,-12.592564000247869,-302.7572045863172,0,0,0,0,0,0,0,0
1.13576,405.9681165236775,-12.52831182188588,-302.30085035040275,0,0,0,0,0,0,0,0
1.13578,406.09833330463874,-12.445377157295402,-301.83256179453434,0,0,0,0,0,0,0,0
1.1358,406.2264003437312,-12.343412452719267,-301.3523574059506,0,0,0,0,0,0,0,0
1.13582,406.3498835668796,-12.35749837667497,-300.86025614229,0,0,0,0,0,0,0,0
1.13584,406.47341560403487,-12.35193508149632,-300.3562774308767,0,0,0,0,0,0,0,0
1.13586,406.5965514962314,-12.326332967830709,-299.8404411679228,0,0,0,0,0,0,0,0
1.13588,406.71883784992576,-12.280314220824248,-299.31276771775595,0,0,0,0,0,0,0,0
1.1359,406.8382404316713,-12.281301927941762,-298.77327791203,0,0,0,0,0,0,0,0
1.13592,406.9573856478217,-12.261187644360636,-298.22199304886885,0,0,0,0,0,0,0,0
1.13594,407.0749770528788,-12.287422603071471,-297.658934892065,0,0,0,0,0,0,0,0
1.13596,407.1928630323452,-12.29182567380778,-297.0841256701855,0,0,0,0,0,0,0,0
1.13598,407.3105562672847,-12.274006257103055,-296.49758807570873,0,0,0,0,0,0,0,0
1.136,407.4275611251368,-12.233586512030662,-295.89934526414527,0,0,0,0,0,0,0,0
1.13602,407.543373947413,-12.170201569271628,-295.2894208530862,0,0,0,0,0,0,0,0
1.13604,407.6574833419261,-12.083499737077064,-294.66783892131383,0,0,0,0,0,0,0,0
1.1360599999999998,407.7674232386087,-12.109033090247143,-294.03462400781314,0,0,0,0,0,0,0,0
1.13608,407.8776170786469,-12.110621781996372,-293.38980111081867,0,0,0,0,0,0,0,0
1.1361,407.9875382057653,-12.087881763511078,-292.73339568684605,0,0,0,0,0,0,0,0
1.13612,408.0966519337949,-12.040442614072331,-292.0654336496395,0,0,0,0,0,0,0,0
1.13614,408.2044158492266,-11.967947744094882,-291.3859413692269,0,0,0,0,0,0,0,0
1.13616,408.3087444821717,-11.938089033455055,-290.69494567076293,0,0,0,0,0,0,0,0
1.13618,408.41130405895,-11.950587228626093,-289.992473833606,0,0,0,0,0,0,0,0
1.1362,408.51381373955536,-11.937051058774523,-289.2785535901288,0,0,0,0,0,0,0,0
1.13622,408.61570949355024,-11.897109752776409,-288.5532131246736,0,0,0,0,0,0,0,0
1.13624,408.7164196832125,-11.830406961007563,-287.81648107245303,0,0,0,0,0,0,0,0
1.13626,408.8134642263998,-11.872841066690643,-287.06838651837376,0,0,0,0,0,0,0,0
1.13628,408.91108090046606,-11.887874615540886,-286.3089589959414,0,0,0,0,0,0,0,0
1.1363,409.00868429090696,-11.87512656367404,-285.53822848604733,0,0,0,0,0,0,0,0
1.13632,409.1056812802991,-11.834230661531588,-284.75622541580543,0,0,0,0,0,0,0,0
1.13634,409.2014713670014,-11.764835643269915,-283.962980657372,0,0,0,0,0,0,0,0
1.13636,409.2954469876679,-11.666605408609724,-283.1585255266774,0,0,0,0,0,0,0,0
1.13638,409.3854934985484,-11.607433535309752,-282.3428917822475,0,0,0,0,0,0,0,0
1.1364,409.47316444111766,-11.587057893678478,-281.51611162389844,0,0,0,0,0,0,0,0
1.13642,409.5600651683663,-11.53693241573378,-280.6782176914879,0,0,0,0,0,0,0,0
1.13644,409.64429957096365,-11.524974362459329,-279.82924306364845,0,0,0,0,0,0,0,0
1.13646,409.7273685059831,-11.550890861777296,-278.9692212564296,0,0,0,0,0,0,0,0
1.13648,409.8106224577681,-11.546068940846771,-278.0981862220351,0,0,0,0,0,0,0,0
1.1364999999999998,409.8934243229386,-11.51014837457936,-277.2161723474291,0,0,0,0,0,0,0,0
1.13652,409.97512997960257,-11.442784650104702,-276.32321445300084,0,0,0,0,0,0,0,0
1.13654,410.0550886154709,-11.343649134883943,-275.4193477912153,0,0,0,0,0,0,0,0
1.13656,410.13264305922377,-11.212429237285464,-274.5046080451641,0,0,0,0,0,0,0,0
1.13658,410.2049299494496,-11.185534350616212,-273.5790313272228,0,0,0,0,0,0,0,0
1.1366,410.275086120948,-11.194370829436895,-272.6426541775586,0,0,0,0,0,0,0,0
1.13662,410.3445155969852,-11.238638175128408,-271.69551356275497,0,0,0,0,0,0,0,0
1.13664,410.4144700603349,-11.249617648727735,-270.73764687429315,0,0,0,0,0,0,0,0
1.13666,410.4842800630721,-11.226951937355578,-269.7690919271012,0,0,0,0,0,0,0,0
1.13668,410.5532694267712,-11.17029983773735,-268.78988695808744,0,0,0,0,0,0,0,0
1.1367,410.6207555687663,-11.079336412896524,-267.80007062456053,0,0,0,0,0,0,0,0
1.13672,410.6860498313497,-10.9537531415691,-266.7996820028106,0,0,0,0,0,0,0,0
1.13674,410.747042217472,-10.861700340303372,-265.78876058645864,0,0,0,0,0,0,0,0
1.13676,410.8039146079319,-10.871387166757923,-264.7673462849144,0,0,0,0,0,0,0,0
1.13678,410.8612763402229,-10.84563169997262,-263.7354794219115,0,0,0,0,0,0,0,0
1.1368,410.9165767028302,-10.852559338891462,-262.6932007337592,0,0,0,0,0,0,0,0
1.13682,410.9716391088714,-10.823394203918074,-261.64055136785424,0,0,0,0,0,0,0,0
1.13684,411.0257605736249,-10.75780821158031,-260.57757288098173,0,0,0,0,0,0,0,0
1.13686,411.07823217672313,-10.655489769709748,-259.50430723770245,0,0,0,0,0,0,0,0
1.13688,411.1283393854909,-10.516143912202349,-258.4207968087257,0,0,0,0,0,0,0,0
1.1369,411.1727927600601,-10.545039407851482,-257.3270843691684,0,0,0,0,0,0,0,0
1.13692,411.21741839428375,-10.536377892162514,-256.2232130969446,0,0,0,0,0,0,0,0
1.1369399999999998,411.2603554042928,-10.558360139236983,-255.1092265709923,0,0,0,0,0,0,0,0
1.13696,411.30332869943146,-10.54215209897659,-253.98516876958172,0,0,0,0,0,0,0,0
1.13698,411.3456178045336,-10.487430343081384,-252.8510840686108,0,0,0,0,0,0,0,0
1.137,411.38649659653305,-10.393887917694723,-251.70701723978075,0,0,0,0,0,0,0,0
1.13702,411.4252336172482,-10.261234467969008,-250.553013448912,0,0,0,0,0,0,0,0
1.13704,411.4600028964495,-10.15776039574757,-249.38911825407712,0,0,0,0,0,0,0,0
1.13706,411.4899557342618,-10.220358506847846,-248.2153776038868,0,0,0,0,0,0,0,0
1.13708,411.520670556108,-10.243054819620887,-247.0318378356016,0,0,0,0,0,0,0,0
1.1371,411.5514186935423,-10.225520853576445,-245.8385456733341,0,0,0,0,0,0,0,0
1.13712,411.58146593032825,-10.167444364176855,-244.63554822623723,0,0,0,0,0,0,0,0
1.13714,411.61007280077246,-10.068529461442775,-243.42289298656863,0,0,0,0,0,0,0,0
1.13716,411.6364948900416,-9.928496722494678,-242.20062782790268,0,0,0,0,0,0,0,0
1.13718,411.6589366031766,-9.815681048198917,-240.9688010031641,0,0,0,0,0,0,0,0
1.1372,411.67653794522175,-9.867044088522718,-239.72746114275537,0,0,0,0,0,0,0,0
1.13722,411.6946649352258,-9.876520349300035,-238.47665725267112,0,0,0,0,0,0,0,0
1.13724,411.71257853867706,-9.843798043399266,-237.21643871248463,0,0,0,0,0,0,0,0
1.13726,411.7295346629084,-9.768581415758918,-235.9468552734888,0,0,0,0,0,0,0,0
1.1372799999999998,411.74478444166806,-9.650590848535067,-234.6679570566526,0,0,0,0,0,0,0,0
1.1373,411.7575745213832,-9.489562960650613,-233.3797945506644,0,0,0,0,0,0,0,0
1.13732,411.7657515464157,-9.422484321736867,-232.08241861003253,0,0,0,0,0,0,0,0
1.13734,411.7704727847841,-9.449110973389866,-230.77588045286743,0,0,0,0,0,0,0,0
1.13736,411.775269930756,-9.431943578091968,-229.46023165911728,0,0,0,0,0,0,0,0
1.13738,411.77939741482896,-9.370691291070584,-228.13552416830808,0,0,0,0,0,0,0,0
1.1374,411.7821051487556,-9.265079006233796,-226.80181027764732,0,0,0,0,0,0,0,0
1.13742,411.78263879506767,-9.11484744757824,-225.45914263986384,0,0,0,0,0,0,0,0
1.13744,411.7777010300816,-9.125609043544593,-224.10757426116456,0,0,0,0,0,0,0,0
1.13746,411.7719101337573,-9.15988185722624,-222.74715849917936,0,0,0,0,0,0,0,0
1.13748,411.76630798026014,-9.148760313137355,-221.3779490607685,0,0,0,0,0,0,0,0
1.1375,411.7601494744192,-9.091962472298423,-220.00000000000088,0,0,0,0,0,0,0,0
1.13752,411.75268531574295,-8.989221695286702,-218.61336571593367,0,0,0,0,0,0,0,0
1.13754,411.7431622510041,-8.840286724773472,-217.2181009505015,0,0,0,0,0,0,0,0
1.13756,411.7295430387948,-8.78214574795566,-215.81426078639336,0,0,0,0,0,0,0,0
1.13758,411.7128063572305,-8.814547640559274,-214.40190064478983,0,0,0,0,0,0,0,0
1.1376,411.6962136549497,-8.800015886684603,-212.9810762832765,0,0,0,0,0,0,0,0
1.13762,411.6790232921669,-8.738280736323082,-211.5518437935536,0,0,0,0,0,0,0,0
1.13764,411.66048977684153,-8.629087245521209,-210.11425959925955,0,0,0,0,0,0,0,0
1.13766,411.63986399998896,-8.47219534976775,-208.6683804537828,0,0,0,0,0,0,0,0
1.13768,411.6140442676653,-8.473157171204202,-207.21426343793007,0,0,0,0,0,0,0,0
1.1377,411.5872549987441,-8.494541534455088,-205.75196595777768,0,0,0,0,0,0,0,0
1.1377199999999998,411.59093003496935,-2.362885694867088,-204.2815457423131,0,0,0,0,1,0,0,0
1.13774,411.4466695034981,0.208418849710094,-202.8030608411953,0,0,0,0,1,0,0,0
1.13776,411.2902575398362,0.1397713090598073,-201.3165696225034,0,0,0,0,1,0,0,0
1.13778,411.1341824209222,0.0702350505679144,-199.82213077033845,0,0,0,0,1,0,0,0
1.1378,410.9783993260592,-0.0001983198464863,-198.3198032826145,0,0,0,0,1,0,0,0
1.13782,410.8227524862816,-0.0001968096899214,-196.80964646860755,0,0,0,0,1,0,0,0
1.13784,410.6671672760671,-0.000195291763647,-195.2917199467912,0,0,0,0,1,0,0,0
1.13786,410.5116409884844,-0.0001937661275881,-193.76608364225072,0,0,0,0,1,0,0,0
1.13788,410.356173601218,-0.0001922328419742,-192.2327977844809,0,0,0,0,1,0,0,0
1.1379,410.20076509196144,-0.000190691967337,-190.69192290503764,0,0,0,0,1,0,0,0
1.13792,410.04541543841714,-0.0001891435645073,-189.1435198349809,0,0,0,0,1,0,0,0
1.13794,409.89012461829526,-0.0001875876946136,-187.5876497026408,0,0,0,0,1,0,0,0
1.13796,409.7348926093144,-0.000186024419079,-186.0243739310919,0,0,0,0,1,0,0,0
1.13798,409.5797193892019,-0.0001844537996187,-184.4537542357708,0,0,0,0,1,0,0,0
1.138,409.4246049356936,-0.0001828758982384,-182.8758526220821,0,0,0,0,1,0,0,0
1.13802,409.269549226534,-0.0001812907772306,-181.2907313828512,0,0,0,0,1,0,0,0
1.13804,409.11455223947513,-0.0001796984991735,-179.69845309597915,0,0,0,0,1,0,0,0
1.1380599999999998,408.9596139522776,-0.0001780991269272,-178.0990806218719,0,0,0,0,1,0,0,0
1.13808,408.804734342712,-0.0001764927236324,-176.49267710100173,0,0,0,0,1,0,0,0
1.1381,408.649913388555,-0.0001748793527071,-174.879305951458,0,0,0,0,1,0,0,0
1.13812,408.49515106759344,-0.0001732590778443,-173.25903086634202,0,0,0,0,1,0,0,0
1.13814,408.34044735762177,-0.0001716319630099,-171.6319158113691,0,0,0,0,1,0,0,0
1.1381599999999998,408.1858022364433,-0.0001699980724394,-169.9980250222409,0,0,0,0,1,0,0,0
1.13818,408.0312156818696,-0.0001683574706361,-168.35742300215327,0,0,0,0,1,0,0,0
1.1382,407.87668767172016,-0.0001667102223681,-166.7101745192944,0,0,0,0,1,0,0,0
1.13822,407.72221818382354,-0.000165056392666,-165.05634460418418,0,0,0,0,1,0,0,0
1.13824,407.5678071960165,-0.0001633960468202,-163.39599854722567,0,0,0,0,1,0,0,0
1.13826,407.41345468614327,-0.0001617292503782,-161.72920189600825,0,0,0,0,1,0,0,0
1.13828,407.2591606320583,-0.0001600560691423,-160.0560204528398,0,0,0,0,1,0,0,0
1.1383,407.1049250116231,-0.0001583765691669,-158.3765202720437,0,0,0,0,1,0,0,0
1.13832,406.9507478027078,-0.0001566908167557,-156.69076765739612,0,0,0,0,1,0,0,0
1.13834,406.7966289831916,-0.0001549988784593,-154.99882915955422,0,0,0,0,1,0,0,0
1.13836,406.64256853096055,-0.0001533008210726,-153.30077157332232,0,0,0,0,1,0,0,0
1.13838,406.48856642391127,-0.0001515967116321,-151.596661935137,0,0,0,0,1,0,0,0
1.1384,406.334622639946,-0.0001498866174129,-149.88656752031363,0,0,0,0,1,0,0,0
1.13842,406.180737156978,-0.0001481706059267,-148.17055584043595,0,0,0,0,1,0,0,0
1.13844,406.0269099529265,-0.0001464487449187,-146.44869464073787,0,0,0,0,1,0,0,0
1.13846,405.87314100572127,-0.0001447211023649,-144.72105189730445,0,0,0,0,1,0,0,0
1.13848,405.7194302932999,-0.0001429877464699,-142.9876958145755,0,0,0,0,1,0,0,0
1.1384999999999998,405.5657777936072,-0.0001412487456635,-141.24869482246572,0,0,0,0,1,0,0,0
1.13852,405.4121834845968,-0.0001395041685984,-139.50411757369358,0,0,0,0,1,0,0,0
1.13854,405.2586473442316,-0.0001377540841477,-137.75403294126053,0,0,0,0,1,0,0,0
1.13856,405.1051693504821,-0.0001359985614016,-135.99851001546375,0,0,0,0,1,0,0,0
1.13858,404.9517494813272,-0.0001342376696651,-134.23761810137424,0,0,0,0,1,0,0,0
1.1386,404.7983877147545,-0.0001324714784553,-132.47142671595773,0,0,0,0,1,0,0,0
1.13862,404.6450840287589,-0.0001307000574984,-130.7000055854579,0,0,0,0,1,0,0,0
1.13864,404.49183840134464,-0.000128923476727,-128.9234246425318,0,0,0,0,1,0,0,0
1.13866,404.3386508105245,-0.0001271418062774,-127.14175402353705,0,0,0,0,1,0,0,0
1.13868,404.18552123431857,-0.0001253551164871,-125.35506406581108,0,0,0,0,1,0,0,0
