"Time / s","Vo:Measured voltage","IL:Measured current","Vin:Measured voltage","open1:Output","open3:Output","open2:Output","open4:Output","short1:Output","short2:Output","short3:Output","short4:Output"
1.1043714072440527,395.65382456611854,12.564634284574439,304.85934693315323,0,0,0,0,0,0,0,0
1.1043799999999999,395.79661333858235,12.575105021275105,305.24373345047951,0,0,0,0,0,0,0,0
1.1044,395.93969672415574,12.594518402688376,305.61606946787361,0,0,0,0,0,0,0,0
1.10442,396.08327845265489,12.622461633731605,305.97634028614027,0,0,0,0,0,0,0,0
1.1044399999999999,396.22755248139634,12.658516365228795,306.32453168240789,0,0,0,0,0,0,0,0
1.10446,396.37270287245587,12.702258962628756,306.66062991067946,0,0,0,0,0,0,0,0
1.1044799999999999,396.51890367627897,12.753260777790105,306.98462170236627,0,0,0,0,0,0,0,0
1.1045,396.66631882170674,12.811088423668066,307.29649426683295,0,0,0,0,0,0,0,0
1.1045199999999999,396.81510201248682,12.875304051736766,307.59623529187911,0,0,0,0,0,0,0,0
1.1045399999999999,396.96539663032434,12.945465631979408,307.88383294424511,0,0,0,0,0,0,0,0
1.10456,397.11860718446593,12.954957441527947,308.15927587007064,0,0,0,0,0,0,0,0
1.1045799999999999,397.27252673234534,12.903274780751115,308.42255319533552,0,0,0,0,0,0,0,0
1.1046,397.42474416023663,12.922400153376174,308.67365452630656,0,0,0,0,0,0,0,0
1.1046199999999999,397.57788194387922,12.879510514328857,308.91256994992864,0,0,0,0,0,0,0,0
1.1046399999999998,397.72952107692083,12.906684429763288,309.13929003423226,0,0,0,0,0,0,0,0
1.10466,397.88225696096526,12.870991578041709,309.35380582869851,0,0,0,0,0,0,0,0
1.1046799999999999,398.03365737216507,12.904607181698335,309.55610886460732,0,0,0,0,0,0,0,0
1.1047,398.18629501511725,12.874495016119559,309.74619115538491,0,0,0,0,0,0,0,0
1.1047199999999999,398.33693793851234,12.912931709284779,309.92404519690439,0,0,0,0,0,0,0,0
1.1047400000000001,398.48970464256905,12.886788821885544,310.08966396779743,0,0,0,0,0,0,0,0
1.10476,398.64181188034644,12.862001099038041,310.2430409297113,0,0,0,0,0,0,0,0
1.1047799999999999,398.79282201357762,12.904622284433295,310.38417002759195,0,0,0,0,0,0,0,0
1.1048,398.94525447041616,12.881356496283468,310.51304568990508,0,0,0,0,0,0,0,0
1.1048199999999999,399.09583009707728,12.924728325274176,310.62966282885549,0,0,0,0,0,0,0,0
1.10484,399.24862243191484,12.901352559185238,310.73401684060161,0,0,0,0,0,0,0,0
1.10486,399.40079677447227,12.877287938471738,310.82610360542378,0,0,0,0,0,0,0,0
1.1048799999999999,399.55186766117549,12.918713585209481,310.90591948789523,0,0,0,0,0,0,0,0
1.1049,399.70430816096894,12.892080813914912,310.97346133702223,0,0,0,0,0,0,0,0
1.1049199999999999,399.85557368139831,12.930164821843636,311.02872648636685,0,0,0,0,0,0,0,0
1.10494,400.0081212375967,12.899317699272311,311.07171275415675,0,0,0,0,0,0,0,0
1.1049599999999999,400.15938465728539,12.9324183392277,311.10241844336684,0,0,0,0,0,0,0,0
1.1049799999999999,400.31180271688334,12.895720582824509,311.12084234178951,0,0,0,0,0,0,0,0
1.105,400.46279063293883,12.922208102756569,311.12698372208092,0,0,0,0,0,0,0,0
1.1050199999999999,400.61429827624323,12.944786347837216,311.12084234178963,0,0,0,0,0,0,0,0
1.10504,400.76544319889348,12.963037930382459,311.10241844336684,0,0,0,0,0,0,0,0
1.1050599999999999,400.91816287198321,12.909757406733657,311.07171275415669,0,0,0,0,0,0,0,0
1.1050799999999998,401.06904147847655,12.918124289304442,311.02872648636725,0,0,0,0,0,0,0,0
1.1051,401.21999532356568,12.92095427727112,310.97346133702212,0,0,0,0,0,0,0,0
1.1051199999999999,401.37088958120745,12.917838318965565,310.90591948789586,0,0,0,0,0,0,0,0
1.10514,401.52157991484961,12.908371080110618,310.82610360542373,0,0,0,0,0,0,0,0
1.1051599999999999,401.67065649468935,12.959080034959952,310.7340168406015,0,0,0,0,0,0,0,0
1.1051800000000001,401.82125607216472,12.935721430554951,310.62966282885537,0,0,0,0,0,0,0,0
1.1052,401.97194683106795,12.904796183210156,310.51304568990497,0,0,0,0,0,0,0,0
1.1052199999999999,402.12050892451191,12.932903918747318,310.38417002759428,0,0,0,0,0,0,0,0
1.10524,402.26957452243397,12.952689766279901,310.24304092971255,0,0,0,0,0,0,0,0
1.1052599999999999,402.42020262773639,12.89668210460653,310.08966396779738,0,0,0,0,0,0,0,0
1.10528,402.56810311192265,12.898568304314857,309.92404519690581,0,0,0,0,0,0,0,0
1.1052999999999999,402.71588170141882,12.890935153093634,309.74619115538638,0,0,0,0,0,0,0,0
1.1053199999999999,402.86331170092319,12.873381688989932,309.55610886461074,0,0,0,0,0,0,0,0
1.10534,403.01015721891315,12.845513159495413,309.35380582870027,0,0,0,0,0,0,0,0
1.1053599999999999,403.15617331890195,12.806941271254939,309.13929003423607,0,0,0,0,0,0,0,0
1.10538,403.30110617642737,12.757284435790039,308.91256994992847,0,0,0,0,0,0,0,0
1.1053999999999999,403.44469324165721,12.696168011091226,308.67365452630639,0,0,0,0,0,0,0,0
1.1054199999999998,403.5866634075237,12.623224538935672,308.42255319533996,0,0,0,0,0,0,0,0
1.10544,403.72570804121563,12.605365887163632,308.15927587007042,0,0,0,0,0,0,0,0
1.1054599999999999,403.86232907460357,12.642282764378049,307.88383294424744,0,0,0,0,0,0,0,0
1.10548,403.99960231708684,12.666343245099656,307.59623529187883,0,0,0,0,0,0,0,0
1.1054999999999999,404.13722672505401,12.677130677173421,307.29649426683272,0,0,0,0,0,0,0,0
1.1055200000000001,404.27489186857918,12.674236573641039,306.98462170236604,0,0,0,0,0,0,0,0
1.10554,404.41227812587772,12.657260863385567,306.66062991067923,0,0,0,0,0,0,0,0
1.1055599999999999,404.54905688340915,12.625812136742203,306.32453168241074,0,0,0,0,0,0,0,0
1.10558,404.68443680860037,12.646936086805919,305.97634028613999,0,0,0,0,0,0,0,0
1.1055999999999999,404.82007596790334,12.652840177337312,305.61606946787327,0,0,0,0,0,0,0,0
1.10562,404.95438314010477,12.710597727209349,305.24373345047923,0,0,0,0,0,0,0,0
1.10564,405.09024691402669,12.68487141549485,304.85934693315295,0,0,0,0,0,0,0,0
1.1056599999999999,405.22481470458189,12.710243067753375,304.46292509081263,0,0,0,0,0,0,0,0
1.10568,405.3609611605163,12.651285620295182,304.05448357351014,0,0,0,0,0,0,0,0
1.1056999999999999,405.49428026636753,12.64267846887337,303.63403850582455,0,0,0,0,0,0,0,0
1.10572,405.62715557480368,12.616529888713632,303.20160648619964,0,0,0,0,0,0,0,0
1.1057399999999999,405.75918432617931,12.572458188842589,302.75720458631889,0,0,0,0,0,0,0,0
1.1057599999999999,405.88995536228617,12.510092461069874,302.30085035040457,0,0,0,0,0,0,0,0
1.10578,406.01904937707826,12.429072801660663,301.83256179453616,0,0,0,0,0,0,0,0
1.1057999999999999,406.14324944964801,12.464397408865539,301.35235740595255,0,0,0,0,0,0,0,0
1.10582,406.26798096006246,12.480443662683575,300.86025614229197,0,0,0,0,0,0,0,0
1.1058399999999999,406.39280699955913,12.476809274619827,300.35627743087866,0,0,0,0,0,0,0,0
1.1058599999999998,406.51728193479653,12.453103531164983,299.84044116792484,0,0,0,0,0,0,0,0
1.10588,406.64095167321676,12.408947520342856,299.31276771775805,0,0,0,0,0,0,0,0
1.1058999999999999,406.76335393331397,12.343974351605826,298.77327791203203,0,0,0,0,0,0,0,0
1.10592,406.88281536491291,12.325627993110773,298.22199304886595,0,0,0,0,0,0,0,0
1.1059399999999999,407.00113062618823,12.353608007981114,297.65893489206724,0,0,0,0,0,0,0,0
1.1059600000000001,407.11978009435006,12.3597379840828,297.08412567017729,0,0,0,0,0,0,0,0
1.10598,407.23827605301108,12.343626366139119,296.49758807570572,0,0,0,0,0,0,0,0
1.1059999999999999,407.35612245122076,12.304894367423163,295.8993452641422,0,0,0,0,0,0,0,0
1.10602,407.47281519139489,12.243176183331412,295.28942085308302,0,0,0,0,0,0,0,0
1.1060399999999999,407.58784242178984,12.158119197845936,294.66783892131059,0,0,0,0,0,0,0,0
1.10606,407.69797129682996,12.185250377760548,294.03462400780404,0,0,0,0,0,0,0,0
1.10608,407.80839214693356,12.188431888341128,293.38980111081537,0,0,0,0,0,0,0,0
1.1060999999999999,407.91857824083058,12.167278771804842,292.73339568684264,0,0,0,0,0,0,0,0
1.10612,408.02799479744738,12.121419700586111,292.06543364964216,0,0,0,0,0,0,0,0
1.1061399999999999,408.13609928852196,12.050497180852316,291.38594136922336,0,0,0,0,0,0,0,0
1.10616,408.2423417454516,11.954167748652553,290.69494567076572,0,0,0,0,0,0,0,0
1.1061799999999999,408.34455995625825,11.968185735977332,289.99247383360881,0,0,0,0,0,0,0,0
1.1061999999999999,408.44676303959977,11.956177007923372,289.27855359013159,0,0,0,0,0,0,0,0
1.10622,408.5483871363615,11.917769969831376,288.55321312467646,0,0,0,0,0,0,0,0
1.1062399999999999,408.64886076225127,11.852607444775719,287.81648107245593,0,0,0,0,0,0,0,0
1.10626,408.7449710337126,11.896563159109949,287.06838651837671,0,0,0,0,0,0,0,0
1.1062799999999999,408.84169017045394,11.91313969388349,286.30895899594435,0,0,0,0,0,0,0,0
1.1062999999999998,408.93843324545907,11.901955142643041,285.5382284860504,0,0,0,0,0,0,0,0
1.10632,409.03460761004436,11.862642382189536,284.7562254158085,0,0,0,0,0,0,0,0
1.1063399999999999,409.12961321233405,11.794849262408613,283.96298065737511,0,0,0,0,0,0,0,0
1.10636,409.2228429195564,11.698238788566306,283.15852552668059,0,0,0,0,0,0,0,0
1.1063799999999999,409.31253426058674,11.640693965875853,282.34289178225066,0,0,0,0,0,0,0,0
1.1064000000000001,409.4002386256779,11.621939450720909,281.51611162389418,0,0,0,0,0,0,0,0
1.10642,409.48720881928148,11.573433901407013,280.67821769149111,0,0,0,0,0,0,0,0
1.1064399999999999,409.57118938262727,11.563078890095014,279.8292430636518,0,0,0,0,0,0,0,0
1.10646,409.65368224090537,11.590592973842968,278.96922125643295,0,0,0,0,0,0,0,0
1.1064799999999999,409.73639782668573,11.587381280087412,278.09818622203852,0,0,0,0,0,0,0,0
1.1065,409.81869932947296,11.553082726639934,277.21617234741649,0,0,0,0,0,0,0,0
1.1065199999999999,409.89994290224877,11.487351937184643,276.32321445300437,0,0,0,0,0,0,0,0
1.1065399999999999,409.97947798946581,11.389859409802245,275.4193477912188,0,0,0,0,0,0,0,0
1.10656,410.0566476583013,11.260291677958183,274.50460804515933,0,0,0,0,0,0,0,0
1.1065799999999999,410.12926583059925,11.235033227381326,273.57903132721799,0,0,0,0,0,0,0,0
1.1066,410.20012575436994,11.245487115408938,272.64265417755371,0,0,0,0,0,0,0,0
1.1066199999999999,410.26925366091541,11.291340554281275,271.69551356275002,0,0,0,0,0,0,0,0
1.1066399999999998,410.33894333546664,11.303912372689277,270.73764687428826,0,0,0,0,0,0,0,0
1.10666,410.40852548713644,11.28284444842971,269.76909192709616,0,0,0,0,0,0,0,0
1.1066799999999999,410.47732407806768,11.227794765719507,268.78988695808232,0,0,0,0,0,0,0,0
1.1067,410.54465664964152,11.138437572252112,267.80007062456446,0,0,0,0,0,0,0,0
1.1067199999999999,410.6098346516219,11.014463528976295,266.79968200281451,0,0,0,0,0,0,0,0
1.1067400000000001,410.67107469790312,10.924012038855599,265.7887605864442,0,0,0,0,0,0,0,0
1.10676,410.72821160446784,10.935265575738139,264.76734628491835,0,0,0,0,0,0,0,0
1.1067799999999999,410.78433653853341,10.979522040877731,263.73547942191556,0,0,0,0,0,0,0,0
1.1068,410.84095545053151,10.988002441544131,262.69320073376338,0,0,0,0,0,0,0,0
1.1068199999999999,410.89737110650549,10.960361604536994,261.64055136785839,0,0,0,0,0,0,0,0
1.10684,410.95288000180977,10.896270717281809,260.57757288097622,0,0,0,0,0,0,0,0
1.10686,411.00677268211257,10.795417469833252,259.50430723770666,0,0,0,0,0,0,0,0
1.1068799999999999,411.05833406695388,10.657506189931368,258.4207968087299,0,0,0,0,0,0,0,0
1.1069,411.10578694195954,10.550763163294764,257.32708436917267,0,0,0,0,0,0,0,0
1.1069199999999999,411.14811770895375,10.611963478674266,256.22321309694894,0,0,0,0,0,0,0,0
1.10694,411.19123055833984,10.635310026887741,255.10922657098655,0,0,0,0,0,0,0,0
1.1069599999999999,411.23441094529699,10.620462392650726,253.98516876958621,0,0,0,0,0,0,0,0
1.1069799999999999,411.2769383543112,10.567096504825326,252.85108406861517,0,0,0,0,0,0,0,0
1.107,411.31808660969278,10.474904767755488,251.70701723978519,0,0,0,0,0,0,0,0
1.1070199999999999,411.3571241883821,10.34359618608579,250.55301344891643,0,0,0,0,0,0,0,0
1.10704,411.39189713212653,10.241446645331065,249.38911825408169,0,0,0,0,0,0,0,0
1.1070599999999999,411.42257720414722,10.236779536754423,248.21537760389143,0,0,0,0,0,0,0,0
1.1070799999999998,411.45238607694034,10.26077599352174,247.03183783560618,0,0,0,0,0,0,0,0
1.1071,411.48225848319493,10.244560060794756,245.8385456733279,0,0,0,0,0,0,0,0
1.1071199999999999,411.51146056397539,10.187818885769708,244.63554822624192,0,0,0,0,0,0,0,0
1.10714,411.53925319939401,10.090255963247369,243.42289298656237,0,0,0,0,0,0,0,0
1.1071599999999999,411.56489230880385,9.9515912484064923,242.2006278278964,0,0,0,0,0,0,0,0
1.1071800000000001,411.58526851946306,9.9087306023562789,240.96880100314655,0,0,0,0,0,0,0,0
1.1072,411.60374925017373,9.8928586362804261,239.72746114274895,0,0,0,0,0,0,0,0
1.1072199999999999,411.62117126024373,9.9036934932590484,238.47665725266467,0,0,0,0,0,0,0,0
1.10724,411.63841055755194,9.8723431827905905,237.21643871247809,0,0,0,0,0,0,0,0
1.1072599999999999,411.65472331538871,9.7985113542975828,235.94685527348224,0,0,0,0,0,0,0,0
1.10728,411.66936092259505,9.6819177894625383,234.66795705663441,0,0,0,0,0,0,0,0
1.1073,411.68025494802731,9.5908978697382228,233.3797945506694,0,0,0,0,0,0,0,0
1.1073199999999999,411.68748820207645,9.5938188211007596,232.08241861002585,0,0,0,0,0,0,0,0
1.10734,411.69440286911248,9.5532095866224527,230.77588045287257,0,0,0,0,0,0,0,0
1.1073599999999999,411.69985436572586,9.5373915688849582,229.46023165912243,0,0,0,0,0,0,0,0
1.10738,411.73757396498803,7.4878532164343277,228.13552416831328,0,0,1,0,0,0,0,0
1.1073999999999999,411.71555113062658,1.3454312848100192,226.80181027765261,0,0,1,0,0,0,0,0
1.1074199999999998,411.56312772533238,0.00022545918079839338,225.4591426398691,0,0,1,0,0,0,0,0
1.10744,411.40668793958883,0.00022410761269943768,224.10757426116987,0,0,1,0,0,0,0,0
1.1074599999999999,411.25067101111915,0.00022274719721567836,222.74715849918474,0,0,1,0,0,0,0,0
1.10748,411.09489996916517,0.00022137798805396509,221.37794906077391,0,0,1,0,0,0,0,0
1.1074999999999999,410.93920688812011,0.00022000003926835564,220.00000000000631,0,0,1,0,0,0,0,0
1.1075200000000001,410.78357273957698,0.00021861340525788369,218.61336571592656,0,0,1,0,0,0,0,0
1.10754,410.6279975009968,0.00021721814076451092,217.21810095050697,0,0,1,0,0,0,0,0
1.1075599999999999,410.47248114985013,0.00021581430087087774,215.81426078639885,0,0,1,0,0,0,0,0
1.10758,410.31702366361833,0.00021440194099816686,214.40190064479535,0,0,1,0,0,0,0,0
1.1075999999999999,410.16162501979363,0.00021298111690395307,212.98107628328208,0,0,1,0,0,0,0,0
1.10762,410.00628519587542,0.00021155188467991307,211.55184379354625,0,0,1,0,0,0,0,0
1.10764,409.85100416937456,0.00021011430074971372,210.11425959926518,0,0,1,0,0,0,0,0
1.1076599999999999,409.69578191781233,0.0002086684218666941,208.66838045378847,0,0,1,0,0,0,0,0
1.10768,409.54061841871948,0.00020721430511165062,207.21426343792257,0,0,1,0,0,0,0,0
1.1076999999999999,409.38551364963723,0.00020575200789068837,205.75196595778337,0,0,1,0,0,0,0,0
1.10772,409.2304675881158,0.00020428158793271887,204.2815457422922,0,0,1,0,0,0,0,0
1.1077399999999999,409.07548021171533,0.00020280310328747039,202.80306084118769,0,0,1,0,0,0,0,0
1.1077599999999999,408.9205514980066,0.00020131661232295864,201.31656962249573,0,0,1,0,0,0,0,0
1.10778,408.76568142457086,0.00019982217372328828,199.82213077033074,0,0,1,0,0,0,0,0
1.1077999999999999,408.61086996899814,0.00019831984648636307,198.31980328260678,0,0,1,0,0,0,0,0
1.10782,408.45611710888909,0.00019680968992146308,196.80964646861347,0,0,1,0,0,0,0,0
1.1078399999999999,408.30142282185432,0.0001952917636470108,195.29171994678342,0,0,1,0,0,0,0,0
1.1078599999999998,408.14678708551475,0.00019376612758812277,193.76608364224285,0,0,1,0,0,0,0,0
1.10788,407.99220987750004,0.00019223284197428459,192.23279778448693,0,0,1,0,0,0,0,0
1.1078999999999999,407.83769117545171,0.00019069196733701441,190.6919229050437,0,0,1,0,0,0,0,0
1.10792,407.6832309570197,0.00018914356450737681,189.14351983498699,0,0,1,0,0,0,0,0
1.1079399999999999,407.52882919986445,0.00018758769461369216,187.58764970264687,0,0,1,0,0,0,0,0
1.1079600000000001,407.37448588165631,0.00018602441907901156,186.02437393108386,0,0,1,0,0,0,0,0
1.10798,407.22020098007653,0.00018445379961880474,184.45375423577696,0,0,1,0,0,0,0,0
1.1079999999999999,407.06597447281604,0.00018287589823842444,182.8758526220883,0,0,1,0,0,0,0,0
1.10802,406.91180633757392,0.00018129077723070123,181.29073138285744,0,0,1,0,0,0,0,0
1.1080399999999999,406.75769655206193,0.00017969849917352676,179.6984530959854,0,0,1,0,0,0,0,0
1.10806,406.60364509400057,0.00017809912692728349,178.09908062186369,0,0,1,0,0,0,0,0
1.10808,406.44965194112052,0.00017649272363247834,176.49267710100801,0,0,1,0,0,0,0,0
1.1080999999999999,406.2957170711623,0.00017487935270714796,174.87930595146432,0,0,1,0,0,0,0,0
1.10812,406.14184046187694,0.00017325907784439972,173.25903086634835,0,0,1,0,0,0,0,0
1.1081399999999999,405.98802209102558,0.00017163196300993983,171.63191581137545,0,0,1,0,0,0,0,0
1.10816,405.8342619363782,0.00016999807243944657,169.99802502223247,0,0,1,0,0,0,0,0
1.1081799999999999,405.68055997571599,0.0001683574706361515,168.35742300215963,0,0,1,0,0,0,0,0
1.1081999999999999,405.52691618682945,0.00016671022236818987,166.71017451930086,0,0,1,0,0,0,0,0
1.10822,405.37333054752105,0.00016505639266608803,165.05634460419066,0,0,1,0,0,0,0,0
1.1082399999999999,405.21980303560116,0.00016339604682024029,163.39599854723215,0,0,1,0,0,0,0,0
1.10826,405.0663336288905,0.00016172925037821306,161.72920189599964,0,0,1,0,0,0,0,0
1.1082799999999999,404.91292230522032,0.00016005606914235081,160.05602045284633,0,0,1,0,0,0,0,0
1.1082999999999998,404.75956904243162,0.00015837656916692364,158.3765202720503,0,0,1,0,0,0,0,0
1.10832,404.60627381837651,0.00015669081675569961,156.69076765738743,0,0,1,0,0,0,0,0
1.1083399999999999,404.45303661091606,0.00015499887845935793,154.99882915954552,0,0,1,0,0,0,0,0
1.10836,404.29985739792096,0.00015330082107268016,153.30077157331357,0,0,1,0,0,0,0,0
1.1083714072440525,404.29985739792096,0.00015330082107268016,153.30077157331357,0,0,1,0,0,0,0,0
