Time / s,Vo:Measured voltage,IL:Measured current,Vin:Measured voltage,short1:Output,short2:Output,short3:Output,short4:Output,open1:Output,open3:Output,open2:Output,open4:Output
1.14644944626121,409.6547514718576,11.591046562598136,279.82924306365,0,0,0,0,0,0,0,0
1.14646,409.73776929423167,11.616657666016016,278.96922125643107,0,0,0,0,0,0,0,0
1.14648,409.820970322389,11.61153174383784,278.09818622203665,0,0,0,0,0,0,0,0
1.1465,409.90371753832096,11.575308613239892,277.2161723474306,0,0,0,0,0,0,0,0
1.14652,409.9853669061546,11.507643801667172,276.3232144530024,0,0,0,0,0,0,0,0
1.14654,410.06526770021793,11.408208714933156,275.4193477912168,0,0,0,0,0,0,0,0
1.14656,410.1427628363664,11.276690797782235,274.50460804515734,0,0,0,0,0,0,0,0
1.14658,410.2156617233471,11.249504202391728,273.5790313272244,0,0,0,0,0,0,0,0
1.1465999999999998,410.2867611565976,11.258038746310318,272.6426541775687,0,0,0,0,0,0,0,0
1.14662,410.35608815178,11.301982631416674,271.695513562748,0,0,0,0,0,0,0,0
1.14664,410.4259386169143,11.312641153912368,270.7376468742861,0,0,0,0,0,0,0,0
1.14666,410.4956432092203,11.289657035129704,269.76909192709405,0,0,0,0,0,0,0,0
1.14668,410.5645258558473,11.232689103681254,268.7898869580802,0,0,0,0,0,0,0,0
1.1467,410.6319040800824,11.141412452144223,267.8000706245623,0,0,0,0,0,0,0,0
1.14672,410.6970893305021,11.015518586467588,266.79968200281235,0,0,0,0,0,0,0,0
1.14674,410.758298366556,10.923162293331163,265.78876058645113,0,0,0,0,0,0,0,0
1.14676,410.8153673158768,10.932541397273647,264.76734628491613,0,0,0,0,0,0,0,0
1.14678,410.8713884030752,10.974940022259531,263.73547942191334,0,0,0,0,0,0,0,0
1.1468,410.92786750964825,10.981565404631784,262.69320073376105,0,0,0,0,0,0,0,0
1.14682,410.9841074774024,10.95207313713978,261.64055136785606,0,0,0,0,0,0,0,0
1.14684,411.0394048922621,10.886135171292612,260.57757288098355,0,0,0,0,0,0,0,0
1.14686,411.093050405225,10.78343995904726,259.50430723770427,0,0,0,0,0,0,0,0
1.14688,411.1443290558722,10.643692587550843,258.4207968087276,0,0,0,0,0,0,0,0
1.1469,411.18999145541846,10.603650275492534,257.3270843691702,0,0,0,0,0,0,0,0
1.14692,411.2341035505357,10.594566930480566,256.2232130969465,0,0,0,0,0,0,0,0
1.1469399999999998,411.2768404073376,10.616142581575136,255.10922657099425,0,0,0,0,0,0,0,0
1.14696,411.31961175624497,10.599532386288924,253.98516876958368,0,0,0,0,0,0,0,0
1.14698,411.3616972572378,10.544412953533335,252.8510840686127,0,0,0,0,0,0,0,0
1.147,411.4023709227944,10.45047736385752,251.7070172397827,0,0,0,0,0,0,0,0
1.14702,411.44090143061527,10.317435294007064,250.5530134489139,0,0,0,0,0,0,0,0
1.1470399999999998,411.47410031209085,10.28214423842408,249.38911825408968,0,0,0,0,0,0,0,0
1.14706,411.5054799471519,10.275807010528649,248.21537760388884,0,0,0,0,0,0,0,0
1.14708,411.53595172067054,10.298133639534097,247.0318378356036,0,0,0,0,0,0,0,0
1.1471,411.5664563052273,10.280235151385234,245.83854567333609,0,0,0,0,0,0,0,0
1.14712,411.596259627766,10.221799311542886,244.63554822623928,0,0,0,0,0,0,0,0
1.14714,411.6246223656362,10.122530237158562,243.4228929865597,0,0,0,0,0,0,0,0
1.14716,411.6508002468559,9.982148509619645,242.2006278278937,0,0,0,0,0,0,0,0
1.14718,411.67268511709307,9.86898889211358,240.96880100316616,0,0,0,0,0,0,0,0
1.1472,411.6900107024766,9.920029292067785,239.72746114274625,0,0,0,0,0,0,0,0
1.14722,411.7078627868885,9.929188535459602,238.476657252662,0,0,0,0,0,0,0,0
1.14724,411.7255024817513,9.8961548184435,237.2164387124753,0,0,0,0,0,0,0,0
1.14726,411.7421858397119,9.82063236642674,235.94685527347943,0,0,0,0,0,0,0,0
1.14728,411.75716413915205,9.702341539229751,234.6679570566432,0,0,0,0,0,0,0,0
1.1473,411.7696841704063,9.541018930649257,233.37979455066656,0,0,0,0,0,0,0,0
1.14732,411.7760154246458,9.542271434176545,232.082418610023,0,0,0,0,0,0,0,0
1.14734,411.7816040978458,9.568631421016766,230.7758804528697,0,0,0,0,0,0,0,0
1.14736,411.787270384467,9.551181456483954,229.4602316591196,0,0,0,0,0,0,0,0
1.1473799999999998,411.79226849008825,9.489630670233732,228.1355241683224,0,0,0,0,0,0,0,0
1.1474,411.7958481009628,9.38370393480525,226.80181027764968,0,0,0,0,0,0,0,0
1.14742,411.79725465361616,9.233141957038436,225.45914263986617,0,0,0,0,0,0,0,0
1.14744,411.7938033738309,9.174943599497883,224.1075742611669,0,0,0,0,0,0,0,0
1.14746,411.7876928208127,9.20887499885306,222.7471584991817,0,0,0,0,0,0,0,0
1.14748,411.7817725586568,9.19741810141264,221.3779490607709,0,0,0,0,0,0,0,0
1.1475,411.77529763471466,9.140290939858462,220.0000000000033,0,0,0,0,0,0,0,0
1.14752,411.767518890202,9.037226843870538,218.61336571593608,0,0,0,0,0,0,0,0
1.14754,411.75768321274137,8.887974522679894,217.2181009505039,0,0,0,0,0,0,0,0
1.14756,411.74227231668834,8.898138302494083,215.81426078639572,0,0,0,0,0,0,0,0
1.14758,411.7266646253948,8.861637864387797,214.40190064479228,0,0,0,0,0,0,0,0
1.1476,411.7097380728272,8.846817271936226,212.98107628327887,0,0,0,0,0,0,0,0
1.14762,411.6922167486185,8.784799364994463,211.5518437935561,0,0,0,0,0,0,0,0
1.14764,411.67335529727416,8.67532914900977,210.11425959926208,0,0,0,0,0,0,0,0
1.14766,411.6512433503992,8.58676276613302,208.6683804537853,0,0,0,0,0,0,0,0
1.14768,411.6267634567845,8.518871076786793,207.2142634379326,0,0,0,0,0,0,0,0
1.1477,411.5996284479296,8.539997158665447,205.75196595778016,0,0,0,0,0,0,0,0
1.14772,411.5724609914877,8.512696633650254,204.28154574231564,0,0,0,0,0,0,0,0
1.14774,411.54452557281496,8.436714469102883,202.80306084118448,0,0,0,0,0,0,0,0
1.14776,411.5150832002744,8.311809901854689,201.316569622506,0,0,0,0,0,0,0,0
1.14778,411.4822872246712,8.206325240428917,199.82213077032745,0,0,0,0,0,0,0,0
1.1478,411.4461114283087,8.188604624539453,198.31980328260352,0,0,0,0,0,0,0,0
1.1478199999999998,411.4089706925733,8.18983301977069,196.80964646862387,0,0,0,0,0,0,0,0
1.14784,411.37150325409897,8.14119336534405,195.2917199467801,0,0,0,0,0,0,0,0
1.14786,411.3329822898638,8.042447371987695,193.7660836422395,0,0,0,0,0,0,0,0
1.14788,411.2926778861221,7.89337044728846,192.2327977844836,0,0,0,0,0,0,0,0
1.1479,411.2482530754451,7.830816621813732,190.69192290504031,0,0,0,0,0,0,0,0
1.14792,411.20143204429615,7.8545471318235025,189.1435198349836,0,0,0,0,0,0,0,0
1.14794,411.15460783188206,7.827257104371901,187.58764970264343,0,0,0,0,0,0,0,0
1.14796,411.10706775592575,7.748713374826447,186.0243739310946,0,0,0,0,0,0,0,0
1.14798,411.05809624518577,7.6186958218402685,184.4537542357735,0,0,0,0,0,0,0,0
1.148,411.0059747158564,7.505487937078033,182.87585262208484,0,0,0,0,0,0,0,0
1.14802,410.9503024300464,7.545847086830254,181.29073138285395,0,0,0,0,0,0,0,0
1.14804,410.8948454726762,7.534060991231582,179.6984530959819,0,0,0,0,0,0,0,0
1.14806,410.8389071206959,7.4699038324859375,178.0990806218747,0,0,0,0,0,0,0,0
1.14808,410.78178798690976,7.353162172157964,176.4926771010045,0,0,0,0,0,0,0,0
1.1481,410.7227861863112,7.183634996007156,174.8793059514608,0,0,0,0,0,0,0,0
1.14812,410.65900189382086,7.166440111054624,173.25903086634483,0,0,0,0,0,0,0,0
1.14814,410.594354749169,7.164464149245316,171.6319158113719,0,0,0,0,0,0,0,0
1.1481599999999998,410.52937063441607,7.109050236582407,169.9980250222437,0,0,0,0,0,0,0,0
1.14818,410.463368384338,6.999993424559614,168.35742300215605,0,0,0,0,0,0,0,0
1.1482,410.3956645582924,6.837100510101664,166.71017451929723,0,0,0,0,0,0,0,0
1.14822,410.32348927514727,6.825330167987185,165.05634460418702,0,0,0,0,0,0,0,0
1.14824,410.25055196592615,6.827678257459125,163.39599854722852,0,0,0,0,0,0,0,0
1.14826,410.17734421938366,6.775552476781055,161.72920189599597,0,0,0,0,0,0,0,0
1.14828,410.1032047937181,6.668757828949285,160.05602045284266,0,0,0,0,0,0,0,0
1.1483,410.0274704012902,6.5071103828132655,158.37652027204658,0,0,0,0,0,0,0,0
1.14832,409.9479531862439,6.427071209504092,156.69076765738373,0,0,0,0,0,0,0,0
1.14834,409.86646147027255,6.428413456674273,154.99882915954183,0,0,0,0,0,0,0,0
1.14836,409.78470024384416,6.374294437581046,153.30077157330985,0,0,0,0,0,0,0,0
1.14838,409.70203002799,6.264530242767777,151.5966619351245,0,0,0,0,0,0,0,0
1.1484,409.61780952822016,6.098947349937712,149.88656752030107,0,0,0,0,0,0,0,0
1.14842,409.5296972732675,6.08212983477914,148.17055584042336,0,0,0,0,0,0,0,0
1.14844,409.4407025579046,6.077333831630206,146.44869464072522,0,0,0,0,0,0,0,0
1.14846,409.3513848706884,6.0161223390311145,144.7210518973074,0,0,0,0,0,0,0,0
1.14848,409.2611280724964,5.8983234000987,142.98769581457847,0,0,0,0,0,0,0,0
1.1485,409.1693144348536,5.723774774152481,141.24869482245293,0,0,0,0,0,0,0,0
1.14852,409.0733423456182,5.765019784953262,139.5041175736966,0,0,0,0,0,0,0,0
1.14854,408.977540208944,5.7491037414098205,137.75403294126355,0,0,0,0,0,0,0,0
1.14856,408.8813182739804,5.675858223862,135.9985100154668,0,0,0,0,0,0,0,0
1.14858,408.7840853247218,5.545123847536307,134.23761810137728,0,0,0,0,0,0,0,0
1.1485999999999998,408.6846582989335,5.424858678396769,132.47142671597678,0,0,0,0,0,0,0,0
1.14862,408.5828189027919,5.382969046240679,130.70000558546093,0,0,0,0,0,0,0,0
1.14864,408.4799588107249,5.35114485511104,128.92342464253488,0,0,0,0,0,0,0,0
1.14866,408.3765500451484,5.261129799938538,127.1417540235401,0,0,0,0,0,0,0,0
1.14868,408.27202793716987,5.1127774666274455,125.35506406581416,0,0,0,0,0,0,0,0
1.1487,408.165050026003,5.0419976262831545,123.56342530478496,0,0,0,0,0,0,0,0
1.14872,408.0565336738933,4.980550706561236,121.76690847131542,0,0,0,0,0,0,0,0
1.14874,407.9468942162173,4.928255943760719,119.96558448879784,0,0,0,0,0,0,0,0
1.14876,407.8365556462229,4.8169565533519485,118.15952447040226,0,0,0,0,0,0,0,0
1.14878,407.72423499185095,4.782420773127658,116.34879971631848,0,0,0,0,0,0,0,0
1.1488,407.6113942118768,4.688553891005292,114.53348171082656,0,0,0,0,0,0,0,0
1.14882,407.49661143595046,4.671049553366928,112.71364211960584,0,0,0,0,0,0,0,0
1.14884,407.38147328300255,4.593893562142608,110.88935278679097,0,0,0,0,0,0,0,0
1.14886,407.2654733101273,4.45695880406418,109.06068573218452,0,0,0,0,0,0,0,0
1.14888,407.14741637880286,4.395835447543239,107.22771314846372,0,0,0,0,0,0,0,0
1.1489,407.0286597374047,4.274629806930952,105.39050739819784,0,0,0,0,0,0,0,0
1.14892,406.90791071462695,4.228854110122254,103.54914101119056,0,0,0,0,0,0,0,0
1.14894,406.7861452806484,4.190491998770616,101.70368668141742,0,0,0,0,0,0,0,0
1.14896,406.6636902674552,4.159377657828087,99.85421726418856,0,0,0,0,0,0,0,0
1.14898,406.5408174004999,4.067585747353394,98.0008057734734,0,0,0,0,0,0,0,0
1.149,406.4165621640439,3.982737842223991,96.14352537873376,0,0,0,0,0,0,0,0
1.14902,406.2912476769749,3.904677699981849,94.28244940225304,0,0,0,0,0,0,0,0
1.1490399999999998,406.164764004273,3.8332425161673376,92.4176513161074,0,0,0,0,0,0,0,0
1.14906,406.0374146774767,3.7682778613341297,90.54920473931529,0,0,0,0,0,0,0,0
1.14908,405.909448306942,3.6419749167537256,88.67718343498201,0,0,0,0,0,0,0,0
1.1491,405.7799956387235,3.521863665761828,86.80166130726946,0,0,0,0,0,0,0,0
1.14912,405.64878622983537,3.5430109063324227,84.92271239861371,0,0,0,0,0,0,0,0
1.14914,405.5175656099632,3.502391328367165,83.04041088666642,0,0,0,0,0,0,0,0
1.14916,405.3859404998952,3.399912148954161,81.15483108150232,0,0,0,0,0,0,0,0
1.14918,405.2535171957185,3.235485842547374,79.26604742256649,0,0,0,0,0,0,0,0
1.1492,405.1190024632351,3.2115831377582333,77.37413447578653,0,0,0,0,0,0,0,0
1.14922,404.9840080082086,3.1929520762359926,75.47916693068031,0,0,0,0,0,0,0,0
1.14924,404.84877892433457,3.1119745716544687,73.58121959728754,0,0,0,0,0,0,0,0
1.14926,404.71295617681466,2.9685720133076514,71.68036740335349,0,0,0,0,0,0,0,0
1.14928,404.5758620008256,2.830097280920077,69.77668539125082,0,0,0,0,0,0,0,0
1.1493,404.4372227214619,2.831230379629437,67.8702487150685,0,0,0,0,0,0,0,0
1.14932,404.2984809048205,2.769564896856676,65.96113263769664,0,0,0,0,0,0,0,0
1.14934,404.15931296416096,2.64503165684843,64.04941252773449,0,0,0,0,0,0,0,0
1.14936,404.0191098353034,2.5249001144594327,62.13516385665324,0,0,0,0,0,0,0,0
1.1493799999999998,403.8780886973044,2.4090480549973114,60.218462195695366,0,0,0,0,0,0,0,0
1.1494,403.7359852203173,2.364637726116751,58.299383212943184,0,0,0,0,0,0,0,0
1.14942,403.5935906977912,2.2569522325609728,56.37800267038367,0,0,0,0,0,0,0,0
1.14944,403.4502641254497,2.220418697049737,54.4543964207785,0,0,0,0,0,0,0,0
1.14946,202.4154213289257,0.1974601777220342,52.52864040489576,1,0,0,0,0,0,0,0
1.14948,75.56621708287382,-0.8260195997828971,50.60081064818096,1,0,0,0,0,0,0,0
1.1495,49.40241535373431,-0.8721028022051766,48.67098325813912,1,0,0,0,0,0,0,0
1.14952,43.06656812961787,-0.7332416457397563,46.73923442103381,1,0,0,0,0,0,0,0
1.14954,40.499869017543205,-0.5714847940877629,44.80564039893151,1,0,0,0,0,0,0,0
1.14956,38.671347613388576,-0.4043620849719996,42.87027752690078,1,0,0,0,0,0,0,0
1.14958,36.6508533667008,-0.2403778623884211,40.93322220970144,1,0,0,0,0,0,0,0
1.1496,35.00417862485992,-0.0886239787945896,38.994550918995685,1,0,0,0,0,0,0,0
1.14962,33.435597144159246,0.0555030507408075,37.054340190189045,1,0,0,0,0,0,0,0
1.14964,31.70035092039779,0.1920690138600077,35.11266661946132,1,0,0,0,0,0,0,0
1.14966,30.05917733312372,0.3191563817598185,33.16960686079555,1,0,0,0,0,0,0,0
1.14968,28.291796253675948,0.4396768458699468,31.225237622828782,1,0,0,0,0,0,0,0
1.1497,26.632327525929565,0.5513143423747373,29.27963566596444,1,0,0,0,0,0,0,0
1.14972,25.074080324687152,0.6506142644234116,27.332877799218785,1,0,0,0,0,0,0,0
1.14974,23.432417841985867,0.7363726922636443,25.38504087724137,1,0,0,0,0,0,0,0
1.14976,21.901802918342625,0.809036987486584,23.436201797333904,1,0,0,0,0,0,0,0
1.14978,20.320008959967712,0.8694711531050519,21.48643749629105,1,0,0,0,0,0,0,0
1.1498,18.5721544680968,0.9202649182632112,19.53582494750416,1,0,0,0,0,0,0,0
1.1498199999999998,16.850002088946876,0.9639595162436944,17.58444115779903,1,0,0,0,0,0,0,0
1.14984,15.175847856637407,1.0011334875999114,15.632363164448725,1,0,0,0,0,0,0,0
1.14986,13.465995858042865,1.028669450368477,13.679668032185242,1,0,0,0,0,0,0,0
1.14988,11.772736242540704,1.0465458520822677,11.726432850033524,1,0,0,0,0,0,0,0
1.1499,10.065012851222193,1.0570301362526116,9.772734728409429,1,0,0,0,0,0,0,0
1.14992,8.352240479051058,1.059181023607101,7.818650795934179,1,0,0,0,0,0,0,0
1.14994,6.577419113882158,1.0554272771738793,5.86425819653086,1,0,0,0,0,0,0,0
1.14996,4.806848240034407,1.0457236708120146,3.9096340862551626,1,0,0,0,0,0,0,0
1.14998,3.024521183465323,1.031451563481933,1.9548556303024207,1,0,0,0,0,0,0,0
1.15,1.2311012130365235,1.0133149526394374,1.4329843462771996e-11,1,0,0,0,0,0,0,0
1.15002,0.4430133213533652,0.9886406916276488,-1.954855630309133,1,0,0,0,0,0,0,0
1.15004,0.0915445468359542,0.8941357336329118,-3.9096340862265047,1,0,0,0,0,0,0,0
1.15006,0.0142159562495306,0.7315445787211455,-5.864258196502205,1,0,0,0,0,0,0,0
1.15008,0.0027776616363908,0.5033500585218714,-7.818650795940888,1,0,0,0,0,0,0,0
1.1501,0.0013165719717612,0.2100906018114405,-9.77273472839846,1,0,0,0,0,0,0,0
1.15012,0.0007387043396964,-0.1482407113222513,-11.726432850040233,1,0,0,0,0,0,0,0
1.15014,0.0043050291110894,-0.5715981905271957,-13.67966803217428,1,0,0,0,0,0,0,0
1.1501599999999998,0.0089514640878629,-1.0599146740756442,-15.632363164437765,1,0,0,0,0,0,0,0
1.15018,0.0142678814022515,-1.6131447221192314,-17.584441157788074,1,0,0,0,0,0,0,0
1.1502,0.0202340653297619,-2.231244628609625,-19.535824947493204,1,0,0,0,0,0,0,0
1.15022,0.0268486081303887,-2.914168340928288,-21.486437496297743,1,0,0,0,0,0,0,0
1.15024,0.0341109861787573,-3.66186726454188,-23.43620179732296,1,0,0,0,0,0,0,0
1.1502599999999998,0.042020694280621,-4.474290255395784,-25.38504087723044,1,0,0,0,0,0,0,0
1.15028,0.0505772038803051,-5.351383621470715,-27.332877799207846,1,0,0,0,0,0,0,0
1.1503,0.0597799610620577,-6.293091124877876,-29.27963566595352,1,0,0,0,0,0,0,0
1.15032,0.0696283864743539,-7.2993539840756,-31.22523762283546,1,0,0,0,0,0,0,0
1.15034,0.0801218753480329,-8.370110876187576,-33.16960686078464,1,0,0,0,0,0,0,0
1.15036,0.0912597975199215,-9.505297939421254,-35.112666619467994,1,0,0,0,0,0,0,0
1.15038,0.1030414974576764,-10.704848775586695,-37.05434019017815,1,0,0,0,0,0,0,0
1.1504,0.1154662942856397,-11.96869445271536,-38.994550918984814,1,0,0,0,0,0,0,0
1.15042,0.1285334818116948,-13.296763507779165,-40.93322220970808,1,0,0,0,0,0,0,0
