Time / s,Vo:Measured voltage,IL:Measured current,Vin:Measured voltage,short1:Output,short2:Output,short3:Output,short4:Output,open1:Output,open3:Output,open2:Output,open4:Output
1.1366956671639916,410.5532694267712,-11.17029983773735,-268.78988695808744,0,0,0,0,0,0,0,0
1.1367,410.6207555687663,-11.079336412896524,-267.80007062456053,0,0,0,0,0,0,0,0
1.13672,410.6860498313497,-10.9537531415691,-266.7996820028106,0,0,0,0,0,0,0,0
1.13674,410.747042217472,-10.861700340303372,-265.78876058645864,0,0,0,0,0,0,0,0
1.13676,410.8039146079319,-10.871387166757923,-264.7673462849144,0,0,0,0,0,0,0,0
1.13678,410.8612763402229,-10.84563169997262,-263.7354794219115,0,0,0,0,0,0,0,0
1.1368,410.9165767028302,-10.852559338891462,-262.6932007337592,0,0,0,0,0,0,0,0
1.13682,410.9716391088714,-10.823394203918074,-261.64055136785424,0,0,0,0,0,0,0,0
1.13684,411.0257605736249,-10.75780821158031,-260.57757288098173,0,0,0,0,0,0,0,0
1.13686,411.07823217672313,-10.655489769709748,-259.50430723770245,0,0,0,0,0,0,0,0
1.13688,411.1283393854909,-10.516143912202349,-258.4207968087257,0,0,0,0,0,0,0,0
1.1369,411.1727927600601,-10.545039407851482,-257.3270843691684,0,0,0,0,0,0,0,0
1.13692,411.21741839428375,-10.536377892162514,-256.2232130969446,0,0,0,0,0,0,0,0
1.1369399999999998,411.2603554042928,-10.558360139236983,-255.1092265709923,0,0,0,0,0,0,0,0
1.13696,411.30332869943146,-10.54215209897659,-253.98516876958172,0,0,0,0,0,0,0,0
1.13698,411.3456178045336,-10.487430343081384,-252.8510840686108,0,0,0,0,0,0,0,0
1.137,411.38649659653305,-10.393887917694723,-251.70701723978075,0,0,0,0,0,0,0,0
1.13702,411.4252336172482,-10.261234467969008,-250.553013448912,0,0,0,0,0,0,0,0
1.13704,411.4600028964495,-10.15776039574757,-249.38911825407712,0,0,0,0,0,0,0,0
1.13706,411.4899557342618,-10.220358506847846,-248.2153776038868,0,0,0,0,0,0,0,0
1.13708,411.520670556108,-10.243054819620887,-247.0318378356016,0,0,0,0,0,0,0,0
1.1371,411.5514186935423,-10.225520853576445,-245.8385456733341,0,0,0,0,0,0,0,0
1.13712,411.58146593032825,-10.167444364176855,-244.63554822623723,0,0,0,0,0,0,0,0
1.13714,411.61007280077246,-10.068529461442775,-243.42289298656863,0,0,0,0,0,0,0,0
1.13716,411.6364948900416,-9.928496722494678,-242.20062782790268,0,0,0,0,0,0,0,0
1.13718,411.6589366031766,-9.815681048198917,-240.9688010031641,0,0,0,0,0,0,0,0
1.1372,411.67653794522175,-9.867044088522718,-239.72746114275537,0,0,0,0,0,0,0,0
1.13722,411.6946649352258,-9.876520349300035,-238.47665725267112,0,0,0,0,0,0,0,0
1.13724,411.71257853867706,-9.843798043399266,-237.21643871248463,0,0,0,0,0,0,0,0
1.13726,411.7295346629084,-9.768581415758918,-235.9468552734888,0,0,0,0,0,0,0,0
1.1372799999999998,411.74478444166806,-9.650590848535067,-234.6679570566526,0,0,0,0,0,0,0,0
1.1373,411.7575745213832,-9.489562960650613,-233.3797945506644,0,0,0,0,0,0,0,0
1.13732,411.7657515464157,-9.422484321736867,-232.08241861003253,0,0,0,0,0,0,0,0
1.13734,411.7704727847841,-9.449110973389866,-230.77588045286743,0,0,0,0,0,0,0,0
1.13736,411.775269930756,-9.431943578091968,-229.46023165911728,0,0,0,0,0,0,0,0
1.13738,411.77939741482896,-9.370691291070584,-228.13552416830808,0,0,0,0,0,0,0,0
1.1374,411.7821051487556,-9.265079006233796,-226.80181027764732,0,0,0,0,0,0,0,0
1.13742,411.78263879506767,-9.11484744757824,-225.45914263986384,0,0,0,0,0,0,0,0
1.13744,411.7777010300816,-9.125609043544593,-224.10757426116456,0,0,0,0,0,0,0,0
1.13746,411.7719101337573,-9.15988185722624,-222.74715849917936,0,0,0,0,0,0,0,0
1.13748,411.76630798026014,-9.148760313137355,-221.3779490607685,0,0,0,0,0,0,0,0
1.1375,411.7601494744192,-9.091962472298423,-220.00000000000088,0,0,0,0,0,0,0,0
1.13752,411.75268531574295,-8.989221695286702,-218.61336571593367,0,0,0,0,0,0,0,0
1.13754,411.7431622510041,-8.840286724773472,-217.2181009505015,0,0,0,0,0,0,0,0
1.13756,411.7295430387948,-8.78214574795566,-215.81426078639336,0,0,0,0,0,0,0,0
1.13758,411.7128063572305,-8.814547640559274,-214.40190064478983,0,0,0,0,0,0,0,0
1.1376,411.6962136549497,-8.800015886684603,-212.9810762832765,0,0,0,0,0,0,0,0
1.13762,411.6790232921669,-8.738280736323082,-211.5518437935536,0,0,0,0,0,0,0,0
1.13764,411.66048977684153,-8.629087245521209,-210.11425959925955,0,0,0,0,0,0,0,0
1.13766,411.63986399998896,-8.47219534976775,-208.6683804537828,0,0,0,0,0,0,0,0
1.13768,411.6140442676653,-8.473157171204202,-207.21426343793007,0,0,0,0,0,0,0,0
1.1377,411.5872549987441,-8.494541534455088,-205.75196595777768,0,0,0,0,0,0,0,0
1.1377199999999998,411.560429546556,-8.467493241949752,-204.2815457423131,0,0,0,0,0,0,0,0
1.13774,411.53283226594937,-8.391757323875487,-202.8030608411953,0,0,0,0,0,0,0,0
1.13776,411.5037240360923,-8.267093082048008,-201.3165696225034,0,0,0,0,0,0,0,0
1.13778,411.4723624784813,-8.093274154214189,-199.82213077033845,0,0,0,0,0,0,0,0
1.1378,411.43517761832095,-8.144343224665663,-198.3198032826145,0,0,0,0,0,0,0,0
1.13782,411.3983850062105,-8.145790253326739,-196.80964646860755,0,0,0,0,0,0,0,0
1.13784,411.3612609867749,-8.097363386819186,-195.2917199467912,0,0,0,0,0,0,0,0
1.13786,411.3230786153431,-7.998824411704979,-193.76608364225072,0,0,0,0,0,0,0,0
1.13788,411.28310785798607,-7.849948813331491,-192.2327977844809,0,0,0,0,0,0,0,0
1.1379,411.2398252210816,-7.719057072368826,-190.69192290503764,0,0,0,0,0,0,0,0
1.13792,411.1923983379151,-7.74297787736756,-189.1435198349809,0,0,0,0,0,0,0,0
1.13794,411.1449633184356,-7.715887164174222,-187.5876497026408,0,0,0,0,0,0,0,0
1.13796,411.096807571008,-7.63755184049058,-186.0243739310919,0,0,0,0,0,0,0,0
1.13798,411.0472156163103,-7.507751855896791,-184.4537542357708,0,0,0,0,0,0,0,0
1.138,410.9947171807141,-7.394771152425891,-182.8758526220821,0,0,0,0,0,0,0,0
1.13802,410.9384821489282,-7.43535400812355,-181.2907313828512,0,0,0,0,0,0,0,0
1.13804,410.8824576128496,-7.423799594941562,-179.69845309597915,0,0,0,0,0,0,0,0
1.1380599999999998,410.82594692217504,-7.359882162717454,-178.0990806218719,0,0,0,0,0,0,0,0
1.13808,410.7682507636407,-7.2433883395668,-176.49267710100173,0,0,0,0,0,0,0,0
1.1381,410.70866732734567,-7.074117176699965,-174.879305951458,0,0,0,0,0,0,0,0
1.13812,410.6450059152029,-7.057183654936191,-173.25903086634202,0,0,0,0,0,0,0,0
1.13814,410.5798339843125,-7.055459484984338,-171.6319158113691,0,0,0,0,0,0,0,0
1.1381599999999998,410.51432024188017,-7.000304428978035,-169.9980250222409,0,0,0,0,0,0,0,0
1.13818,410.4477835808885,-6.891513603298372,-168.35742300215327,0,0,0,0,0,0,0,0
1.1382,410.3795406200272,-6.72889386892756,-166.7101745192944,0,0,0,0,0,0,0,0
1.13822,410.3065656915636,-6.785774626165565,-165.05634460418418,0,0,0,0,0,0,0,0
1.13824,410.2339740130959,-6.788382584762127,-163.39599854722567,0,0,0,0,0,0,0,0
1.13826,410.16110643315614,-6.736511788489009,-161.72920189600825,0,0,0,0,0,0,0,0
1.13828,410.08730162096,-6.6299673137446575,-160.0560204528398,0,0,0,0,0,0,0,0
1.1383,410.0118962011471,-6.468565303949164,-158.3765202720437,0,0,0,0,0,0,0,0
1.13832,409.9327139617381,-6.388761352142898,-156.69076765739612,0,0,0,0,0,0,0,0
1.13834,409.85156293045833,-6.390328629983308,-154.99882915955422,0,0,0,0,0,0,0,0
1.13836,409.77013621570455,-6.33643006466046,-153.30077157332232,0,0,0,0,0,0,0,0
1.13838,409.687794257978,-6.226881825435231,-151.596661935137,0,0,0,0,0,0,0,0
1.1384,409.6038956835382,-6.0615104697291375,-149.88656752031363,0,0,0,0,0,0,0,0
1.13842,409.5159273918039,-6.0448914965770655,-148.17055584043595,0,0,0,0,0,0,0,0
1.13844,409.4272644216664,-6.040290628124698,-146.44869464073787,0,0,0,0,0,0,0,0
1.13846,409.3382717039995,-5.979270041639524,-144.72105189730445,0,0,0,0,0,0,0,0
1.13848,409.2483330276425,-5.861657862041102,-142.9876958145755,0,0,0,0,0,0,0,0
1.1384999999999998,409.1568305933511,-5.687291931295992,-141.24869482246572,0,0,0,0,0,0,0,0
1.13852,409.0613977720177,-5.660532704428503,-139.50411757369358,0,0,0,0,0,0,0,0
1.13854,408.96521266448457,-5.644798922855244,-137.75403294126053,0,0,0,0,0,0,0,0
1.13856,408.8686009087553,-5.5717397671110085,-135.99851001546375,0,0,0,0,0,0,0,0
1.13858,408.77097130683774,-5.441195928298,-134.23761810137424,0,0,0,0,0,0,0,0
1.1386,408.67098879882735,-5.3211210648919645,-132.47142671595773,0,0,0,0,0,0,0,0
1.13862,408.5686198282904,-5.279423689740991,-130.7000055854579,0,0,0,0,0,0,0,0
1.13864,408.465405730136,-5.247795936064983,-128.9234246425318,0,0,0,0,0,0,0,0
1.13866,408.36163599113945,-5.157980856769914,-127.14175402353705,0,0,0,0,0,0,0,0
1.13868,408.2560339998856,-5.077867194118781,-125.35506406581108,0,0,0,0,0,0,0,0
1.1387,408.1490374939343,-5.007274274250987,-123.56342530478187,0,0,0,0,0,0,0,0
1.13872,408.0406594085866,-4.946013495269806,-121.76690847131232,0,0,0,0,0,0,0,0
1.13874,407.93131150824576,-4.893901703295442,-119.96558448879472,0,0,0,0,0,0,0,0
1.13876,407.82125689028254,-4.782782143345696,-118.15952447039916,0,0,0,0,0,0,0,0
1.13878,407.7089269813741,-4.748414394723844,-116.34879971631536,0,0,0,0,0,0,0,0
1.1388,407.5960738148871,-4.654715444110722,-114.53348171082344,0,0,0,0,0,0,0,0
1.13882,407.4817355750533,-4.569464601656051,-112.71364211960272,0,0,0,0,0,0,0,0
1.13884,407.366295215668,-4.49248899551132,-110.88935278678782,0,0,0,0,0,0,0,0
1.13886,407.24936029569767,-4.423605468787466,-109.06068573218135,0,0,0,0,0,0,0,0
1.13888,407.13129911915934,-4.362645713055022,-107.22771314846057,0,0,0,0,0,0,0,0
1.1389,407.0125349082226,-4.24160353222904,-105.3905073982113,0,0,0,0,0,0,0,0
1.13892,406.89204902473216,-4.195988798100549,-103.54914101120406,0,0,0,0,0,0,0,0
1.1389399999999998,406.77041464568737,-4.157780520855094,-101.70368668141424,0,0,0,0,0,0,0,0
1.13896,406.64796205453575,-4.126814600044035,-99.8542172642021,0,0,0,0,0,0,0,0
1.13898,406.5250880304332,-4.035170923986184,-98.000805773487,0,0,0,0,0,0,0,0
1.139,406.4013327137933,-3.8827399199814585,-96.14352537873056,0,0,0,0,0,0,0,0
1.13902,406.2752158776977,-3.8725472041666618,-94.28244940226672,0,0,0,0,0,0,0,0
1.13904,406.14853668752,-3.8689443882986287,-92.41765131608732,0,0,0,0,0,0,0,0
1.13906,406.0216633972103,-3.8041010166077127,-90.54920473931206,0,0,0,0,0,0,0,0
1.13908,405.8941689689236,-3.677915557891676,-88.6771834349788,0,0,0,0,0,0,0,0
1.1391,405.7656258392529,-3.490292243396408,-86.80166130726623,0,0,0,0,0,0,0,0
1.13912,405.634428452361,-3.5115552826258174,-84.92271239861049,0,0,0,0,0,0,0,0
1.13914,405.5032158167495,-3.471051281088914,-83.04041088666318,0,0,0,0,0,0,0,0
1.13916,405.3715946452088,-3.368687484004851,-81.15483108149908,0,0,0,0,0,0,0,0
1.13918,405.23917122620185,-3.204376394009222,-79.26604742256323,0,0,0,0,0,0,0,0
1.1392,405.1045674681593,-3.180579992315069,-77.37413447578326,0,0,0,0,0,0,0,0
1.13922,404.9695841886224,-3.162054573990992,-75.47916693067705,0,0,0,0,0,0,0,0
1.13924,404.8343620774649,-3.0811825150706817,-73.5812195972843,0,0,0,0,0,0,0,0
1.13926,404.69854209313576,-2.9378852313621486,-71.68036740335023,0,0,0,0,0,0,0,0
1.1392799999999998,404.56136258228565,-2.7995115680033886,-69.77668539124755,0,0,0,0,0,0,0,0
1.1393,404.422823531944,-2.7333354824292218,-67.87024871506523,0,0,0,0,0,0,0,0
1.13932,404.2837437945856,-2.671784600370768,-65.96113263769337,0,0,0,0,0,0,0,0
1.13934,404.1442338176322,-2.54736775386656,-64.04941252773122,0,0,0,0,0,0,0,0
1.13936,404.0034192456328,-2.4946835110172865,-62.135163856649946,0,0,0,0,0,0,0,0
1.13938,403.86224974143846,-2.3789252735556228,-60.218462195674725,0,0,0,0,0,0,0,0
1.1394,403.7201575512262,-2.3346069101655784,-58.29938321293989,0,0,0,0,0,0,0,0
1.13942,403.577438031729,-2.294272610180036,-56.37800267038036,0,0,0,0,0,0,0,0
1.13944,403.4342687648313,-2.257804281930795,-54.45439642079262,0,0,0,0,0,0,0,0
1.13946,403.29086443286593,-2.157867810569396,-52.52864040489245,0,0,0,0,0,0,0,0
1.13948,403.14676907219285,-2.0616031128301566,-50.60081064819512,0,0,0,0,0,0,0,0
1.1395,403.0021539176376,-1.9688991120674,-48.67098325815328,0,0,0,0,0,0,0,0
1.13952,402.856663894053,-1.9467813024854124,-46.739234421030496,0,0,0,0,0,0,0,0
1.13954,402.71103253398,-1.8608389045538407,-44.80564039894569,0,0,0,0,0,0,0,0
1.13956,402.5650277710001,-1.7110314415123813,-42.870277526914975,0,0,0,0,0,0,0,0
1.13958,402.41800127376086,-1.6985304715538698,-40.93322220969812,0,0,0,0,0,0,0,0
1.1396,402.27074346734025,-1.6890068598704435,-38.99455091900992,0,0,0,0,0,0,0,0
1.13962,402.123415402816,-1.6153383961646244,-37.05434019020328,0,0,0,0,0,0,0,0
1.13964,401.9758227187922,-1.4774948484629356,-35.11266661945799,0,0,0,0,0,0,0,0
1.13966,401.8275764894586,-1.3424184015730136,-33.169606860792214,0,0,0,0,0,0,0,0
1.13968,401.6786635795674,-1.3439141846193516,-31.22523762282545,0,0,0,0,0,0,0,0
1.1397,296.56212945226423,-0.2457387243506872,-29.279635665961106,0,1,0,0,0,0,0,0
1.1397199999999998,78.72562592171262,1.7955233234224803,-27.33287779921544,0,1,0,0,0,0,0,0
1.13974,33.14828814651178,2.0845927964127204,-25.38504087723803,0,1,0,0,0,0,0,0
1.13976,23.16064185440442,2.062808541030993,-23.43620179733056,0,1,0,0,0,0,0,0
1.13978,19.993210203922523,1.992186281374139,-21.486437496287703,0,1,0,0,0,0,0,0
1.1398,17.784895230825484,1.9112424000433497,-19.535824947500807,0,1,0,0,0,0,0,0
1.13982,15.937206397489453,1.8331508835194827,-17.584441157778027,0,1,0,0,0,0,0,0
1.13984,14.17041726813933,1.7616553049473638,-15.632363164445376,0,1,0,0,0,0,0,0
1.13986,12.500662281878755,1.6980410590445432,-13.679668032181892,0,1,0,0,0,0,0,0
1.13988,10.775883709613648,1.6429128401713484,-11.726432850030172,0,1,0,0,0,0,0,0
1.1399,9.144518779221093,1.5978885285427735,-9.772734728406071,0,1,0,0,0,0,0,0
1.13992,7.466101335249969,1.561457797131405,-7.818650795930826,0,1,0,0,0,0,0,0
1.13994,5.8181802238846325,1.5347862374418313,-5.864258196527506,0,1,0,0,0,0,0,0
1.13996,4.16382208588414,1.5186996755924251,-3.909634086251809,0,1,0,0,0,0,0,0
1.13998,2.532731209706632,1.5133161691704988,-1.954855630299068,0,1,0,0,0,0,0,0
1.14,0.8870511430532882,1.5191620501316088,-1.09757061235575e-11,0,1,0,0,0,0,0,0
1.14002,0.2466860184021219,1.5443398947267175,1.9548556302948017,0,1,0,0,0,0,0,0
1.14004,0.066661788645733,1.6395732437072246,3.9096340862298575,0,1,0,0,0,0,0,0
1.14006,0.0281796344747538,1.8014771757027384,5.864258196505559,0,1,0,0,0,0,0,0
1.14008,0.0213061330068914,2.028814328766229,7.818650795926561,0,1,0,0,0,0,0,0
1.1401,0.0223099922809998,2.321293376064239,9.772734728384137,0,1,0,0,0,0,0,0
1.14012,0.0255737270633145,2.678818469002844,11.72643285002591,0,1,0,0,0,0,0,0
1.14014,0.0295793241327898,3.1013374984770965,13.679668032159965,0,1,0,0,0,0,0,0
1.1401599999999998,0.0342389519626325,3.588811126534095,15.632363164423452,0,1,0,0,0,0,0,0
1.14018,0.039547985676684,4.141198373697785,17.584441157791424,0,1,0,0,0,0,0,0
1.1402,0.0455057948588909,4.758455749261396,19.5358249474789,0,1,0,0,0,0,0,0
1.14022,0.0521119177153212,5.440537210918016,21.486437496301093,0,1,0,0,0,0,0,0
1.14024,0.0593658763077738,6.187394164543302,23.436201797326305,0,1,0,0,0,0,0,0
1.14026,0.067267167647747,6.998975466013335,25.3850408772514,0,1,0,0,0,0,0,0
1.14028,0.0758152632852113,7.875227423216499,27.33287779921119,0,1,0,0,0,0,0,0
1.1403,0.0850096093086275,8.816093798170574,29.279635665956853,0,1,0,0,0,0,0,0
1.14032,0.0948496263657851,9.821515809240456,31.2252376228388,0,1,0,0,0,0,0,0
1.14034,0.1053347096866007,10.891432133456377,33.169606860787965,0,1,0,0,0,0,0,0
1.14036,0.1164642291069677,12.025778908932375,35.11266661947132,0,1,0,0,0,0,0,0
1.14038,0.1282375290936091,13.224489737385165,37.054340190181485,0,1,0,0,0,0,0,0
1.1404,0.1406539287699347,14.487495686752943,38.99455091898814,0,1,0,0,0,0,0,0
1.14042,0.1537127219428938,15.814725293914222,40.93322220971142,0,1,0,0,0,0,0,0
1.14044,0.1674131771308341,17.206104567506927,42.87027752689323,0,1,0,0,0,0,0,0
1.14046,0.1817545375923511,18.66155699084672,44.80564039894148,0,1,0,0,0,0,0,0
1.14048,0.1967360213561447,20.181003524945712,46.7392344210088,0,1,0,0,0,0,0,0
1.1404999999999998,0.2123568212518603,21.76436261163,48.67098325813159,0,1,0,0,0,0,0,0
1.14052,0.2286161049419333,23.411550176757373,50.60081064819089,0,1,0,0,0,0,0,0
1.14054,0.2455130149544254,25.12247963353389,52.52864040487081,0,1,0,0,0,0,0,0
1.14056,0.2630466687168495,26.89706188592968,54.45439642078842,0,1,0,0,0,0,0,0
1.14058,0.2812161585909902,28.735205332194056,56.378002670358775,0,1,0,0,0,0,0,0
1.1406,0.3000205519087121,30.636815868469423,58.2993832129357,0,1,0,0,0,0,0,0
1.14062,0.3194588910087536,32.60179689250374,60.21846219567056,0,1,0,0,0,0,0,0
1.14064,0.3395301932745121,34.630049307462095,62.135163856628445,0,1,0,0,0,0,0,0
1.14066,0.3602334511728116,36.72147152583632,64.04941252772704,0,1,0,0,0,0,0,0
