"Time / s","Vo:Measured voltage","IL:Measured current","Vin:Measured voltage","open1:Output","open3:Output","open2:Output","open4:Output","short1:Output","short2:Output","short3:Output","short4:Output"
1.1110346183643363,392.06982648100507,-4.0492885423932892,-98.00080577345895,0,0,0,0,0,0,0,0
1.11104,391.95228112313464,-4.0791146376847145,-99.854217264190893,0,0,0,0,0,0,0,0
1.1110599999999999,391.83524716885466,-4.1716181352609167,-101.7036866813863,0,0,0,0,0,0,0,0
1.1110799999999998,391.71981389942806,-4.2613645510120444,-103.54914101117616,0,0,0,0,0,0,0,0
1.1111,391.6057295605641,-4.3482411150777693,-105.39050739820013,0,0,0,0,0,0,0,0
1.1111199999999999,391.49322843568831,-4.3668908287195265,-107.2277131484328,0,0,0,0,0,0,0,0
1.11114,391.38118024962625,-4.4477092014192232,-109.06068573218678,0,0,0,0,0,0,0,0
1.1111599999999999,391.27074272772535,-4.5253276985889528,-110.88935278676018,0,0,0,0,0,0,0,0
1.1111800000000001,391.16163634268793,-4.5996210667021318,-112.71364211960812,0,0,0,0,0,0,0,0
1.1112,391.0539333502972,-4.6704680963142877,-114.53348171082882,0,0,0,0,0,0,0,0
1.1112199999999999,390.94733495643419,-4.7377402146454886,-116.34879971630434,0,0,0,0,0,0,0,0
1.11124,390.84164128442558,-4.8664499692250098,-118.15952447040452,0,0,0,0,0,0,0,0
1.1112599999999999,390.73850820952134,-4.9261826739681558,-119.96558448878375,0,0,0,0,0,0,0,0
1.11128,390.6362414396296,-5.0470451410314174,-121.76690847131768,0,0,0,0,0,0,0,0
1.1113,390.53611935794578,-5.0986814449236153,-123.5634253047872,0,0,0,0,0,0,0,0
1.1113199999999999,390.43754146713144,-5.1460676550031215,-125.35506406580021,0,0,0,0,0,0,0,0
1.11134,390.34016825201024,-5.1890541582835601,-127.14175402354233,0,0,0,0,0,0,0,0
1.1113599999999999,390.24354819148647,-5.2925321923369877,-128.92342464252101,0,0,0,0,0,0,0,0
1.11138,390.14881021824544,-5.3912891102617246,-130.70000558546315,0,0,0,0,0,0,0,0
1.1113999999999999,390.05637381454591,-5.4201630769641698,-132.47142671596296,0,0,0,0,0,0,0,0
1.1114199999999999,389.9650097005333,-5.4440240298248712,-134.23761810136352,0,0,0,0,0,0,0,0
1.11144,389.87424006117783,-5.5276908497752339,-135.99851001546898,0,0,0,0,0,0,0,0
1.1114599999999999,389.78467969027724,-5.6709623695185725,-137.75403294124985,0,0,0,0,0,0,0,0
1.11148,389.69776516132663,-5.7437384841677002,-139.50411757369878,0,0,0,0,0,0,0,0
1.1114999999999999,389.61324613893845,-5.7458879055857839,-141.24869482243938,0,0,0,0,0,0,0,0
1.1115199999999998,389.52911049922534,-5.8071030765268414,-142.98769581456492,0,0,0,0,0,0,0,0
1.11154,389.44600118477518,-5.9271759371475534,-144.72105189730956,0,0,0,0,0,0,0,0
1.1115599999999999,389.36517442560984,-6.0410007542388522,-146.44869464071178,0,0,0,0,0,0,0,0
1.11158,389.28754893692388,-6.0186366756219831,-148.17055584042549,0,0,0,0,0,0,0,0
1.1115999999999999,389.21003643910291,-6.0545526239219871,-149.88656752028771,0,0,0,0,0,0,0,0
1.1116200000000001,389.13330662653505,-6.1485347869191793,-151.59666193512663,0,0,0,0,0,0,0,0
1.11164,389.05802641666639,-6.3003586780598413,-153.30077157331198,0,0,0,0,0,0,0,0
1.1116599999999999,388.98641435514651,-6.3801439868642058,-154.99882915952861,0,0,0,0,0,0,0,0
1.11168,388.91688646004394,-6.3877022389351081,-156.69076765738583,0,0,0,0,0,0,0,0
1.1116999999999999,388.84782851372393,-6.4524730795414413,-158.37652027201827,0,0,0,0,0,0,0,0
1.11172,388.77993229404717,-6.5742269013410981,-160.05602045284476,0,0,0,0,0,0,0,0
1.11174,388.71457660770631,-6.6879444261299996,-161.72920189599807,0,0,0,0,0,0,0,0
1.1117599999999999,388.65273730750823,-6.6638671201333048,-163.39599854720052,0,0,0,0,0,0,0,0
1.11178,388.59097847700593,-6.6961077177119117,-165.05634460418909,0,0,0,0,0,0,0,0
1.1117999999999999,388.53001523388122,-6.7844331034843854,-166.71017451928441,0,0,0,0,0,0,0,0
1.11182,388.47055938123879,-6.9285980390453465,-168.35742300215813,0,0,0,0,0,0,0,0
1.1118399999999999,388.41502256523864,-6.9988923432752461,-169.99802502223096,0,0,0,0,0,0,0,0
1.1118599999999998,388.36162752875134,-6.9950895345076596,-171.63191581135919,0,0,0,0,0,0,0,0
1.11188,388.3085743428685,-7.0464141931521347,-173.25903086634685,0,0,0,0,0,0,0,0
1.1118999999999999,388.25659611639475,-7.1526187277319524,-174.8793059514482,0,0,0,0,0,0,0,0
1.11192,388.20642229422407,-7.3134427318852326,-176.49267710100651,0,0,0,0,0,0,0,0
1.1119399999999999,388.1608988810446,-7.3345592104616371,-178.09908062186219,0,0,0,0,0,0,0,0
1.1119600000000001,388.11662127202101,-7.3451040795959113,-179.69845309598389,0,0,0,0,0,0,0,0
1.11198,388.07288737804242,-7.4095123784326606,-181.29073138285594,0,0,0,0,0,0,0,0
1.1119999999999999,388.030445850013,-7.5275228313753679,-182.8758526220725,0,0,0,0,0,0,0,0
1.11202,387.99108884942405,-7.634206973023935,-184.45375423577548,0,0,0,0,0,0,0,0
1.1120399999999999,387.95535221749412,-7.5999857478952464,-186.02437393108238,0,0,0,0,0,0,0,0
1.11206,387.91951984464004,-7.6185713236795234,-187.58764970264542,0,0,0,0,0,0,0,0
1.11208,387.88435783097538,-7.6897041397447934,-189.14351983498554,0,0,0,0,0,0,0,0
1.1120999999999999,387.85062810802651,-7.813110404839966,-190.69192290502824,0,0,0,0,0,0,0,0
1.11212,387.81908823394286,-7.988502177677737,-192.23279778448548,0,0,0,0,0,0,0,0
1.1121399999999999,387.79342038510981,-7.9570870535892126,-193.76608364222758,0,0,0,0,0,0,0,0
1.11216,387.76767996632327,-7.9770846740476822,-195.29171994678197,0,0,0,0,0,0,0,0
1.1121799999999999,387.74264379415717,-8.048225232162558,-196.80964646861204,0,0,0,0,0,0,0,0
1.1121999999999999,387.71908419091358,-8.1702240548645761,-198.31980328259175,0,0,0,0,0,0,0,0
1.11222,387.69889426453324,-8.2781775901455283,-199.82213077032932,0,0,0,0,0,0,0,0
1.1122399999999999,387.68263157471335,-8.2425654925207983,-201.31656962248084,0,0,0,0,0,0,0,0
1.11226,387.66621156968756,-8.2569219173700734,-202.80306084118629,0,0,0,0,0,0,0,0
1.1122799999999999,387.6504193539804,-8.3209689069321886,-204.2815457422908,0,0,0,0,0,0,0,0
1.1122999999999998,387.63603523351748,-8.4344130310405987,-205.75196595775549,0,0,0,0,0,0,0,0
1.11232,387.62383447445063,-8.5969454854338938,-207.21426343793439,0,0,0,0,0,0,0,0
1.1123399999999999,387.61709317232845,-8.6144668293175659,-208.66838045376088,0,0,0,0,0,0,0,0
1.11236,387.61167110342518,-8.6158378233711073,-210.11425959926385,0,0,0,0,0,0,0,0
1.1123799999999999,387.60667113165829,-8.6653578764766692,-211.55184379354492,0,0,0,0,0,0,0,0
1.1124000000000001,387.60287839407954,-8.7627275109838454,-212.98107628328074,0,0,0,0,0,0,0,0
1.11242,387.60107270022718,-8.9076313251860171,-214.40190064479404,0,0,0,0,0,0,0,0
1.1124399999999999,387.60486629838135,-8.9059704322636435,-215.81426078638481,0,0,0,0,0,0,0,0
1.11246,387.6094330243161,-8.8865791002340515,-217.21810095050566,0,0,0,0,0,0,0,0
1.1124799999999999,387.61406757497139,-8.9137545480376321,-218.61336571592528,0,0,0,0,0,0,0,0
1.1125,387.61955743950256,-8.987194577207525,-220.00000000000503,0,0,0,0,0,0,0,0
1.11252,387.62668454188156,-9.1065805561019069,-221.37794906077261,0,0,0,0,0,0,0,0
1.1125399999999999,387.63622496520526,-9.2715775401584821,-222.74715849917109,0,0,0,0,0,0,0,0
1.11256,387.65233513795897,-9.2234468801786136,-224.10757426116862,0,0,0,0,0,0,0,0
1.1125799999999999,387.66799121651462,-9.2202139927579001,-225.45914263985566,0,0,0,0,0,0,0,0
1.1126,387.68397969774406,-9.2615779767395008,-226.80181027765133,0,0,0,0,0,0,0,0
1.1126199999999999,387.70108134447747,-9.3472210508867271,-228.13552416831203,0,0,0,0,0,0,0,0
1.1126399999999999,387.72007089216885,-9.4768086816823676,-229.46023165910924,0,0,0,0,0,0,0,0
1.11266,387.7427577149308,-9.5853780556064443,-230.77588045287132,0,0,0,0,0,0,0,0
1.1126799999999999,387.76949724541373,-9.6079384208946639,-232.08241861001287,0,0,0,0,0,0,0,0
1.1127,387.79771680998573,-9.608732841708127,-233.37979455066818,0,0,0,0,0,0,0,0
1.1127199999999999,387.82632971432275,-9.652049824560434,-234.66795705663318,0,0,0,0,0,0,0,0
1.1127399999999998,387.85610581539959,-9.7375601819655877,-235.94685527346954,0,0,0,0,0,0,0,0
1.11276,387.88780853990329,-9.8649177490559854,-237.21643871247693,0,0,0,0,0,0,0,0
1.1127799999999999,387.92376692227469,-9.9044763644071683,-238.47665725265213,0,0,0,0,0,0,0,0
1.1128,387.9621417226686,-9.9204909911567132,-239.72746114274776,0,0,0,0,0,0,0,0
1.1128199999999999,388.00189180262112,-9.9125892736863488,-240.96880100314539,0,0,0,0,0,0,0,0
1.1128400000000001,388.04186067955851,-9.9450832090103241,-242.20062782789523,0,0,0,0,0,0,0,0
1.11286,388.08280393421109,-10.017637447163015,-243.42289298656127,0,0,0,0,0,0,0,0
1.1128799999999999,388.12547040072207,-10.129899520843177,-244.63554822621896,0,0,0,0,0,0,0,0
1.1129,388.17172364444258,-10.216817896814067,-245.83854567333765,0,0,0,0,0,0,0,0
1.1129199999999999,388.22183444039865,-10.213298887329223,-247.03183783558362,0,0,0,0,0,0,0,0
1.11294,388.27295172282879,-10.183629586007184,-248.21537760389032,0,0,0,0,0,0,0,0
1.1129599999999999,388.32384739287414,-10.192162949072797,-249.38911825408061,0,0,0,0,0,0,0,0
1.1129799999999999,388.37525905493789,-10.238563848706876,-250.55301344890486,0,0,0,0,0,0,0,0
1.113,388.42791736914512,-10.322479998157577,-251.70701723978411,0,0,0,0,0,0,0,0
1.1130199999999999,388.48254572286589,-10.443542118430013,-252.8510840686038,0,0,0,0,0,0,0,0
1.11304,388.54102224502054,-10.536620982342468,-253.98516876958513,0,0,0,0,0,0,0,0
1.1130599999999999,388.60218193842957,-10.601289897544316,-255.1092265709855,0,0,0,0,0,0,0,0
1.1130799999999998,388.66709175848882,-10.572381760179132,-256.22321309693785,0,0,0,0,0,0,0,0
1.1131,388.73175674777127,-10.579015358769107,-257.32708436917164,0,0,0,0,0,0,0,0
1.1131199999999999,388.79688426716388,-10.62084637352824,-258.4207968087191,0,0,0,0,0,0,0,0
1.11314,388.86317435534636,-10.697513596689243,-259.50430723770563,0,0,0,0,0,0,0,0
1.1131599999999999,388.93131939565734,-10.808639112564181,-260.5775728809752,0,0,0,0,0,0,0,0
1.1131800000000001,389.00375303448965,-10.824189025826495,-261.64055136785737,0,0,0,0,0,0,0,0
1.1132,389.0768177440068,-10.873372558896165,-262.69320073376235,0,0,0,0,0,0,0,0
1.1132199999999999,389.15261763624466,-10.890976525902714,-263.73547942190527,0,0,0,0,0,0,0,0
1.11324,389.22984276138862,-10.876576144907339,-264.76734628491738,0,0,0,0,0,0,0,0
1.1132599999999999,389.30707871210632,-10.894647806556518,-265.78876058644323,0,0,0,0,0,0,0,0
1.11328,389.38499077752255,-10.944831173763331,-266.7996820028136,0,0,0,0,0,0,0,0
1.1133,389.46423640287566,-11.02674961990501,-267.80007062456355,0,0,0,0,0,0,0,0
1.1133199999999999,389.54546485890825,-11.140010425933825,-268.78988695807249,0,0,0,0,0,0,0,0
1.11334,389.63113143152265,-11.154357722703557,-269.76909192709525,0,0,0,0,0,0,0,0
1.1133599999999999,389.71738552713754,-11.199188922867457,-270.7376468742786,0,0,0,0,0,0,0,0
1.11338,389.80486024450022,-11.274124446742459,-271.69551356274917,0,0,0,0,0,0,0,0
1.1133999999999999,389.89643261609757,-11.248834446806658,-272.64265417755286,0,0,0,0,0,0,0,0
1.1134199999999999,389.98774628170105,-11.252805176512961,-273.57903132720872,0,0,0,0,0,0,0,0
1.11344,390.07941806041345,-11.285673152441696,-274.50460804515848,0,0,0,0,0,0,0,0
1.1134599999999999,390.17205666429817,-11.347059404683446,-275.41934779120146,0,0,0,0,0,0,0,0
1.11348,390.26626237520981,-11.436569685557597,-276.32321445300352,0,0,0,0,0,0,0,0
1.1134999999999999,390.36449288148503,-11.423704105926813,-277.21617234741564,0,0,0,0,0,0,0,0
1.1135199999999998,390.46270392095198,-11.438098060425514,-278.09818622202187,0,0,0,0,0,0,0,0
1.11354,390.56147787391149,-11.479377101984291,-278.96922125643215,0,0,0,0,0,0,0,0
1.1135599999999999,390.66138868574131,-11.547151983177013,-279.82924306364328,0,0,0,0,0,0,0,0
1.11358,390.76300155406312,-11.641018875449204,-280.67821769149032,0,0,0,0,0,0,0,0
1.1135999999999999,390.86918788732032,-11.630302078667624,-281.51611162389344,0,0,0,0,0,0,0,0
1.1136200000000001,390.97537689750624,-11.644782413302542,-282.34289178224986,0,0,0,0,0,0,0,0
1.11364,391.08211410045749,-11.684079912724435,-283.1585255266798,0,0,0,0,0,0,0,0
1.1136599999999999,391.18993636327389,-11.74780057655679,-283.9629806573671,0,0,0,0,0,0,0,0
1.11368,391.3006963096966,-11.770335580279452,-284.75622541580776,0,0,0,0,0,0,0,0
1.1136999999999999,391.41277133147003,-11.75121826640288,-285.53822848604261,0,0,0,0,0,0,0,0
1.11372,391.52463836590556,-11.755257061690719,-286.30895899594361,0,0,0,0,0,0,0,0
1.11374,391.6368054562119,-11.782072500470193,-287.06838651837603,0,0,0,0,0,0,0,0
1.1137599999999999,391.7497719138014,-11.831271888278039,-287.81648107244848,0,0,0,0,0,0,0,0
1.11378,391.86402803156869,-11.902449533907255,-288.55321312467578,0,0,0,0,0,0,0,0
1.1137999999999999,391.98005480248912,-11.995186988384427,-289.27855359012443,0,0,0,0,0,0,0,0
1.11382,392.09987883336345,-12.043720848625865,-289.99247383360813,0,0,0,0,0,0,0,0
1.1138399999999999,392.2217923819004,-12.047551465196067,-290.69494567076504,0,0,0,0,0,0,0,0
1.1138599999999999,392.3439738693865,-12.07159587713195,-291.38594136921648,0,0,0,0,0,0,0,0
1.11388,392.46687194532296,-12.11545719392717,-292.06543364964153,0,0,0,0,0,0,0,0
1.1138999999999999,392.59155890057917,-12.113311808710852,-292.73339568683605,0,0,0,0,0,0,0,0
1.11392,392.71636488534602,-12.130141707751978,-293.38980111081474,0,0,0,0,0,0,0,0
1.1139399999999999,392.84308067219496,-12.10009385447081,-294.03462400780347,0,0,0,0,0,0,0,0
1.1139599999999998,392.96927291208146,-12.088187991718685,-294.66783892130434,0,0,0,0,0,0,0,0
1.11398,393.09534972899701,-12.094043240877669,-295.28942085308245,0,0,0,0,0,0,0,0
1.1139999999999999,393.22171031352877,-12.117267837960119,-295.89934526413617,0,0,0,0,0,0,0,0
1.11402,393.34874468163775,-12.1574593761923,-296.49758807570515,0,0,0,0,0,0,0,0
1.1140399999999999,393.4768334387004,-12.214204944145914,-297.08412567017672,0,0,0,0,0,0,1,0
1.1140600000000001,393.60634754426462,-12.287081413335988,-297.65893489206672,0,0,0,0,0,0,1,0
1.11408,393.73764809789316,-12.375656258811855,-298.2219930488705,0,0,0,0,0,0,1,0
1.1140999999999999,393.87108612018596,-12.479487045450108,-298.77327791202168,0,0,0,0,0,0,1,0
1.11412,394.00946292098672,-12.466820643059743,-299.31276771775748,0,0,0,0,0,0,1,0
1.1141399999999999,394.14766149012451,-12.468438232514075,-299.84044116791961,0,0,0,0,0,0,1,0
1.11416,394.28600625258792,-12.483944844979733,-300.35627743087821,0,0,0,0,0,0,1,0
1.1141799999999999,394.42622849700189,-12.44721593719443,-300.86025614229152,0,0,0,0,0,0,1,0
1.1141999999999999,394.56569924069839,-12.423525374115483,-301.35235740594766,0,0,0,0,0,0,1,0
1.11422,394.70330714349654,-12.478258554610894,-301.83256179453571,0,0,0,0,0,0,1,0
1.1142399999999999,394.84292236052039,-12.479503293371366,-302.30085035039997,0,0,0,0,0,0,1,0
1.11426,394.98406154403438,-12.426783349913524,-302.75720458631849,0,0,0,0,0,0,1,0
1.1142799999999999,395.12341325633236,-12.451308600789499,-303.20160648619924,0,0,0,0,0,0,1,0
1.1142999999999998,395.26264434568384,-12.4868854052801,-303.63403850582029,0,0,0,0,0,0,1,0
1.11432,395.40418551218266,-12.467228580611755,-304.05448357350974,0,0,0,0,0,0,1,0
1.1143399999999999,395.54533432766715,-12.457760368564955,-304.4629250908086,0,0,0,0,0,0,1,0
1.11436,395.68568174909245,-12.524016434653522,-304.85934693315261,0,0,0,0,0,0,1,0
1.1143799999999999,395.82827453720125,-12.533728472583187,-305.24373345047889,0,0,0,0,0,0,1,0
1.1144000000000001,395.97114526311231,-12.552388521800607,-305.61606946787293,0,0,0,0,0,0,1,0
1.11442,396.11449776259593,-12.57958421110402,-305.97634028613965,0,0,0,0,0,0,1,0
1.1144399999999999,396.25852610870396,-12.614897612332731,-306.32453168240733,0,0,0,0,0,0,1,0
1.11446,396.40341448895623,-12.657905508835636,-306.66062991067889,0,0,0,0,0,0,1,0
1.1144799999999999,396.5493370888704,-12.708179667008428,-306.9846217023657,0,0,0,0,0,0,1,0
1.1145,396.69645798190658,-12.765287110734825,-307.29649426683244,0,0,0,0,0,0,1,0
1.11452,396.84493102588732,-12.828790398565571,-307.5962352918786,0,0,0,0,0,0,1,0
1.1145399999999999,396.99489976595595,-12.898247903467356,-307.88383294424466,0,0,0,0,0,0,1,0
1.11456,397.14815059870062,-12.907041478089758,-308.15927587007013,0,0,0,0,0,0,1,0
1.1145799999999999,397.30247665158203,-12.854652026485031,-308.42255319533507,0,0,0,0,0,0,1,0
1.1146,397.45470292131313,-12.873068235883865,-308.67365452630617,0,0,0,0,0,0,1,0
1.1146199999999999,397.60821587339422,-12.829461618267157,-308.91256994992824,0,0,0,0,0,0,1,0
1.1146399999999999,397.75983177376776,-12.855917063727194,-309.13929003423186,0,0,0,0,0,0,1,0
1.11466,397.91291082609439,-12.819498694351896,-309.35380582870005,0,0,0,0,0,0,1,0
1.1146799999999999,398.06425536975843,-12.852388175306354,-309.55610886460698,0,0,0,0,0,0,1,0
1.1147,398.21720359575954,-12.82154363230401,-309.74619115538621,0,0,0,0,0,0,1,0
1.1147199999999999,398.36775734006841,-12.859243279172151,-309.92404519690564,0,0,0,0,0,0,1,0
1.1147399999999998,398.5208014197986,-12.832362867391263,-310.08966396779579,0,0,0,0,0,0,1,0
1.11476,398.67316915580119,-12.806830714280931,-310.24304092971238,0,0,0,0,0,0,1,0
1.1147799999999999,398.8240395031454,-12.848709130114148,-310.38417002759297,0,0,0,0,0,0,1,0
1.1148,398.97669852863817,-12.824696378762589,-310.51304568990486,0,0,0,0,0,0,1,0
1.1148199999999999,399.12710001334523,-12.867318833322278,-310.62966282885532,0,0,0,0,0,0,1,0
1.1148400000000001,399.28008457040988,-12.843195342961453,-310.73401684060144,0,0,0,0,0,0,1,0
1.11486,399.43243376542705,-12.818378301177674,-310.82610360542361,0,0,0,0,0,0,1,0
1.1148799999999999,399.5832786257028,-12.859055452344021,-310.90591948789512,0,0,0,0,0,0,1,0
1.1149,399.73585922238419,-12.83167218390312,-310.97346133702212,0,0,0,0,0,0,1,0
1.1149199999999999,399.88686395219224,-12.8690105031617,-311.02872648636679,0,0,0,0,0,0,1,0
1.11494,400.03951676099939,-12.837416606299509,-311.07171275415669,0,0,0,0,0,0,1,0
1.11496,400.19048464042135,-12.86977615290856,-311.10241844336679,0,0,0,0,0,0,1,0
1.1149799999999999,400.34133410756885,-12.899042384936392,-311.12084234178951,0,0,0,0,0,0,1,0
1.115,400.49441625626264,-12.858080794537438,-311.12698372208092,0,0,0,0,0,0,1,0
1.1150199999999999,400.64557586268643,-12.879912853611781,-311.12084234178968,0,0,0,0,0,0,1,0
1.115034618364336,400.64557586268643,-12.879912853611781,-311.12084234178968,0,0,0,0,0,0,1,0
