"Time / s","Vo:Measured voltage","IL:Measured current","Vin:Measured voltage","open1:Output","open3:Output","open2:Output","open4:Output","short1:Output","short2:Output","short3:Output","short4:Output"
1.1215810538739817,389.31214681176829,6.1044569537809874,148.17055584043811,0,0,0,0,0,0,0,0
1.1215999999999999,389.23484545832605,6.1400169092702095,149.88656752028479,0,0,0,0,0,0,0,0
1.1216199999999998,389.15831398499648,6.2336403048464781,151.59666193510824,0,0,0,0,0,0,0,0
1.12164,389.08321931323809,6.3851028175599245,153.30077157332443,0,0,0,0,0,0,0,0
1.1216599999999999,389.01226716987588,6.3996854202359179,154.99882915952568,0,0,0,0,0,0,0,0
1.12168,388.94216401805403,6.4068714683387071,156.69076765739823,0,0,0,0,0,0,0,0
1.1216999999999999,388.87251808268792,6.4712776707849144,158.3765202720306,0,0,0,0,0,0,0,0
1.1217200000000001,388.8040212706988,6.5926745885648561,160.05602045284186,0,0,0,0,0,0,0,0
1.12174,388.73825888292521,6.7060411879471022,161.72920189601032,0,0,0,0,0,0,0,0
1.1217599999999999,388.67549187539692,6.7463778883534626,163.39599854721271,0,0,0,0,0,0,0,0
1.12178,388.61392973500716,6.7782527640815209,165.05634460418625,0,0,0,0,0,0,0,0
1.1217999999999999,388.55315011373085,6.866209567724999,166.71017451928157,0,0,0,0,0,0,0,0
1.12182,388.4938648175974,7.0100032453996617,168.35742300215529,0,0,0,0,0,0,0,0
1.1218399999999999,388.43826649835398,7.0799138754377768,169.99802502222812,0,0,0,0,0,0,0,0
1.1218599999999999,388.38506462499191,7.0757216158585505,171.63191581135641,0,0,0,0,0,0,0,0
1.12188,388.33219113315869,7.1266538871224947,173.25903086634406,0,0,0,0,0,0,0,0
1.1218999999999999,388.28037913345298,7.2324632969557099,174.87930595144539,0,0,0,0,0,0,0,0
1.12192,388.23035807554157,7.3928896381192013,176.49267710100375,0,0,0,0,0,0,0,0
1.1219399999999999,388.18557429756294,7.3489026837895812,178.09908062185946,0,0,0,0,0,0,0,0
1.1219599999999998,388.14056819277135,7.3590377324417391,179.6984530959667,0,0,0,0,0,0,0,0
1.12198,388.09609243786753,7.4230472772998812,181.29073138285321,0,0,0,0,0,0,0,0
1.1219999999999999,388.05289588058378,7.5406702454164343,182.8758526220698,0,0,0,0,0,0,0,0
1.12202,388.01172335256416,7.7116320696312561,184.45375423577278,0,0,0,0,0,0,0,0
1.1220399999999999,387.97615406929441,7.6770292687844499,186.02437393107968,0,0,0,0,0,0,0,0
1.1220600000000001,387.940475554182,7.6952304822215387,187.58764970264272,0,0,0,0,0,0,0,0
1.12208,387.90545391088375,7.7659763669285873,189.14351983498287,0,0,0,0,0,0,0,0
1.1220999999999999,387.87185107794494,7.8889933491558528,190.69192290502562,0,0,0,0,0,0,0,0
1.12212,387.84042462400026,8.063993704945025,192.23279778448287,0,0,0,0,0,0,0,0
1.1221399999999999,387.81490224683375,8.032170055603121,193.76608364222494,0,0,0,0,0,0,0,0
1.12216,387.78929337065568,8.0517566256835895,195.29171994679311,0,0,0,0,0,0,0,0
1.12218,387.76437481975131,8.1224838422089061,196.80964646860946,0,0,0,0,0,0,0,0
1.1221999999999999,387.74091892797571,8.2440672658287877,198.31980328258916,0,0,0,0,0,0,0,0
1.12222,387.72083498867761,8.3515998200532007,199.82213077034029,0,0,0,0,0,0,0,0
1.1222399999999999,387.70469245381429,8.3155530790554248,201.31656962249176,0,0,0,0,0,0,0,0
1.12226,387.68837822658037,8.3294726869193259,202.80306084119718,0,0,0,0,0,0,0,0
1.1222799999999999,387.67267742509165,8.3930809368196471,204.28154574230163,0,0,0,0,0,0,0,0
1.1222999999999999,387.65837037310757,8.5060846492188578,205.75196595776623,0,0,0,0,0,0,0,0
1.12232,387.64623235884682,8.668175270103859,207.21426343793189,0,0,0,0,0,0,0,0
1.1223399999999999,387.63983378127296,8.6852418741155564,208.66838045377148,0,0,0,0,0,0,0,0
1.12236,387.63448825082162,8.6861478001281469,210.11425959926137,0,0,0,0,0,0,0,0
1.1223799999999999,387.62954994935069,8.7352013301907014,211.55184379354247,0,0,0,0,0,0,0,0
1.1223999999999998,387.62580404009822,8.8321032558692441,212.98107628326542,0,0,0,0,0,0,0,0
1.12242,387.62403036346632,8.9765384441242855,214.40190064479162,0,0,0,0,0,0,0,0
1.1224399999999999,387.62789950284719,8.9743962518954845,215.81426078638239,0,0,0,0,0,0,0,0
1.12246,387.63250980100696,8.9545180527343202,217.21810095050324,0,0,0,0,0,0,0,0
1.1224799999999999,387.63717263592798,8.9812057542528976,218.6133657159229,0,0,0,0,0,0,0,0
1.1225000000000001,387.64267553363948,9.0541574448396389,220.00000000000264,0,0,0,0,0,0,0,0
1.12252,387.64980046011107,9.1730547789349419,221.37794906077025,0,0,0,0,0,0,0,0
1.1225399999999999,387.65932354554224,9.3375630971904435,222.74715849916876,0,0,0,0,0,0,0,0
1.12256,387.67544110670684,9.2889279217638361,224.10757426116629,0,0,0,0,0,0,0,0
1.1225799999999999,387.69108892164621,9.2851903220141043,225.45914263985335,0,0,0,0,0,0,0,0
1.1226,387.70705353729818,9.3260497007193681,226.80181027764905,0,0,0,0,0,0,0,0
1.12262,387.72411577214228,9.4111885795181625,228.13552416830976,0,0,0,0,0,0,0,0
1.1226399999999999,387.74305042283885,9.5402727266017564,229.460231659107,0,0,0,0,0,0,0,0
1.12266,387.7659674766104,9.6483381814109794,230.77588045286907,0,0,0,0,0,0,0,0
1.1226799999999999,387.79294141762131,9.6703791457650183,232.08241861001065,0,0,0,0,0,0,0,0
1.1227,387.82109707107503,9.6706458029288971,233.37979455066599,0,0,0,0,0,0,0,0
1.1227199999999999,387.84963004481932,9.7134362640020182,234.66795705663097,0,0,0,0,0,0,0,0
1.1227399999999998,387.87931027415664,9.7984216628201803,235.94685527346732,0,0,0,0,0,0,0,0
1.12276,387.91090127015167,9.9252561541725317,237.21643871247477,0,0,0,0,0,0,0,0
1.1227799999999999,387.9473509518088,9.9642878976307045,238.47665725264997,0,0,0,0,0,0,0,0
1.1228,387.98530744839189,9.9797590754094845,239.72746114275691,0,0,0,0,0,0,0,0
1.1228199999999999,388.02493384186226,9.9713190770666831,240.96880100315445,0,0,0,0,0,0,0,0
1.1228399999999998,388.06476281552699,10.003277265366233,242.20062782788204,0,0,0,0,0,0,0,0
1.12286,388.10555005526783,10.075298626048779,243.42289298657016,0,0,0,0,0,0,0,0
1.1228799999999999,388.14804450687279,10.187031025241238,244.6355482262278,0,0,0,0,0,0,0,0
1.1229,388.19442850531931,10.273421973632498,245.83854567333557,0,0,0,0,0,0,0,0
1.1229199999999999,388.24467182187277,10.269361776166948,247.03183783559231,0,0,0,0,0,0,0,0
1.12294,388.29560294872118,10.239145360446338,248.21537760388827,0,0,0,0,0,0,0,0
1.12296,388.34629608064938,10.247135573042568,249.38911825407862,0,0,0,0,0,0,0,0
1.1229799999999999,388.39748895820884,10.292997635748906,250.5530134489029,0,0,0,0,0,0,0,0
1.123,388.44991238460466,10.376379608409673,251.70701723978215,0,0,0,0,0,0,0,0
1.1230199999999999,388.50428989715357,10.496912555463327,252.85108406860186,0,0,0,0,0,0,0,0
1.12304,388.5628281769296,10.589466498178847,253.9851687695832,0,0,0,0,0,0,0,0
1.1230599999999999,388.62436410143835,10.653604484236176,255.10922657098359,0,0,0,0,0,0,0,0
1.1230799999999999,388.68900696713263,10.62414830401076,256.22321309693598,0,0,0,0,0,0,0,0
1.1231,388.75338867296625,10.630239740481301,257.32708436916971,0,0,0,0,0,0,0,0
1.1231199999999999,388.81821675846237,10.67153483259227,258.42079680871723,0,0,0,0,0,0,0,0
1.12314,388.88419144822291,10.747672727260129,259.50430723770376,0,0,0,0,0,0,0,0
1.1231599999999999,388.95200531870353,10.858275859275054,260.57757288097338,0,0,0,0,0,0,0,0
1.1231799999999998,389.02476654054982,10.873305169884295,261.640551367846,0,0,0,0,0,0,0,0
1.1232,389.09814546630071,10.921960797255784,262.69320073376053,0,0,0,0,0,0,0,0
1.1232199999999999,389.17282073814772,11.003872678154341,263.73547942190345,0,0,0,0,0,0,0,0
1.12324,389.25101689513372,10.988932492726702,264.76734628491562,0,0,0,0,0,0,0,0
1.1232599999999999,389.32920704792849,11.006442372077515,265.78876058644153,0,0,0,0,0,0,0,0
1.1232800000000001,389.40805609619434,11.056042369545706,266.79968200281183,0,0,0,0,0,0,0,0
1.1233,389.48822110419462,11.137356257627708,267.80007062456184,0,0,0,0,0,0,0,0
1.1233199999999999,389.57193861376459,11.185080421379467,268.78988695807078,0,0,0,0,0,0,0,0
1.12334,389.65784368347278,11.198760582349589,269.76909192710241,0,0,0,0,0,0,0,0
1.1233599999999999,389.74431979381836,11.242919242074649,270.73764687427695,0,0,0,0,0,0,0,0
1.12338,389.83199996790785,11.317177203329599,271.6955135627561,0,0,0,0,0,0,0,0
1.1234,389.92308690894117,11.291195088400745,272.64265417755973,0,0,0,0,0,0,0,0
1.1234199999999999,390.0138960843438,11.294485123637626,273.57903132721549,0,0,0,0,0,0,0,0
1.12344,390.10504462185008,11.326684267854334,274.50460804516524,0,0,0,0,0,0,0,0
1.1234599999999999,390.19714155152445,11.387413986023562,275.41934779120817,0,0,0,0,0,0,0,0
1.12348,390.29078748242802,11.476280457779133,276.32321445300198,0,0,0,0,0,0,0,0
1.1234999999999999,390.38915127205212,11.462777234469737,277.21617234742217,0,0,0,0,0,0,0,0
1.1235199999999999,390.48747962367554,11.476530480895727,278.09818622202829,0,0,0,0,0,0,0,0
1.12354,390.58635488964279,11.51716613057792,278.96922125643061,0,0,0,0,0,0,0,0
1.1235599999999999,390.68635099566575,11.584295317211563,279.8292430636418,0,0,0,0,0,0,0,0
1.12358,390.78803312799454,11.677514593697969,280.6782176914889,0,0,0,0,0,0,0,0
1.1235999999999999,390.89357390835227,11.666139834941466,281.51611162389202,0,0,0,0,0,0,0,0
1.1236199999999998,390.99909929334359,11.679977805922983,282.34289178224105,0,0,0,0,0,0,0,0
1.12364,391.10515520686619,11.71864896970099,283.15852552667843,0,0,0,0,0,0,0,0
1.1236599999999999,391.21227893335708,11.78175974564483,283.96298065736573,0,0,0,0,0,0,0,0
1.12368,391.32268793559263,11.803700794555072,284.75622541580645,0,0,0,0,0,0,0,0
1.1236999999999999,391.43476103730006,11.78399274480981,285.53822848604131,0,0,0,0,0,0,0,0
1.1237200000000001,391.54661119711255,11.787440947395027,286.30895899594231,0,0,0,0,0,0,0,0
1.12374,391.65874649973392,11.81366630202918,287.06838651837467,0,0,0,0,0,0,0,0
1.1237599999999999,391.77166630619888,11.862276478502286,287.81648107244723,0,0,0,0,0,0,0,0
1.12378,391.88586096712322,11.932866148525449,288.55321312467453,0,0,0,0,0,0,0,0
1.1237999999999999,392.00181154126267,12.025017224511643,289.27855359012324,0,0,0,0,0,0,0,0
1.12382,392.12118327289949,12.07296080019143,289.99247383360688,0,0,0,0,0,0,0,0
1.12384,392.24226716389239,12.07621098095659,290.6949456707639,0,0,0,0,0,0,0,0
1.1238599999999999,392.36360307506487,12.099695525616415,291.38594136921535,0,0,0,0,0,0,0,0
1.12388,392.48564018551099,12.143017930362564,292.0654336496404,0,0,0,0,0,0,0,0
1.1238999999999999,392.61056309281918,12.140353899125518,292.73339568683491,0,0,0,0,0,0,0,0
1.12392,392.73559239897617,12.156659388819516,293.38980111081952,0,0,0,0,0,0,0,0
1.1239399999999999,392.86215182834991,12.126077441248157,294.03462400780234,0,0,0,0,0,0,0,0
1.1239599999999998,392.9871778250664,12.179124316199038,294.66783892130326,0,0,0,0,0,0,0,0
1.12398,393.11455968073949,12.184454677178568,295.28942085308699,0,0,0,0,0,0,0,0
1.1239999999999999,393.24221102635136,12.207121874278341,295.89934526414061,0,0,0,0,0,0,0,0
1.12402,393.37052117823953,12.246723871167466,296.49758807570947,0,0,0,0,0,0,0,0
1.1240399999999999,393.49987005150581,12.30284825463505,297.08412567018098,0,0,0,0,0,0,0,0
1.1240600000000001,393.63062793066291,12.375072488742129,297.6589348920657,0,0,0,0,0,0,0,0
1.12408,393.76315524619952,12.46296417464338,298.22199304886954,0,0,0,0,0,0,0,0
1.1240999999999999,393.89903388358772,12.500447388041113,298.77327791202572,0,0,0,0,0,0,0,0
1.12412,394.03636057851992,12.487021780211601,299.31276771775663,0,0,0,0,0,0,0,0
1.1241399999999999,394.17348963879192,12.487906965884164,299.84044116791875,0,0,0,0,0,0,0,0
1.12416,394.31074617922678,12.502708459736219,300.3562774308773,0,0,0,0,0,0,0,0
1.12418,394.4484460067095,12.53102300299502,300.86025614229061,0,0,0,0,0,0,0,0
1.1241999999999999,394.58793963437756,12.506689978088353,301.3523574059468,0,0,0,0,0,0,0,0
1.12422,394.72772372408747,12.495016859739655,301.83256179453491,0,0,0,0,0,0,0,0
1.1242399999999999,394.86732628373142,12.495590813744851,302.30085035039917,0,0,0,0,0,0,0,0
1.12426,395.00626248954296,12.508010555386662,302.7572045863177,0,0,0,0,0,0,0,0
1.1242799999999999,395.14556576017981,12.531894468127826,303.20160648619844,0,0,0,0,0,0,0,0
1.1242999999999999,395.28730018370265,12.500968842285705,303.63403850581955,0,0,0,0,0,0,0,0
1.12432,395.42838293169251,12.48063083604611,304.05448357350906,0,0,0,0,0,0,0,0
1.1243399999999999,395.56802693602378,12.536405735234247,304.46292509080797,0,0,0,0,0,0,0,0
1.12436,395.71006358066165,12.536076835901978,304.85934693315193,0,0,0,0,0,0,0,0
1.1243799999999999,395.85214809740381,12.545115315869252,305.2437334504782,0,0,0,0,0,0,0,0
1.1243999999999998,395.99449429640879,12.563115049114817,305.61606946786901,0,0,0,0,0,0,0,0
1.12442,396.13730636387993,12.58966407850677,305.97634028613902,0,0,0,0,0,0,0,0
1.1244399999999999,396.28077873275663,12.624344880794741,306.32453168240676,0,0,0,0,0,0,0,0
1.12446,396.42509595968056,12.666734634838903,306.66062991067838,0,0,0,0,0,0,0,0
1.1244799999999999,396.57043260830102,12.716405492913591,306.98462170236513,0,0,0,0,0,0,0,0
1.1245000000000001,396.71695313898647,12.77292485492087,307.29649426683471,0,0,0,0,0,0,0,0
1.12452,396.86481180500522,12.835855645347809,307.59623529188076,0,0,0,0,0,0,0,0
1.1245399999999999,397.0141525552429,12.904756592800007,307.88383294424415,0,0,0,0,0,0,0,0
1.12456,397.16510894350245,12.979182511941991,308.15927587007212,0,0,0,0,0,0,0,0
1.1245799999999999,397.31830240413893,12.992485323256094,308.422553195337,0,0,0,0,0,0,0,0
1.1246,22.669375317024549,23.210603926519322,308.67365452630793,0,0,0,0,0,1,0,0
1.12462,1.0948996448594199,33.503716855857768,308.91256994992995,0,0,0,0,0,1,0,0
1.1246399999999999,0.052919685088390525,43.804612642213101,309.13929003423351,0,0,0,0,0,1,0,0
1.12466,0.0026046332374896424,54.112863131282332,309.35380582869971,0,0,0,0,0,1,0,0
1.1246799999999999,0.00018436408986467718,64.428060332664387,309.5561088646084,0,0,0,0,0,1,0,0
1.1247,7.7291817886851591e-05,74.749796969599814,309.74619115538593,0,0,0,0,0,1,0,0
1.1247199999999999,8.5077323606389432e-05,85.077665586201604,309.92404519690535,0,0,0,0,0,1,0,0
1.1247399999999999,9.5410916101680161e-05,95.411258392831968,310.0896639677955,0,0,0,0,0,1,0,0
1.12476,0.00010574982487886481,105.75016746795671,310.24304092971215,0,0,0,0,0,1,0,0
1.1247799999999999,0.00011609364177522559,116.09398464884629,310.38417002759275,0,0,0,0,0,1,0,0
1.1248,0.00012644195843427983,126.44230157900674,310.51304568990463,0,0,0,0,0,1,0,0
1.1248199999999999,0.00013679436632190183,136.79470972430175,310.62966282885509,0,0,0,0,0,1,0,0
1.1248399999999998,0.00014715045674245224,147.15080038908178,310.73401684060036,0,0,0,0,0,1,0,0
1.12486,0.00015750982085491069,157.51016473231681,310.82610360542344,0,0,0,0,0,1,0,0
1.1248799999999999,0.00016787204968901718,167.87239378373761,310.90591948789501,0,0,0,0,0,1,0,0
1.1249,0.00017823673416141747,178.23707845998155,310.973461337022,0,0,0,0,0,1,0,0
1.1249199999999999,0.00018860346509181274,188.60380958074165,311.02872648636668,0,0,0,0,0,1,0,0
1.1249400000000001,0.00019897183321911506,198.97217788492247,311.07171275415658,0,0,0,0,0,1,0,0
1.12496,0.00020934142921760049,209.34177404679315,311.10241844336673,0,0,0,0,0,1,0,0
1.1249799999999999,0.00021971184371307224,219.71218869215045,311.12084234178951,0,0,0,0,0,1,0,0
1.125,0.00023008266729902016,230.08301241447822,311.12698372208092,0,0,0,0,0,1,0,0
1.1250199999999999,0.00024045349055278384,240.45383579111072,311.12084234178968,0,0,0,0,0,1,0,0
1.12504,0.00025082390405171631,250.82424939939605,311.1024184433669,0,0,0,0,0,1,0,0
1.1250599999999999,0.00026119349838934721,261.19384383285978,311.07171275415686,0,0,0,0,0,1,0,0
1.1250799999999999,0.00027156186419154436,271.56220971736559,311.02872648636742,0,0,0,0,0,1,0,0
1.1251,0.00028192859213267484,281.92893772727757,310.97346133702183,0,0,0,0,0,1,0,0
1.1251199999999999,0.00029229327295177089,292.29361860162516,310.90591948789614,0,0,0,0,0,1,0,0
1.12514,0.00030265549746867675,302.65584316025041,310.82610360542321,0,0,0,0,0,1,0,0
1.1251599999999999,0.00031301485660020903,313.01520231996824,310.73401684060093,0,0,0,0,0,1,0,0
1.1251799999999998,0.00032337094137630337,323.3712871107133,310.62966282885577,0,0,0,0,0,1,0,0
1.1252,0.00033372334295616348,333.72368869168861,310.51304568990429,0,0,0,0,0,1,0,0
1.1252199999999999,0.00034407165264439734,344.0719983675022,310.38417002759354,0,0,0,0,0,1,0,0
1.12524,0.00035441546190715729,354.41580760430685,310.2430409297117,0,0,0,0,0,1,0,0
1.1252599999999999,0.00036475436238825987,364.75470804591998,310.08966396779647,0,0,0,0,0,1,0,0
1.1252800000000001,0.00037508794592531537,375.08829152995384,309.92404519690484,0,0,0,0,0,1,0,0
1.1253,0.00038541580456583573,385.41615010392201,309.74619115538536,0,0,0,0,0,1,0,0
1.1253199999999999,0.00039573753058334474,395.73787604135111,309.55610886460966,0,0,0,0,0,1,0,0
1.12534,0.00040605271649346895,406.05306185787094,309.35380582869908,0,0,0,0,0,1,0,0
1.1253599999999999,0.0004163609550700292,416.36130032730591,309.13929003423482,0,0,0,0,0,1,0,0
1.12538,0.00042666183936111322,426.66218449774806,308.91256994992926,0,0,0,0,0,1,0,0
1.1254,0.00043695496270514583,436.95530770762684,308.67365452630725,0,0,0,0,0,1,0,0
1.1254199999999999,0.00044723991874693779,447.24026360175844,308.42255319533854,0,0,0,0,0,1,0,0
1.12544,0.00045751630145373344,457.51664614739292,308.15927587007133,0,0,0,0,0,1,0,0
1.1254599999999999,0.00046778370513123681,467.78404965024077,307.88383294424841,0,0,0,0,0,1,0,0
1.12548,0.00047804172443962793,478.04206877048887,307.59623529187991,0,0,0,0,0,1,0,0
1.1254999999999999,0.0004882899544095665,488.29029853880439,307.29649426683375,0,0,0,0,0,1,0,0
1.1255199999999999,0.00049852799045817849,498.52833437232118,306.98462170236996,0,0,0,0,0,1,0,0
1.12554,0.00050875542840502766,508.75577209061146,306.66062991068037,0,0,0,0,0,1,0,0
1.1255599999999999,0.00051897186448807413,518.97220793164456,306.32453168241193,0,0,0,0,0,1,0,0
1.12558,0.00052917689537961281,529.17723856772488,305.97634028614118,0,0,0,0,0,1,0,0
1.1255810538739814,0.00052917689537961281,529.17723856772488,305.97634028614118,0,0,0,0,0,1,0,0
