Time / s,Vo:Measured voltage,IL:Measured current,Vin:Measured voltage,short1:Output,short2:Output,short3:Output,short4:Output,open1:Output,open3:Output,open2:Output,open4:Output
1.1636256705712011,391.06892164683273,11.703849752857176,282.3428917822428,0,0,0,0,0,0,0,0
1.16364,391.1754535167241,11.740837244891395,283.15852552668014,0,0,0,0,0,0,0,0
1.16366,391.28301617198713,11.802253527678188,283.9629806573675,0,0,0,0,0,0,0,0
1.16368,391.39479335993207,11.757260439684035,284.75622541580816,0,0,0,0,0,0,0,0
1.1637,391.50483463719854,11.801051503752834,285.538228486043,0,0,0,0,0,0,0,0
1.16372,391.6170166435896,11.802789009050072,286.3089589959371,0,0,0,0,0,0,0,0
1.16374,391.7294457473988,11.827296208348043,287.0683865183764,0,0,0,0,0,0,0,0
1.16376,391.8426211693792,11.874181699585996,287.8164810724489,0,0,0,0,0,0,0,0
1.16378,391.9570331404792,11.943041085703468,288.55321312467606,0,0,0,0,0,0,0,0
1.1638,392.07316262045686,12.033457212918456,289.2785535901248,0,0,0,0,0,0,0,0
1.16382,392.1926757897402,12.079650206426598,289.99247383360205,0,0,0,0,0,0,0,0
1.16384,392.31386279558376,12.081135048236488,290.69494567076543,0,0,0,0,0,0,0,0
1.16386,392.43526218052784,12.102852352376791,291.3859413692168,0,0,0,0,0,0,0,0
1.16388,392.557323107011,12.144406593225566,292.0654336496418,0,0,0,0,0,0,0,0
1.1639,392.68223011950863,12.139962507766857,292.7333956868364,0,0,0,0,0,0,0,0
1.1639199999999998,392.8064630136389,12.154485124277612,293.3898011108091,0,0,0,0,0,0,0,0
1.16394,392.9329260770815,12.122132786936234,294.0346240078037,0,0,0,0,0,0,0,0
1.16396,393.0588118570744,12.107929510099057,294.6678389213046,0,0,0,0,0,0,0,0
1.16398,393.18452870330793,12.111495757195163,295.2894208530883,0,0,0,0,0,0,0,0
1.164,393.31047606247023,12.132441100152482,295.89934526413646,0,0,0,0,0,0,0,0
1.16402,393.437044236866,12.170364461223745,296.4975880757108,0,0,0,0,0,0,0,0
1.16404,393.5646141486894,12.224854360788395,297.08412567018223,0,0,0,0,0,0,0,0
1.16406,393.69355711008745,12.295489170985752,297.65893489206184,0,0,0,0,0,0,0,0
1.16408,393.8242345991344,12.3818373750326,298.2219930488708,0,0,0,0,0,0,0,0
1.1641,393.9569980418504,12.483457832074505,298.77327791202686,0,0,0,0,0,0,0,0
1.16412,394.093424036811,12.534233770374192,299.31276771775777,0,0,0,0,0,0,0,0
1.16414,394.2316017964128,12.533656273985583,299.8404411679199,0,0,0,0,0,0,0,0
1.16416,394.3698726581927,12.546969070999308,300.35627743087383,0,0,0,0,0,0,0,0
1.16418,394.5103570223604,12.508037877286526,300.86025614229175,0,0,0,0,0,0,0,0
1.1642,394.64823575757566,12.547894334126877,301.3523574059479,0,0,0,0,0,0,0,0
1.16422,394.788172252463,12.534664886204672,301.83256179453593,0,0,0,0,0,0,0,0
1.16424,394.92788985593694,12.533679203141196,302.30085035040014,0,0,0,0,0,0,0,0
1.16426,395.06766789971607,12.544540839730551,302.75720458631463,0,0,0,0,0,0,0,0
1.16428,395.2095797045285,12.500997307018269,303.2016064861994,0,0,0,0,0,0,0,0
1.1643,395.348751721008,12.534312827369677,303.63403850582046,0,0,0,0,0,0,0,0
1.16432,395.49057057247455,12.512385542672176,304.0544835735099,0,0,0,0,0,0,0,0
1.16434,395.6301400198119,12.56655940290616,304.4629250908088,0,0,0,0,0,0,0,0
1.1643599999999998,395.7728379030045,12.564625450669816,304.85934693314925,0,0,0,0,0,0,0,0
1.16438,395.915545770975,12.5720425150643,305.24373345047906,0,0,0,0,0,0,0,0
1.1644,396.0584770779009,12.588405448344355,305.6160694678698,0,0,0,0,0,0,0,0
1.16442,396.2018356770655,12.613303280420157,305.9763402861398,0,0,0,0,0,0,0,0
1.16444,396.3458156917381,12.646319483254274,306.3245316824075,0,0,0,0,0,0,0,0
1.16446,396.4906013923136,12.687032238491314,306.66062991067906,0,0,0,0,0,0,0,0
1.16448,396.6363670797778,12.735014708157507,306.98462170236587,0,0,0,0,0,0,0,0
1.1645,396.78327697556784,12.789835308266564,307.2964942668298,0,0,0,0,0,0,0,0
1.16452,396.9314851178854,12.851057985165667,307.5962352918787,0,0,0,0,0,0,0,0
1.16454,397.0811352645304,12.91824249445452,307.8838329442448,0,0,0,0,0,0,0,0
1.16456,397.2323608023022,12.990944682308504,308.1592758700727,0,0,0,0,0,0,0,0
1.16458,397.3870526559151,12.936291703784544,308.4225531953375,0,0,0,0,0,0,0,0
1.1646,397.53996712450544,12.952446970577538,308.67365452630406,0,0,0,0,0,0,0,0
1.16462,397.69373584221023,12.90655108384778,308.91256994993046,0,0,0,0,0,0,0,0
1.16464,397.84593080260873,12.930722859385831,309.139290034234,0,0,0,0,0,0,0,0
1.16466,397.99915483697055,12.891995200708108,309.35380582870016,0,0,0,0,0,0,0,0
1.16468,398.15018739737735,12.922587887496144,309.55610886460886,0,0,0,0,0,0,0,0
1.1646999999999998,398.3031699726299,12.889440093370496,309.7461911553846,0,0,0,0,0,0,0,0
1.16472,398.45408405938576,12.9248528529009,309.9240451969057,0,0,0,0,0,0,0,0
1.16474,398.60705209422775,12.895660629594838,310.08966396779584,0,0,0,0,0,0,0,0
1.16476,398.75928847317465,12.867819498334368,310.24304092971244,0,0,0,0,0,0,0,0
1.16478,398.9103550911952,12.907404665777529,310.38417002759303,0,0,0,0,0,0,0,0
1.1648,399.06277267729286,12.881082961758004,310.51304568990486,0,0,0,0,0,0,0,0
1.16482,399.2140458363577,12.92141608620586,310.62966282885526,0,0,0,0,0,0,0,0
1.16484,399.366678824906,12.894968980080105,310.73401684060053,0,0,0,0,0,0,0,0
1.16486,399.5173691081134,12.934408313323129,310.82610360542367,0,0,0,0,0,0,0,0
1.16488,399.67017454057,12.906210628222068,310.9059194878952,0,0,0,0,0,0,0,0
1.1649,399.82098524501134,12.9431282201542,310.97346133702206,0,0,0,0,0,0,0,0
1.16492,399.9738428314872,12.91153788467696,311.0287264863668,0,0,0,0,0,0,0,0
1.16494,400.1246159786805,12.94429504183818,311.07171275415635,0,0,0,0,0,0,0,0
1.16496,400.27732809169896,12.907677754696572,311.10241844336684,0,0,0,0,0,0,0,0
1.16498,400.4286146084216,12.934641702259563,311.1208423417895,0,0,0,0,0,0,0,0
1.165,400.5796510723409,12.958101769068694,311.12698372208087,0,0,0,0,0,0,0,0
1.16502,400.7323942200157,12.910880237429176,311.1208423417897,0,0,0,0,0,0,0,0
1.16504,400.8834481158781,12.926090914009803,311.10241844336707,0,0,0,0,0,0,0,0
1.16506,401.0347473740365,12.936576164302735,311.0717127541568,0,0,0,0,0,0,0,0
1.16508,401.1853907160997,12.941926040730928,311.02872648636736,0,0,0,0,0,0,0,0
1.1651,401.3360387443942,12.941746238116082,310.97346133702223,0,0,0,0,0,0,0,0
1.16512,401.4873420006587,12.935625609211602,310.905919487896,0,0,0,0,0,0,0,0
1.1651399999999998,401.63837051291694,12.92314427401468,310.8261036054246,0,0,0,0,0,0,0,0
1.16516,401.787712496406,12.970851029538029,310.7340168406007,0,0,0,0,0,0,0,0
1.16518,401.9385085953915,12.944465016730462,310.62966282885645,0,0,0,0,0,0,0,0
1.1652,402.089324666924,12.910508431476512,310.513045689904,0,0,0,0,0,0,0,0
1.16522,402.23794041303057,12.935602307466915,310.38417002759326,0,0,0,0,0,0,0,0
1.16524,402.38698932688334,12.952374052151423,310.2430409297114,0,0,0,0,0,0,0,0
1.16526,402.5375299476464,12.893334288581872,310.0896639677961,0,0,0,0,0,0,0,0
1.16528,402.6852727865033,12.89221133184496,309.92404519690604,0,0,0,0,0,0,0,0
1.1653,402.8328236469149,12.881574200648364,309.746191155385,0,0,0,0,0,0,0,0
1.16532,402.9799560018458,12.861023729320056,309.5561088646092,0,0,0,0,0,0,0,0
1.16534,403.1264341698244,12.830166956639712,309.3538058286986,0,0,0,0,0,0,0,0
1.16536,403.27201346605614,12.788617374477154,309.1392900342344,0,0,0,0,0,0,0,0
1.16538,403.4164403592413,12.73599517244951,308.91256994993086,0,0,0,0,0,0,0,0
1.1654,403.5594526339865,12.671927478452202,308.6736545263067,0,0,0,0,0,0,0,0
1.16542,403.70077955872176,12.596048594920626,308.422553195338,0,0,0,0,0,0,0,0
1.16544,403.8373043097402,12.642577706726382,308.1592758700708,0,0,0,0,0,0,0,0
1.16546,403.9747072553802,12.676654571413271,307.88383294424784,0,0,0,0,0,0,0,0
1.1654799999999998,404.1126965009955,12.697856293112183,307.5962352918819,0,0,0,0,0,0,0,0
1.1655,404.2509706155612,12.705767895787972,307.2964942668331,0,0,0,0,0,0,0,0
1.16552,404.3892188205842,12.699982577790548,306.9846217023693,0,0,0,0,0,0,0,0
1.16554,404.52712118474864,12.680101961512367,306.66062991067963,0,0,0,0,0,0,0,0
1.16556,404.66434882417707,12.64573633800752,306.3245316824112,0,0,0,0,0,0,0,0
1.1655799999999998,404.8001075986618,12.663952358462648,305.9763402861436,0,0,0,0,0,0,0,0
1.1656,404.9360588465506,12.666940062568756,305.6160694678738,0,0,0,0,0,0,0,0
1.16562,405.071849563801,12.654297879294642,305.24373345048315,0,0,0,0,0,0,0,0
1.16564,405.20588122990256,12.693152262952722,304.8593469331534,0,0,0,0,0,0,0,0
1.16566,405.3405605277701,12.71563095652776,304.46292509081314,0,0,0,0,0,0,0,0
1.16568,405.47675306576514,12.653759531488134,304.0544835735069,0,0,0,0,0,0,0,0
1.1657,405.6100516416674,12.64225761614382,303.63403850582506,0,0,0,0,0,0,0,0
1.16572,405.7428406651075,12.613215848551906,303.2016064862042,0,0,0,0,0,0,0,0
1.16574,405.874717455832,12.566254180500858,302.75720458631537,0,0,0,0,0,0,0,0
1.16576,406.0052709722996,12.501003343974524,302.30085035040094,0,0,0,0,0,0,0,0
1.16578,406.13408206231605,12.41710507189393,301.83256179453247,0,0,0,0,0,0,0,0
1.1658,406.25793848647953,12.449597473599567,301.35235740594874,0,0,0,0,0,0,0,0
1.16582,406.38226308422566,12.462821024385748,300.8602561422926,0,0,0,0,0,0,0,0
1.16584,406.50661920126015,12.456374992318416,300.3562774308747,0,0,0,0,0,0,0,0
1.16586,406.6305614934333,12.429870213609,299.84044116792074,0,0,0,0,0,0,0,0
1.16588,406.753636191932,12.382929318308218,299.31276771775384,0,0,0,0,0,0,0,0
1.1659,406.8753813733488,12.315186949352189,298.7732779120278,0,0,0,0,0,0,0,0
1.1659199999999998,406.9936741443482,12.361921448366727,298.2219930488717,0,0,0,0,0,0,0,0
1.16594,407.1139339075584,12.319354907939212,297.6589348920628,0,0,0,0,0,0,0,0
1.16596,407.23175283076654,12.322753192817236,297.08412567018325,0,0,0,0,0,0,0,0
1.16598,407.3493583737428,12.303931067913522,296.4975880757064,0,0,0,0,0,0,0,0
1.166,407.4662549927889,12.262511195276954,295.89934526414294,0,0,0,0,0,0,0,0
1.16602,407.5819391292832,12.198129206220434,295.2894208530838,0,0,0,0,0,0,0,0
1.16604,407.69416735016097,12.17836424948595,294.6678389213114,0,0,0,0,0,0,0,0
1.16606,407.8046696968944,12.202937266735384,294.0346240078106,0,0,0,0,0,0,0,0
1.16608,407.9154079831,12.203552562595211,293.38980111081617,0,0,0,0,0,0,0,0
1.1661,408.02585533777153,12.179826526561564,292.7333956868435,0,0,0,0,0,0,0,0
1.16612,408.13547686957446,12.131389181221897,292.065433649643,0,0,0,0,0,0,0,0
1.16614,408.243729969503,12.057884385062692,291.3859413692242,0,0,0,0,0,0,0,0
1.16616,408.34888281312806,12.027013481736956,290.6949456707729,0,0,0,0,0,0,0,0
1.16618,408.45260034038574,12.038485226772506,289.99247383360967,0,0,0,0,0,0,0,0
1.1662,408.5562470256549,12.023895678284964,289.2785535901325,0,0,0,0,0,0,0,0
1.16622,408.6592583013884,11.982874571910743,288.55321312467737,0,0,0,0,0,0,0,0
1.16624,408.7610620039193,11.915066077313597,287.81648107245684,0,0,0,0,0,0,0,0
1.16626,408.8593949777924,11.88825407985168,287.06838651838444,0,0,0,0,0,0,0,0
1.16628,408.955866276162,11.902164467921168,286.30895899594526,0,0,0,0,0,0,0,0
1.1663,409.0523051315564,11.88832047726376,285.53822848605137,0,0,0,0,0,0,0,0
1.16632,409.148119072823,11.846356297489308,284.7562254158024,0,0,0,0,0,0,0,0
1.16634,409.2427082533439,11.775921086695387,283.96298065736886,0,0,0,0,0,0,0,0
1.1663599999999998,409.33546577321766,11.676679153117473,283.15852552668895,0,0,0,0,0,0,0,0
1.16638,409.4246330836984,11.616533522532544,282.34289178224424,0,0,0,0,0,0,0,0
1.1664,409.5117630387204,11.595209866767066,281.5161116238952,0,0,0,0,0,0,0,0
1.16642,409.5964681611492,11.612397727088654,280.6782176914846,0,0,0,0,0,0,0,0
1.16644,409.68118999705297,11.59953543801752,279.8292430636451,0,0,0,0,0,0,0,0
1.16646,409.7643665006029,11.624544572721764,278.9692212564262,0,0,0,0,0,0,0,0
1.16648,409.8477137125692,11.618813290963182,278.0981862220317,0,0,0,0,0,0,0,0
1.1665,409.9305945527459,11.581981694254305,277.21617234742564,0,0,0,0,0,0,0,0
1.16652,410.0123649289544,11.51370559568908,276.32321445299726,0,0,0,0,0,0,0,0
1.16654,410.0923740651377,11.41365668790859,275.4193477912117,0,0,0,0,0,0,0,0
1.16656,410.1699648327043,11.281522703529076,274.50460804516047,0,0,0,0,0,0,0,0
1.16658,410.2429453236473,11.253727164471211,273.5790313272192,0,0,0,0,0,0,0,0
1.1666,410.31342412144346,11.261651665508376,272.64265417756343,0,0,0,0,0,0,0,0
1.16662,410.3828073902957,11.305007948480933,271.6955135627512,0,0,0,0,0,0,0,0
1.16664,410.2991587692835,1.7602080867203558,270.7376468742894,0,0,0,0,1,0,0,0
1.16666,410.1437774781312,1.8439005309786607,269.7690919270974,0,0,0,0,1,0,0,0
1.16668,409.9884555014028,1.9268753509474743,268.7898869580836,0,0,0,0,1,0,0,0
1.1666999999999998,409.8331929401255,2.009122288151039,267.80007062457474,0,0,0,0,1,0,0,0
1.16672,409.6779897305725,2.1351340281717968,266.79968200281576,0,0,0,0,1,0,0,0
1.16674,409.52284577975945,2.176793025111603,265.78876058645466,0,0,0,0,1,0,0,0
1.16676,409.3677606625429,2.1670297248532373,264.76734628491965,0,0,0,0,1,0,0,0
1.16678,409.2127342476289,2.157190241382977,263.73547942191686,0,0,0,0,1,0,0,0
1.1667999999999998,409.0577665124693,2.1472766555659386,262.69320073377406,0,0,0,0,1,0,0,0
1.16682,408.90285749326216,2.208981101260832,261.6405513678597,0,0,0,0,1,0,0,0
1.16684,408.7480071728021,2.200040253975553,260.5775728809872,0,0,0,0,1,0,0,0
1.16686,408.5932154644432,2.1909939106683254,259.50430723769824,0,0,0,0,1,0,0,0
1.16688,408.4384823456597,2.181861049566844,258.42079680873127,0,0,0,0,1,0,0,0
1.1669,408.2838077939528,2.1726420361425625,257.3270843691641,0,0,0,0,1,0,0,0
1.16692,408.1291917868329,2.1633372343537727,256.2232130969403,0,0,0,0,1,0,0,0
1.16694,407.97463430182086,2.153947011544254,255.109226570988,0,0,0,0,1,0,0,0
1.16696,407.8201353164478,2.1444717384300342,253.9851687695774,0,0,0,0,1,0,0,0
1.16698,407.66569480825433,2.1349117890848106,252.85108406860627,0,0,0,0,1,0,0,0
1.167,407.51131275479,2.1252675409251176,251.70701723977623,0,0,0,0,1,0,0,0
1.16702,407.356989133616,2.115539374695478,250.55301344890745,0,0,0,0,1,0,0,0
1.16704,407.2027239223016,2.1057276744533646,249.3891182540832,0,0,0,0,1,0,0,0
1.16706,407.0485170984266,2.095832827554001,248.21537760388225,0,0,0,0,1,0,0,0
1.16708,406.8943686395811,2.0858552246351283,247.0318378355969,0,0,0,0,1,0,0,0
1.1671,406.74027852336553,2.075795259601511,245.83854567332943,0,0,0,0,1,0,0,0
1.16712,406.5862467273884,2.0656533296094644,244.6355482262325,0,0,0,0,1,0,0,0
1.1671399999999998,406.4322732292695,2.055429835051114,243.42289298657488,0,0,0,0,1,0,0,0
1.16716,406.2783580066384,2.0451251795386285,242.200627827898,0,0,0,0,1,0,0,0
1.16718,406.1245010371336,2.034739769888258,240.96880100315929,0,0,0,0,1,0,0,0
1.1672,405.97070229840585,2.0242740161042807,239.72746114275049,0,0,0,0,1,0,0,0
1.16722,405.8169617681136,2.013728331362847,238.47665725266623,0,0,0,0,1,0,0,0
1.16724,405.6632794239261,2.0031031319956094,237.2164387124797,0,0,0,0,1,0,0,0
1.16726,405.5096552435225,1.9923988374733463,235.94685527348383,0,0,0,0,1,0,0,0
1.16728,405.3560892045918,1.981615870389364,234.6679570566476,0,0,0,0,1,0,0,0
1.1673,405.202581284833,1.9707546564428096,233.37979455067105,0,0,0,0,1,0,0,0
1.16732,405.049131461955,1.9598156244219145,232.08241861002747,0,0,0,0,1,0,0,0
1.16734,404.89573971367656,1.9487992061869928,230.77588045287416,0,0,0,0,1,0,0,0
1.16736,404.74240601772766,1.937705836653476,229.4602316591241,0,0,0,0,1,0,0,0
1.16738,404.589130351847,1.926535953774652,228.13552416832687,0,0,0,0,1,0,0,0
1.1674,404.43591269378334,1.9152899985244511,226.80181027765423,0,0,0,0,1,0,0,0
1.16742,404.2827530212954,1.9039684148800065,225.4591426398708,0,0,0,0,1,0,0,0
1.16744,404.1296513121529,1.8925716498041123,224.1075742611593,0,0,0,0,1,0,0,0
1.16746,403.9766075441349,1.881100153227628,222.74715849918644,0,0,0,0,1,0,0,0
1.16748,403.82362169502926,1.869554378031633,221.37794906078804,0,0,0,0,1,0,0,0
1.1675,403.67069374263673,1.8579347800296395,219.9999999999956,0,0,0,0,1,0,0,0
1.16752,403.5178236647658,1.8462418179495368,218.6133657159283,0,0,0,0,1,0,0,0
1.16754,403.3650114392364,1.834475953415508,217.21810095049605,0,0,0,0,1,0,0,0
1.16756,403.2122570438767,1.8226376509297937,215.81426078638788,0,0,0,0,1,0,0,0
1.1675799999999998,403.0595604565272,1.810727377854343,214.4019006447972,0,0,0,0,1,0,0,0
1.1676,402.9069216550368,1.7987456043924148,212.98107628327097,0,0,0,0,1,0,0,0
