"Time / s","Vo:Measured voltage","IL:Measured current","Vin:Measured voltage","open1:Output","open3:Output","open2:Output","open4:Output","short1:Output","short2:Output","short3:Output","short4:Output"
1.147393448555712,411.7922684900883,9.4896306702334883,228.13552416832241,0,0,0,0,0,0,0,0
1.1474,411.79584810096287,9.3837039348050055,226.80181027764968,0,0,0,0,0,0,0,0
1.1474199999999999,411.79725465361628,9.233141957038189,225.45914263986617,0,0,0,0,0,0,0,0
1.14744,411.793803373831,9.1749435994976345,224.10757426116695,0,0,0,0,0,0,0,0
1.1474599999999999,411.78769282081271,9.2088749988528082,222.74715849918175,0,0,0,0,0,0,0,0
1.1474800000000001,411.78177255865688,9.1974181014123886,221.3779490607709,0,0,0,0,0,0,0,0
1.1475,411.77529763471472,9.1402909398582075,220.0000000000033,0,0,0,0,0,0,0,0
1.1475199999999999,411.76751889020204,9.0372268438702861,218.61336571593611,0,0,0,0,0,0,0,0
1.14754,411.75768321274143,8.8879745226796363,217.2181009505039,0,0,0,0,0,0,0,0
1.1475599999999999,411.7422723166884,8.8981383024938268,215.81426078639578,0,0,0,0,0,0,0,0
1.14758,411.72666462539485,8.8616378643875375,214.40190064479228,0,0,0,0,0,0,0,0
1.1476,411.70973807282729,8.8468172719359668,212.98107628327895,0,0,0,0,0,0,0,0
1.1476199999999999,411.69221674861853,8.7847993649942033,211.55184379355606,0,0,0,0,0,0,0,0
1.14764,411.67335529727421,8.6753291490095066,210.11425959926206,0,0,0,0,0,0,0,0
1.1476599999999999,411.65124335039928,8.5867627661327557,208.66838045378529,0,0,0,0,0,0,0,0
1.14768,411.62676345678454,8.5188710767865281,207.2142634379326,0,0,0,0,0,0,0,0
1.1476999999999999,411.59962844792955,8.5399971586651802,205.75196595778019,0,0,0,0,0,0,0,0
1.1477199999999999,411.57246099148779,8.5126966336499859,204.28154574231564,0,0,0,0,0,0,0,0
1.14774,411.54452557281502,8.4367144691026148,202.80306084118448,0,0,0,0,0,0,0,0
1.1477599999999999,411.51508320027443,8.3118099018544189,201.31656962250594,0,0,0,0,0,0,0,0
1.14778,411.48228722467121,8.2063252404286402,199.82213077032745,0,0,0,0,0,0,0,0
1.1477999999999999,411.44611142830877,8.1886046245391739,198.31980328260352,0,0,0,0,0,0,0,0
1.1478199999999998,411.40897069257335,8.1898330197704095,196.80964646862387,0,0,0,0,0,0,0,0
1.14784,411.37150325409903,8.1411933653437671,195.29171994678006,0,0,0,0,0,0,0,0
1.1478599999999999,411.33298228986388,8.0424473719874072,193.76608364223949,0,0,0,0,0,0,0,0
1.14788,411.29267788612225,7.8933704472881683,192.23279778448358,0,0,0,0,0,0,0,0
1.1478999999999999,411.24825307544518,7.8308166218134376,190.69192290504031,0,0,0,0,0,0,0,0
1.1479200000000001,411.20143204429621,7.8545471318232094,189.14351983498361,0,0,0,0,0,0,0,0
1.14794,411.15460783188217,7.8272571043716068,187.58764970264343,0,0,0,0,0,0,0,0
1.1479599999999999,411.10706775592587,7.7487133748261527,186.0243739310946,0,0,0,0,0,0,0,0
1.14798,411.05809624518588,7.6186958218399745,184.45375423577349,0,0,0,0,0,0,0,0
1.1479999999999999,411.00597471585644,7.5054879370777368,182.87585262208484,0,0,0,0,0,0,0,0
1.14802,410.95030243004641,7.545847086829955,181.29073138285395,0,0,0,0,0,0,0,0
1.1480399999999999,410.89484547267625,7.534060991231283,179.6984530959819,0,0,0,0,0,0,0,0
1.1480599999999999,410.83890712069586,7.4699038324856346,178.09908062187469,0,0,0,0,0,0,0,0
1.14808,410.78178798690988,7.3531621721576572,176.49267710100449,0,0,0,0,0,0,0,0
1.1480999999999999,410.72278618631123,7.1836349960068482,174.87930595146079,0,0,0,0,0,0,0,0
1.14812,410.65900189382097,7.1664401110543157,173.25903086634483,0,0,0,0,0,0,0,0
1.1481399999999999,410.5943547491691,7.1644641492450081,171.6319158113719,0,0,0,0,0,0,0,0
1.1481599999999998,410.52937063441618,7.1090502365820987,169.9980250222437,0,0,0,0,0,0,0,0
1.14818,410.46336838433803,6.999993424559305,168.35742300215605,0,0,0,0,0,0,0,0
1.1481999999999999,410.39566455829242,6.8371005101013536,166.71017451929725,0,0,0,0,0,0,0,0
1.14822,410.32348927514738,6.8253301679868761,165.05634460418702,0,0,0,0,0,0,0,0
1.1482399999999999,410.25055196592621,6.8276782574588148,163.39599854722852,0,0,0,0,0,0,0,0
1.1482600000000001,410.17734421938377,6.7755524767807422,161.72920189599597,0,0,0,0,0,0,0,0
1.14828,410.10320479371825,6.6687578289489684,160.05602045284266,0,0,0,0,0,0,0,0
1.1482999999999999,410.02747040129026,6.5071103828129493,158.37652027204658,0,0,0,0,0,0,0,0
1.14832,409.94795318624392,6.427071209503775,156.69076765738373,0,0,0,0,0,0,0,0
1.1483399999999999,409.86646147027261,6.4284134566739555,154.99882915954183,0,0,0,0,0,0,0,0
1.14836,409.78470024384427,6.374294437580728,153.30077157330985,0,0,0,0,0,0,0,0
1.14838,409.70203002799008,6.2645302427674592,151.5966619351245,0,0,0,0,0,0,0,0
1.1483999999999999,409.61780952822022,6.0989473499373927,149.88656752030107,0,0,0,0,0,0,0,0
1.14842,409.52969727326757,6.0821298347788204,148.17055584042336,0,0,0,0,0,0,0,0
1.1484399999999999,409.44070255790461,6.0773338316298871,146.44869464072522,0,0,0,0,0,0,0,0
1.14846,409.35138487068843,6.0161223390307956,144.7210518973074,0,0,0,0,0,0,0,0
1.1484799999999999,409.26112807249643,5.8983234000983797,142.98769581457847,0,0,0,0,0,0,0,0
1.1484999999999999,409.16931443485362,5.7237747741521625,141.24869482245293,0,0,0,0,0,0,0,0
1.14852,409.07334234561819,5.7650197849529423,139.50411757369659,0,0,0,0,0,0,0,0
1.1485399999999999,408.97754020894399,5.7491037414095016,137.75403294126355,0,0,0,0,0,0,0,0
1.14856,408.88131827398041,5.6758582238616802,135.99851001546679,0,0,0,0,0,0,0,0
1.1485799999999999,408.78408532472184,5.5451238475359874,134.23761810137728,0,0,0,0,0,0,0,0
1.1485999999999998,408.68465829893353,5.4248586783964496,132.47142671597678,0,0,0,0,0,0,0,0
1.14862,408.58281890279187,5.3829690462403592,130.70000558546093,0,0,0,0,0,0,0,0
1.1486399999999999,408.4799588107249,5.3511448551107197,128.92342464253488,0,0,0,0,0,0,0,0
1.14866,408.37655004514829,5.2611297999382183,127.1417540235401,0,0,0,0,0,0,0,0
1.1486799999999999,408.27202793716981,5.1127774666271257,125.35506406581415,0,0,0,0,0,0,0,0
1.1487000000000001,408.16505002600292,5.0419976262828348,123.56342530478496,0,0,0,0,0,0,0,0
1.14872,408.05653367389328,4.9805507065609183,121.76690847131542,0,0,0,0,0,0,0,0
1.1487399999999999,407.94689421621723,4.9282559437604005,119.96558448879783,0,0,0,0,0,0,0,0
1.14876,407.83655564622285,4.8169565533516323,118.15952447040226,0,0,0,0,0,0,0,0
1.1487799999999999,407.72423499185089,4.7824207731273418,116.34879971631848,0,0,0,0,0,0,0,0
1.1488,407.6113942118767,4.6885538910049762,114.53348171082655,0,0,0,0,0,0,0,0
1.14882,407.49661143595046,4.6710495533666121,112.71364211960584,0,0,0,0,0,0,0,0
1.1488399999999999,407.38147328300249,4.5938935621422905,110.88935278679097,0,0,0,0,0,0,0,0
1.14886,407.26547331012733,4.4569588040638637,109.06068573218451,0,0,0,0,0,0,0,0
1.1488799999999999,407.14741637880286,4.3958354475429227,107.22771314846371,0,0,0,0,0,0,0,0
1.1489,407.02865973740461,4.2746298069306361,105.39050739819783,0,0,0,0,0,0,0,0
1.1489199999999999,406.90791071462689,4.2288541101219375,103.54914101119056,0,0,0,0,0,0,0,0
1.1489399999999999,406.78614528064833,4.1904919987703,101.70368668141742,0,0,0,0,0,0,0,0
1.14896,406.66369026745514,4.1593776578277737,99.854217264188577,0,0,0,0,0,0,0,0
1.1489799999999999,406.54081740049986,4.0675857473530801,98.000805773473402,0,0,0,0,0,0,0,0
1.149,406.4165621640438,3.9827378422236794,96.143525378733756,0,0,0,0,0,0,0,0
1.1490199999999999,406.29124767697488,3.9046776999815376,94.282449402253064,0,0,0,0,0,0,0,0
1.1490399999999998,406.16476400427302,3.8332425161670258,92.41765131610741,0,0,0,0,0,0,0,0
1.14906,406.03741467747659,3.7682778613338193,90.549204739315272,0,0,0,0,0,0,0,0
1.1490799999999999,405.9094483069419,3.6419749167534148,88.677183434982012,0,0,0,0,0,0,0,0
1.1491,405.77999563872345,3.5218636657615168,86.801661307269455,0,0,0,0,0,0,0,0
1.1491199999999999,405.64878622983537,3.5430109063321118,84.922712398613712,0,0,0,0,0,0,0,0
1.1491400000000001,405.51756560996313,3.5023913283668549,83.040410886666422,0,0,0,0,0,0,0,0
1.14916,405.38594049989513,3.399912148953852,81.154831081502323,0,0,0,0,0,0,0,0
1.1491799999999999,405.25351719571842,3.2354858425470661,79.266047422566487,0,0,0,0,0,0,0,0
1.1492,405.11900246323506,3.2115831377579265,77.374134475786519,0,0,0,0,0,0,0,0
1.1492199999999999,404.98400800820855,3.1929520762356862,75.479166930680307,0,0,0,0,0,0,0,0
1.14924,404.84877892433457,3.1119745716541627,73.581219597287543,0,0,0,0,0,0,0,0
1.1492599999999999,404.7129561768146,2.9685720133073454,71.680367403353486,0,0,0,0,0,0,0,0
1.1492799999999999,404.57586200082557,2.8300972809197713,69.776685391250822,0,0,0,0,0,0,0,0
1.1493,404.43722272146186,2.8312303796291314,67.870248715068499,0,0,0,0,0,0,0,0
1.1493199999999999,404.29848090482034,2.7695648968563717,65.961132637696636,0,0,0,0,0,0,0,0
1.14934,404.1593129641609,2.6450316568481251,64.049412527734503,0,0,0,0,0,0,0,0
1.1493599999999999,404.01910983530337,2.5249001144591285,62.135163856653236,0,0,0,0,0,0,0,0
1.1493799999999998,403.87808869730429,2.4090480549970077,60.218462195695373,0,0,0,0,0,0,0,0
1.1494,403.73598522031722,2.364637726116448,58.299383212943184,0,0,0,0,0,0,0,0
1.1494199999999999,403.59359069779106,2.2569522325606712,56.378002670383665,0,0,0,0,0,0,0,0
1.14944,403.45026412544962,2.220418697049436,54.454396420778508,0,0,0,0,0,0,0,0
1.1494599999999999,403.30670228362271,2.1204178058280467,52.528640404895754,0,0,0,0,0,0,0,0
1.1494800000000001,403.16226426316223,2.0912850728121324,50.600810648180961,0,0,0,0,0,0,0,0
1.1495,403.01764149582351,1.9985017540059908,48.670983258139124,0,0,0,0,0,0,0,0
1.1495199999999999,402.87225949424038,1.976312539338305,46.739234421033814,0,0,0,0,0,0,0,0
1.14954,402.72673586357269,1.8902983516790459,44.805640398931509,0,0,0,0,0,0,0,0
1.1495599999999999,402.58083853586498,1.7404187155776478,42.870277526900779,0,0,0,0,0,0,0,0
1.14958,402.4340505990819,1.6607809303729242,40.933222209701441,0,0,0,0,0,0,0,0
1.1496,402.28667775202325,1.6512150257207765,38.994550918995692,0,0,0,0,0,0,0,0
1.1496199999999999,402.13923456944303,1.5775046837033726,37.054340190189045,0,0,0,0,0,0,0,0
1.14964,401.99152669101539,1.4396196724925694,35.112666619461322,0,0,0,0,0,0,0,0
1.1496599999999999,401.84321317912014,1.3045060630877423,33.169606860795547,0,0,0,0,0,0,0,0
1.14968,401.69420691296256,1.3059717538767237,31.225237622828786,0,0,0,0,0,0,0,0
1.1496999999999999,401.54518255372506,1.2430111543177449,29.279635665964442,0,0,0,0,0,0,0,0
1.1497199999999999,401.3959839282345,1.1156044707934141,27.332877799218782,0,0,0,0,0,0,0,0
1.14974,401.24634449951179,0.99060888879893838,25.385040877241369,0,0,0,0,0,0,0,0
1.1497599999999999,401.09626520551785,0.93479164347572441,23.436201797333904,0,0,0,0,0,0,0,0
1.14978,400.94602515803894,0.88117623413683832,21.48643749629105,0,0,0,0,0,0,0,0
1.1497999999999999,400.79568575531385,0.76288182694030204,19.535824947504153,0,0,0,0,0,0,0,0
1.1498199999999998,400.64502772033467,0.71345231990467151,17.584441157799031,0,0,0,0,0,0,0,0
1.14984,400.49430254744624,0.5992419516030616,15.632363164448725,0,0,0,0,0,0,0,0
1.1498599999999999,400.34333487708534,0.55369944662808235,13.679668032185242,0,0,0,0,0,0,0,0
1.14988,400.19232987642755,0.44328415072865562,11.726432850033524,0,0,0,0,0,0,0,0
1.1498999999999999,400.04116077909168,0.40134980061597947,9.7727347284094286,0,0,0,0,0,0,0,0
1.1499200000000001,399.88998114763763,0.29446076433709228,7.8186507959341789,0,0,0,0,0,0,0,0
1.14994,399.73871579690831,0.18925018528464457,5.8642581965308596,0,0,0,0,0,0,0,0
1.1499599999999999,399.58739208640174,0.21885879957530369,3.9096340862551626,0,0,0,0,0,0,0,0
1.14998,399.43612474234681,0.18336189297520086,1.9548556303024214,0,0,0,0,0,0,0,0
1.1499999999999999,399.28489402077554,0.082777073294253795,1.4329843462771996e-11,0,0,0,0,0,0,0,0
1.15002,399.13367838387194,0.050172070996584578,-1.9548556303091327,0,0,0,0,0,0,0,0
1.15004,398.98252001505256,-0.047572307213576526,-3.9096340862265051,0,0,0,0,0,0,0,0
1.1500599999999999,398.83143222726318,-0.14395659490221141,-5.8642581965022051,0,0,0,0,0,0,0,0
1.15008,398.68042799406231,-0.23902410793066881,-7.8186507959408882,0,0,0,0,0,0,0,0
1.1500999999999999,398.52951473718468,-0.3992412547667693,-9.7727347283984596,0,0,0,0,0,0,0,0
1.15012,398.3788526396358,-0.49178202820075068,-11.726432850040231,0,0,0,0,0,0,0,0
1.1501399999999999,398.22838397580989,-0.5831258874691625,-13.679668032174281,0,0,0,0,0,0,0,0
1.1501599999999998,398.07809979611153,-0.67330490949481148,-15.632363164437765,0,0,0,0,0,0,0,0
1.15018,397.9280992130611,-0.76235411119312202,-17.584441157788074,0,0,0,0,0,0,0,0
1.1501999999999999,397.77836956488613,-0.85030002871455346,-19.535824947493204,0,0,0,0,0,0,0,0
1.15022,397.62893799933221,-0.93716848643220607,-21.486437496297746,0,0,0,0,0,0,0,0
1.1502399999999999,397.47977397594451,-1.0229804145713806,-23.436201797322962,0,0,0,0,0,0,0,0
1.1502599999999998,397.33111081626515,-1.0415379159021638,-25.385040877230434,0,0,0,0,0,0,0,0
1.15028,397.18259698908207,-1.1253213951357854,-27.332877799207846,0,0,0,0,0,0,0,0
1.1502999999999999,397.03435095792292,-1.2742753192717164,-29.279635665953517,0,0,0,0,0,0,0,0
1.15032,396.88669687170153,-1.3560438909977528,-31.225237622835461,0,0,0,0,0,0,0,0
1.1503399999999999,396.73968374092567,-1.3707100049901775,-33.16960686078464,0,0,0,0,0,0,0,0
1.15036,396.59284082766931,-1.450544170881475,-35.112666619467994,0,0,0,0,0,0,0,0
1.15038,396.44632594172379,-1.5954808214665845,-37.054340190178152,0,0,0,0,0,0,0,0
1.1503999999999999,396.30246476930603,0.059513105007682809,-38.994550918984814,1,0,0,0,0,0,0,0
1.15042,396.1522976110237,0.059163026423789039,-40.933222209708092,1,0,0,0,0,0,0,0
1.1504399999999999,396.00225042395493,-4.2870219011402094e-05,-42.870277526889915,1,0,0,0,0,0,0,0
1.15046,395.85226907559331,-4.4805581916010653e-05,-44.805640398938152,1,0,0,0,0,0,0,0
1.1504799999999999,395.70234458023089,-4.673917597294701e-05,-46.739234421005484,1,0,0,0,0,0,0,0
1.1504999999999999,395.55248130831581,-4.8670924847246367e-05,-48.670983258128281,1,0,0,0,0,0,0,0
1.15052,395.40267919637682,-5.0600752276787979e-05,-50.600810648187583,1,0,0,0,0,0,0,0
1.1505399999999999,395.25293381691637,-5.2528582075254725e-05,-52.52864040486751,1,0,0,0,0,0,0,0
1.15056,395.10324514844922,-5.4454338135261907e-05,-54.454396420785123,1,0,0,0,0,0,0,0
1.1505799999999999,394.95361316949823,-5.6377944431222849e-05,-56.378002670355478,1,0,0,0,0,0,0,0
1.1505999999999998,394.8040378585934,-5.8299325022472273e-05,-58.299383212915032,1,0,0,0,0,0,0,0
1.15062,394.65451919427431,-6.0218404056211407e-05,-60.21846219566725,1,0,0,0,0,0,0,0
1.1506399999999999,394.50505715508768,-6.2135105770451697e-05,-62.135163856625155,1,0,0,0,0,0,0,0
1.15066,394.35565171958871,-6.4049354497142818e-05,-64.049412527741069,1,0,0,0,0,0,0,0
1.1506799999999999,394.20630286634088,-6.5961074664954016e-05,-65.961132637685907,1,0,0,0,0,0,0,0
1.1507000000000001,394.05701057391531,-6.787019080249819e-05,-67.87024871507505,1,0,0,0,0,0,0,0
1.15072,393.90777482089158,-6.9776627541104575e-05,-69.776685391240136,1,0,0,0,0,0,0,0
1.1507399999999999,393.75859558585751,-7.1680309617932507e-05,-71.680367403342814,1,0,0,0,0,0,0,0
1.15076,393.60947284740826,-7.3581161878890066e-05,-73.581219597294066,1,0,0,0,0,0,0,0
1.1507799999999999,393.4604065841483,-7.5479109281550701e-05,-75.479166930669663,1,0,0,0,0,0,0,0
1.1508,393.31139677468917,-7.7374076898234967e-05,-77.374134475793014,1,0,0,0,0,0,0,0
1.15082,393.16244339765115,-7.9265989918831837e-05,-79.266047422555886,1,0,0,0,0,0,0,0
1.1508399999999999,393.01354643166218,-8.1154773653871912e-05,-81.154831081491736,1,0,0,0,0,0,0,0
1.15086,392.86470585535841,-8.3040353537424235e-05,-83.040410886672888,1,0,0,0,0,0,0,0
1.1508799999999999,392.71592164738502,-8.4922655129989846e-05,-84.922712398603153,1,0,0,0,0,0,0,0
1.1509,392.56719378639349,-8.6801604121558793e-05,-86.801661307275907,1,0,0,0,0,0,0,0
1.1509199999999999,392.41852225104424,-8.8677126334408163e-05,-88.677183434971496,1,0,0,0,0,0,0,0
1.1509399999999999,392.26990702000631,-9.0549147726149567e-05,-90.54920473930477,1,0,0,0,0,0,0,0
1.15096,392.12134807195588,-9.241759439260044e-05,-92.417651316096951,1,0,0,0,0,0,0,0
1.1509799999999999,391.97284538557847,-9.4282392570652353e-05,-94.282449402242619,1,0,0,0,0,0,0,0
1.151,391.82439893956632,-9.6143468641299342e-05,-96.143525378740151,1,0,0,0,0,0,0,0
1.1510199999999999,391.6760087126201,-9.800074913241174e-05,-98.000805773462986,1,0,0,0,0,0,0,0
1.1510399999999998,391.52767468344894,-9.9854160721752784e-05,-99.854217264178189,1,0,0,0,0,0,0,0
1.15106,391.37939683076991,-0.00010170363023982268,-101.70368668139034,1,0,0,0,0,0,0,0
1.1510799999999999,391.2311751333084,-0.0001035490846726987,-103.5491410111802,1,0,0,0,0,0,0,0
1.1511,391.08300956979701,-0.00010539045116503275,-105.39050739820414,1,0,0,0,0,0,0,0
1.1511199999999999,390.934900118977,-0.00010722765702279562,-107.22771314843681,1,0,0,0,0,0,0,0
1.1511400000000001,390.78684675959755,-0.00010906062971627899,-109.06068573217424,1,0,0,0,0,0,0,0
1.15116,390.63884947041572,-0.00011088929688282628,-110.88935278676418,1,0,0,0,0,0,0,0
1.1511799999999999,390.49090823019804,-0.00011271358632980567,-112.71364211957912,1,0,0,0,0,0,0,0
1.1512,390.34302301771618,-0.00011453342603742596,-114.53348171083277,1,0,0,0,0,0,0,0
1.1512199999999999,390.19519381175229,-0.00011634874416144991,-116.34879971629191,1,0,0,0,0,0,0,0
1.15124,390.04742059109628,-0.0001181594690363243,-118.15952447040846,1,0,0,0,0,0,0,0
1.15126,389.89970333454494,-0.0001199655291776499,-119.96558448878768,1,0,0,0,0,0,0,0
1.1512799999999999,389.75204202090379,-0.0001217668532852976,-121.76690847130533,1,0,0,0,0,0,0,0
1.1513,389.60443662898638,-0.00012356337024609191,-123.56342530479112,1,0,0,0,0,0,0,0
1.1513199999999999,389.45688713761427,-0.00012535500913658714,-125.35506406580411,1,0,0,0,0,0,0,0
1.15134,389.30939352561739,-0.00012714169922598001,-127.14175402354621,1,0,0,0,0,0,0,0
1.1513599999999999,389.16195577183345,-0.00012892336997877271,-128.92342464252488,1,0,0,0,0,0,0,0
1.1513799999999998,389.01457385510702,-0.000130699951057671,-130.70000558545098,1,0,0,0,0,0,0,0
1.1513934485557118,389.01457385510702,-0.000130699951057671,-130.70000558545098,1,0,0,0,0,0,0,0
