"Time / s","Vo:Measured voltage","IL:Measured current","Vin:Measured voltage","open1:Output","open3:Output","open2:Output","open4:Output","short1:Output","short2:Output","short3:Output","short4:Output"
1.1108390107395265,393.31375567520467,-3.2341208698194368,-79.26604742255175,0,0,0,0,0,0,0,0
1.11084,393.18457332683568,-3.3508171225349277,-81.154831081504682,0,0,0,0,0,0,0,0
1.11086,393.05707195648017,-3.3346928829502707,-83.040410886668781,0,0,0,0,0,0,0,0
1.1108799999999999,392.92972271357723,-3.3822550070522484,-84.922712398599046,0,0,0,0,0,0,0,0
1.1109,392.80293032395599,-3.4933737436450634,-86.801661307271814,0,0,0,0,0,0,0,0
1.1109199999999999,392.67709851771428,-3.6679140719748276,-88.677183434967404,0,0,0,0,0,0,0,0
1.11094,392.55387725536627,-3.7094705867421442,-90.549204739317631,0,0,0,0,0,0,0,0
1.1109599999999999,392.43134443818684,-3.7488670784733169,-92.417651316092872,0,0,0,0,0,0,0,0
1.1109799999999999,392.30935626459706,-3.8514039789176193,-94.282449402238541,0,0,0,0,0,0,0,0
1.111,392.18892534913766,-3.9515777758358417,-96.143525378736086,0,0,0,0,0,0,0,0
1.1110199999999999,392.06982648100507,-4.0492885423932892,-98.00080577345895,0,0,0,0,0,0,0,0
1.11104,391.95228112313464,-4.0791146376847145,-99.854217264190893,0,0,0,0,0,0,0,0
1.1110599999999999,391.83524716885466,-4.1716181352609167,-101.7036866813863,0,0,0,0,0,0,0,0
1.1110799999999998,391.71981389942806,-4.2613645510120444,-103.54914101117616,0,0,0,0,0,0,0,0
1.1111,391.6057295605641,-4.3482411150777693,-105.39050739820013,0,0,0,0,0,0,0,0
1.1111199999999999,391.49322843568831,-4.3668908287195265,-107.2277131484328,0,0,0,0,0,0,0,0
1.11114,391.38118024962625,-4.4477092014192232,-109.06068573218678,0,0,0,0,0,0,0,0
1.1111599999999999,391.27074272772535,-4.5253276985889528,-110.88935278676018,0,0,0,0,0,0,0,0
1.1111800000000001,391.16163634268793,-4.5996210667021318,-112.71364211960812,0,0,0,0,0,0,0,0
1.1112,391.0539333502972,-4.6704680963142877,-114.53348171082882,0,0,0,0,0,0,0,0
1.1112199999999999,390.94733495643419,-4.7377402146454886,-116.34879971630434,0,0,0,0,0,0,0,0
1.11124,390.84164128442558,-4.8664499692250098,-118.15952447040452,0,0,0,0,0,0,0,0
1.1112599999999999,390.73850820952134,-4.9261826739681558,-119.96558448878375,0,0,0,0,0,0,0,0
1.11128,390.6362414396296,-5.0470451410314174,-121.76690847131768,0,0,0,0,0,0,0,0
1.1113,390.53611935794578,-5.0986814449236153,-123.5634253047872,0,0,0,0,0,0,0,0
1.1113199999999999,390.43754146713144,-5.1460676550031215,-125.35506406580021,0,0,0,0,0,0,0,0
1.11134,390.34016825201024,-5.1890541582835601,-127.14175402354233,0,0,0,0,0,0,0,0
1.1113599999999999,390.24354819148647,-5.2925321923369877,-128.92342464252101,0,0,0,0,0,0,0,0
1.11138,390.14881021824544,-5.3912891102617246,-130.70000558546315,0,0,0,0,0,0,0,0
1.1113999999999999,390.05637381454591,-5.4201630769641698,-132.47142671596296,0,0,0,0,0,0,0,0
1.1114199999999999,389.9650097005333,-5.4440240298248712,-134.23761810136352,0,0,0,0,0,0,0,0
1.11144,389.87424006117783,-5.5276908497752339,-135.99851001546898,0,0,0,0,0,0,0,0
1.1114599999999999,389.78467969027724,-5.6709623695185725,-137.75403294124985,0,0,0,0,0,0,0,0
1.11148,389.69776516132663,-5.7437384841677002,-139.50411757369878,0,0,0,0,0,0,0,0
1.1114999999999999,389.61324613893845,-5.7458879055857839,-141.24869482243938,0,0,0,0,0,0,0,0
1.1115199999999998,389.52911049922534,-5.8071030765268414,-142.98769581456492,0,0,0,0,0,0,0,0
1.11154,389.44600118477518,-5.9271759371475534,-144.72105189730956,0,0,0,0,0,0,0,0
1.1115599999999999,389.36517442560984,-6.0410007542388522,-146.44869464071178,0,0,0,0,0,0,0,0
1.11158,389.28754893692388,-6.0186366756219831,-148.17055584042549,0,0,0,0,0,0,0,0
1.1115999999999999,389.21003643910291,-6.0545526239219871,-149.88656752028771,0,0,0,0,0,0,0,0
1.1116200000000001,389.13330662653505,-6.1485347869191793,-151.59666193512663,0,0,0,0,0,0,0,0
1.11164,389.05802641666639,-6.3003586780598413,-153.30077157331198,0,0,0,0,0,0,0,0
1.1116599999999999,388.98641435514651,-6.3801439868642058,-154.99882915952861,0,0,0,0,0,0,0,0
1.11168,388.91688646004394,-6.3877022389351081,-156.69076765738583,0,0,0,0,0,0,0,0
1.1116999999999999,388.84782851372393,-6.4524730795414413,-158.37652027201827,0,0,0,0,0,0,0,0
1.11172,388.77993229404717,-6.5742269013410981,-160.05602045284476,0,0,0,0,0,0,0,0
1.11174,388.71457660770631,-6.6879444261299996,-161.72920189599807,0,0,0,0,0,0,0,0
1.1117599999999999,388.65273730750823,-6.6638671201333048,-163.39599854720052,0,0,0,0,0,0,0,0
1.11178,388.59097847700593,-6.6961077177119117,-165.05634460418909,0,0,0,0,0,0,0,0
1.1117999999999999,388.53001523388122,-6.7844331034843854,-166.71017451928441,0,0,0,0,0,0,0,0
1.11182,388.47055938123879,-6.9285980390453465,-168.35742300215813,0,0,0,0,0,0,0,0
1.1118399999999999,388.41502256523864,-6.9988923432752461,-169.99802502223096,0,0,0,0,0,0,0,0
1.1118599999999998,388.36162752875134,-6.9950895345076596,-171.63191581135919,0,0,0,0,0,0,0,0
1.11188,388.3085743428685,-7.0464141931521347,-173.25903086634685,0,0,0,0,0,0,0,0
1.1118999999999999,388.25659611639475,-7.1526187277319524,-174.8793059514482,0,0,0,0,0,0,0,0
1.11192,388.20642229422407,-7.3134427318852326,-176.49267710100651,0,0,0,0,0,0,0,0
1.1119399999999999,388.1608988810446,-7.3345592104616371,-178.09908062186219,0,0,0,0,0,0,0,0
1.1119600000000001,388.11662127202101,-7.3451040795959113,-179.69845309598389,0,0,0,0,0,0,0,0
1.11198,388.07288737804242,-7.4095123784326606,-181.29073138285594,0,0,0,0,0,0,0,0
1.1119999999999999,388.030445850013,-7.5275228313753679,-182.8758526220725,0,0,0,0,0,0,0,0
1.11202,387.99108884942405,-7.634206973023935,-184.45375423577548,0,0,0,0,0,0,0,0
1.1120399999999999,387.95535221749412,-7.5999857478952464,-186.02437393108238,0,0,0,0,0,0,0,0
1.11206,387.91951984464004,-7.6185713236795234,-187.58764970264542,0,0,0,0,0,0,0,0
1.11208,387.88435783097538,-7.6897041397447934,-189.14351983498554,0,0,0,0,0,0,0,0
1.1120999999999999,387.85062810802651,-7.813110404839966,-190.69192290502824,0,0,0,0,0,0,0,0
1.11212,387.81908823394286,-7.988502177677737,-192.23279778448548,0,0,0,0,0,0,0,0
1.1121399999999999,387.79342038510981,-7.9570870535892126,-193.76608364222758,0,0,0,0,0,0,0,0
1.11216,387.76767996632327,-7.9770846740476822,-195.29171994678197,0,0,0,0,0,0,0,0
1.1121799999999999,387.74264379415717,-8.048225232162558,-196.80964646861204,0,0,0,0,0,0,0,0
1.1121999999999999,387.71908419091358,-8.1702240548645761,-198.31980328259175,0,0,0,0,0,0,0,0
1.11222,387.69889426453324,-8.2781775901455283,-199.82213077032932,0,0,0,0,0,0,0,0
1.1122399999999999,387.68263157471335,-8.2425654925207983,-201.31656962248084,0,0,0,0,0,0,0,0
1.11226,387.66621156968756,-8.2569219173700734,-202.80306084118629,0,0,0,0,0,0,0,0
1.1122799999999999,387.6504193539804,-8.3209689069321886,-204.2815457422908,0,0,0,0,0,0,0,0
1.1122999999999998,387.63603523351748,-8.4344130310405987,-205.75196595775549,0,0,0,0,0,0,0,0
1.11232,387.62383447445063,-8.5969454854338938,-207.21426343793439,0,0,0,0,0,0,0,0
1.1123399999999999,387.61709317232845,-8.6144668293175659,-208.66838045376088,0,0,0,0,0,0,0,0
1.11236,387.61167110342518,-8.6158378233711073,-210.11425959926385,0,0,0,0,0,0,0,0
1.1123799999999999,387.60667113165829,-8.6653578764766692,-211.55184379354492,0,0,0,0,0,0,0,0
1.1124000000000001,387.60287839407954,-8.7627275109838454,-212.98107628328074,0,0,0,0,0,0,0,0
1.11242,387.60107270022718,-8.9076313251860171,-214.40190064479404,0,0,0,0,0,0,0,0
1.1124399999999999,387.60486629838135,-8.9059704322636435,-215.81426078638481,0,0,0,0,0,0,0,0
1.11246,387.6094330243161,-8.8865791002340515,-217.21810095050566,0,0,0,0,0,0,0,0
1.1124799999999999,387.61406757497139,-8.9137545480376321,-218.61336571592528,0,0,0,0,0,0,0,0
1.1125,387.61955743950256,-8.987194577207525,-220.00000000000503,0,0,0,0,0,0,0,0
1.11252,387.62668454188156,-9.1065805561019069,-221.37794906077261,0,0,0,0,0,0,0,0
1.1125399999999999,387.63622496520526,-9.2715775401584821,-222.74715849917109,0,0,0,0,0,0,0,0
1.11256,387.65233513795897,-9.2234468801786136,-224.10757426116862,0,0,0,0,0,0,0,0
1.1125799999999999,387.66799121651462,-9.2202139927579001,-225.45914263985566,0,0,0,0,0,0,0,0
1.1126,387.68397969774406,-9.2615779767395008,-226.80181027765133,0,0,0,0,0,0,0,0
1.1126199999999999,387.70108134447747,-9.3472210508867271,-228.13552416831203,0,0,0,0,0,0,0,0
1.1126399999999999,387.72007089216885,-9.4768086816823676,-229.46023165910924,0,0,0,0,0,0,0,0
1.11266,387.7427577149308,-9.5853780556064443,-230.77588045287132,0,0,0,0,0,0,0,0
1.1126799999999999,387.76949724541373,-9.6079384208946639,-232.08241861001287,0,0,0,0,0,0,0,0
1.1127,387.79771680998573,-9.608732841708127,-233.37979455066818,0,0,0,0,0,0,0,0
1.1127199999999999,387.82632971432275,-9.652049824560434,-234.66795705663318,0,0,0,0,0,0,0,0
1.1127399999999998,387.85610581539959,-9.7375601819655877,-235.94685527346954,0,0,0,0,0,0,0,0
1.11276,387.88780853990329,-9.8649177490559854,-237.21643871247693,0,0,0,0,0,0,0,0
1.1127799999999999,387.92376692227469,-9.9044763644071683,-238.47665725265213,0,0,0,0,0,0,0,0
1.1128,387.9621417226686,-9.9204909911567132,-239.72746114274776,0,0,0,0,0,0,0,0
1.1128199999999999,388.00189180262112,-9.9125892736863488,-240.96880100314539,0,0,0,0,0,0,0,0
1.1128400000000001,388.04186067955851,-9.9450832090103241,-242.20062782789523,0,0,0,0,0,0,0,0
1.11286,388.08280393421109,-10.017637447163015,-243.42289298656127,0,0,0,0,0,0,0,0
1.1128799999999999,388.12547040072207,-10.129899520843177,-244.63554822621896,0,0,0,0,0,0,0,0
1.1129,388.17172364444258,-10.216817896814067,-245.83854567333765,0,0,0,0,0,0,0,0
1.1129199999999999,388.22183444039865,-10.213298887329223,-247.03183783558362,0,0,0,0,0,0,0,0
1.11294,388.27295172282879,-10.183629586007184,-248.21537760389032,0,0,0,0,0,0,0,0
1.1129599999999999,388.32384739287414,-10.192162949072797,-249.38911825408061,0,0,0,0,0,0,0,0
1.1129799999999999,388.37525905493789,-10.238563848706876,-250.55301344890486,0,0,0,0,0,0,0,0
1.113,388.42791736914512,-10.322479998157577,-251.70701723978411,0,0,0,0,0,0,0,0
1.1130199999999999,388.48254572286589,-10.443542118430013,-252.8510840686038,0,0,0,0,0,0,0,0
1.11304,388.54102224502054,-10.536620982342468,-253.98516876958513,0,0,0,0,0,0,0,0
1.1130599999999999,388.60218193842957,-10.601289897544316,-255.1092265709855,0,0,0,0,0,0,0,0
1.1130799999999998,388.66709175848882,-10.572381760179132,-256.22321309693785,0,0,0,0,0,0,0,0
1.1131,388.73175674777127,-10.579015358769107,-257.32708436917164,0,0,0,0,0,0,0,0
1.1131199999999999,388.79688426716388,-10.62084637352824,-258.4207968087191,0,0,0,0,0,0,0,0
1.11314,388.86317435534636,-10.697513596689243,-259.50430723770563,0,0,0,0,0,0,0,0
1.1131599999999999,388.93131939565734,-10.808639112564181,-260.5775728809752,0,0,0,0,0,0,0,0
1.1131800000000001,389.00375303448965,-10.824189025826495,-261.64055136785737,0,0,0,0,0,0,0,0
1.1132,389.0768177440068,-10.873372558896165,-262.69320073376235,0,0,0,0,0,0,0,0
1.1132199999999999,389.15261763624466,-10.890976525902714,-263.73547942190527,0,0,0,0,0,0,0,0
1.11324,389.22984276138862,-10.876576144907339,-264.76734628491738,0,0,0,0,0,0,0,0
1.1132599999999999,389.30707871210632,-10.894647806556518,-265.78876058644323,0,0,0,0,0,0,0,0
1.11328,389.38499077752255,-10.944831173763331,-266.7996820028136,0,0,0,0,0,0,0,0
1.1133,389.46423640287566,-11.02674961990501,-267.80007062456355,0,0,0,0,0,0,0,0
1.1133199999999999,389.54546485890825,-11.140010425933825,-268.78988695807249,0,0,0,0,0,0,0,0
1.11334,389.63113143152265,-11.154357722703557,-269.76909192709525,0,0,0,0,0,0,0,0
1.1133599999999999,389.71738552713754,-11.199188922867457,-270.7376468742786,0,0,0,0,0,0,0,0
1.11338,389.80486024450022,-11.274124446742459,-271.69551356274917,0,0,0,0,0,0,0,0
1.1133999999999999,389.89643261609757,-11.248834446806658,-272.64265417755286,0,0,0,0,0,0,0,0
1.1134199999999999,389.98774628170105,-11.252805176512961,-273.57903132720872,0,0,0,0,0,0,0,0
1.11344,390.07941806041345,-11.285673152441696,-274.50460804515848,0,0,0,0,0,0,0,0
1.1134599999999999,390.17205666429817,-11.347059404683446,-275.41934779120146,0,0,0,0,0,0,0,0
1.11348,390.26626237520981,-11.436569685557597,-276.32321445300352,0,0,0,0,0,0,0,0
1.1134999999999999,390.36449288148503,-11.423704105926813,-277.21617234741564,0,0,0,0,0,0,0,0
1.1135199999999998,390.46270392095198,-11.438098060425514,-278.09818622202187,0,0,0,0,0,0,0,0
1.11354,390.56147787391149,-11.479377101984291,-278.96922125643215,0,0,0,0,0,0,0,0
1.1135599999999999,390.66138868574131,-11.547151983177013,-279.82924306364328,0,0,0,0,0,0,0,0
1.11358,390.76300155406312,-11.641018875449204,-280.67821769149032,0,0,0,0,0,0,0,0
1.1135999999999999,390.86918788732032,-11.630302078667624,-281.51611162389344,0,0,0,0,0,0,0,0
1.1136200000000001,390.97537689750624,-11.644782413302542,-282.34289178224986,0,0,0,0,0,0,0,0
1.11364,391.08211410045749,-11.684079912724435,-283.1585255266798,0,0,0,0,0,0,0,0
1.1136599999999999,391.18993636327389,-11.74780057655679,-283.9629806573671,0,0,0,0,0,0,0,0
1.11368,391.3006963096966,-11.770335580279452,-284.75622541580776,0,0,0,0,0,0,0,0
1.1136999999999999,391.41277133147003,-11.75121826640288,-285.53822848604261,0,0,0,0,0,0,0,0
1.11372,391.52463836590556,-11.755257061690719,-286.30895899594361,0,0,0,0,0,0,0,0
1.11374,391.6368054562119,-11.782072500470193,-287.06838651837603,0,0,0,0,0,0,0,0
1.1137599999999999,391.7497719138014,-11.831271888278039,-287.81648107244848,0,0,0,0,0,0,0,0
1.11378,391.86402803156869,-11.902449533907255,-288.55321312467578,0,0,0,0,0,0,0,0
1.1137999999999999,391.98005480248912,-11.995186988384427,-289.27855359012443,0,0,0,0,0,0,0,0
1.11382,392.09987883336345,-12.043720848625865,-289.99247383360813,0,0,0,0,0,0,0,0
1.1138399999999999,342.21367715798885,-12.635821784799452,-290.69494567076504,0,0,0,0,1,0,0,0
1.1138599999999999,17.036491543233499,-22.336843585020823,-291.38594136921648,0,0,0,0,1,0,0,0
1.11388,0.84815798526764363,-32.061046447807229,-292.06543364964153,0,0,0,0,1,0,0,0
1.1138999999999999,0.042261092293940136,-41.807723550464942,-292.73339568683605,0,0,0,0,1,0,0,0
1.11392,0.0021502862913157506,-51.576474033757485,-293.38980111081474,0,0,0,0,1,0,0,0
1.1139399999999999,0.00016274035239477401,-61.366911443021941,-294.03462400780347,0,0,0,0,1,0,0,0
1.1139599999999998,7.3110515215572946e-05,-71.178649227919436,-294.66783892130434,0,0,0,0,1,0,0,0
1.11398,8.1010974292512904e-05,-81.011300123397518,-295.28942085308245,0,0,0,0,1,0,0,0
1.1139999999999999,9.0864149150735981e-05,-90.864475775691702,-295.89934526413617,0,0,0,0,1,0,0,0
1.11402,0.00010073745987940208,-100.73778728583079,-296.49758807570515,0,0,0,0,1,0,0,0
1.1140399999999999,0.00011063051669631897,-110.6308448715918,-297.08412567017672,0,0,0,0,1,0,0,0
1.1140600000000001,0.00012054292903975222,-120.54325797120987,-297.65893489206672,0,0,0,0,1,0,0,0
1.11408,0.00013047430558384428,-130.47463525879763,-298.2219930488705,0,0,0,0,1,0,0,0
1.1140999999999999,0.00014042425425406422,-140.42458465979473,-298.77327791202168,0,0,0,0,1,0,0,0
1.11412,0.0001503923822426841,-150.39271336644441,-299.31276771775748,0,0,0,0,1,0,0,0
1.1141399999999999,0.00016037829602428853,-160.37862785330304,-299.84044116791961,0,0,0,0,1,0,0,0
1.11416,0.00017038160137130941,-170.3819338927745,-300.35627743087821,0,0,0,0,1,0,0,0
1.1141799999999999,0.00018040190336958957,-180.4022365706744,-300.86025614229152,0,0,0,0,1,0,0,0
1.1141999999999999,0.0001904388064339726,-190.43914030181955,-301.35235740594766,0,0,0,0,1,0,0,0
1.11422,0.00020049191432392057,-200.49224884564561,-301.83256179453571,0,0,0,0,1,0,0,0
1.1142399999999999,0.00021056083015915723,-210.56116532185044,-302.30085035039997,0,0,0,0,1,0,0,0
1.11426,0.00022064515643533479,-220.64549222606107,-302.75720458631849,0,0,0,0,1,0,0,0
1.1142799999999999,0.00023074449503972865,-230.74483144552804,-303.20160648619924,0,0,0,0,1,0,0,0
1.1142999999999998,0.00024085844726695282,-240.85878427484116,-303.63403850582029,0,0,0,0,1,0,0,0
1.11432,0.00025098661383470022,-250.98695143166944,-304.05448357350974,0,0,0,0,1,0,0,0
1.1143399999999999,0.0002611285948995064,-261.1289330725254,-304.4629250908086,0,0,0,0,1,0,0,0
1.11436,0.00027128399007253382,-271.28432880854854,-304.85934693315261,0,0,0,0,1,0,0,0
1.1143799999999999,0.00028145239843537949,-281.45273772131372,-305.24373345047889,0,0,0,0,1,0,0,0
1.1144000000000001,0.00029163341855590122,-291.63375837865709,-305.61606946787293,0,0,0,0,1,0,0,0
1.11442,0.00030182664850406674,-301.82698885052514,-305.97634028613965,0,0,0,0,1,0,0,0
1.1144399999999999,0.00031203168586781984,-312.03202672484099,-306.32453168240733,0,0,0,0,1,0,0,0
1.11446,0.00032224812776896909,-322.24846912339285,-306.66062991067889,0,0,0,0,1,0,0,0
1.1144799999999999,0.00033247557087909149,-332.47591271773854,-306.9846217023657,0,0,0,0,1,0,0,0
1.1145,0.00034271361143545351,-342.71395374512497,-307.29649426683244,0,0,0,0,1,0,0,0
1.11452,0.00035296184525695357,-352.96218802443229,-307.5962352918786,0,0,0,0,1,0,0,0
1.1145399999999999,0.00036321986776007757,-363.2202109721282,-307.88383294424466,0,0,0,0,1,0,0,0
1.11456,0.00037348727397487153,-373.48761761824107,-308.15927587007013,0,0,0,0,1,0,0,0
1.1145799999999999,0.00038376365856092651,-383.76400262234512,-308.42255319533507,0,0,0,0,1,0,0,0
1.1146,0.00039404861582338554,-394.04896028956659,-308.67365452630617,0,0,0,0,1,0,0,0
1.1146199999999999,0.000404341739728956,-404.3420845865972,-308.91256994992824,0,0,0,0,1,0,0,0
1.1146399999999999,0.00041464262392193756,-414.64296915772104,-309.13929003423186,0,0,0,0,1,0,0,0
1.11466,0.00042495086174027262,-424.95120734086555,-309.35380582870005,0,0,0,0,1,0,0,0
1.1146799999999999,0.00043526604623159019,-435.26639218364539,-309.55610886460698,0,0,0,0,1,0,0,0
1.1147,0.00044558777016927921,-445.58811645943547,-309.74619115538621,0,0,0,0,1,0,0,0
1.1147199999999999,0.0004559156260685595,-455.91597268344259,-309.92404519690564,0,0,0,0,1,0,0,0
1.1147399999999998,0.0004662492062025764,-466.24955312879899,-310.08966396779579,0,0,0,0,1,0,0,0
1.11476,0.00047658810261848691,-476.58844984264937,-310.24304092971238,0,0,0,0,1,0,0,0
1.1147799999999999,0.00048693190715357472,-486.93225466226579,-310.38417002759297,0,0,0,0,1,0,0,0
1.1148,0.00049728021145135502,-497.28055923115227,-310.51304568990486,0,0,0,0,1,0,0,0
1.1148199999999999,0.00050763260697770437,-507.6329550151745,-310.62966282885532,0,0,0,0,1,0,0,0
1.1148390107395263,0.00050763260697770437,-507.6329550151745,-310.62966282885532,0,0,0,0,1,0,0,0
