"Time / s","Vo:Measured voltage","IL:Measured current","Vin:Measured voltage","open1:Output","open3:Output","open2:Output","open4:Output","short1:Output","short2:Output","short3:Output","short4:Output"
1.1071218072577111,411.51146056397539,10.187818885769708,244.63554822624192,0,0,0,0,0,0,0,0
1.10714,411.53925319939401,10.090255963247369,243.42289298656237,0,0,0,0,0,0,0,0
1.1071599999999999,411.56489230880385,9.9515912484064923,242.2006278278964,0,0,0,0,0,0,0,0
1.1071800000000001,411.58526851946306,9.9087306023562789,240.96880100314655,0,0,0,0,0,0,0,0
1.1072,411.60374925017373,9.8928586362804261,239.72746114274895,0,0,0,0,0,0,0,0
1.1072199999999999,411.62117126024373,9.9036934932590484,238.47665725266467,0,0,0,0,0,0,0,0
1.10724,411.63841055755194,9.8723431827905905,237.21643871247809,0,0,0,0,0,0,0,0
1.1072599999999999,411.65472331538871,9.7985113542975828,235.94685527348224,0,0,0,0,0,0,0,0
1.10728,411.66936092259505,9.6819177894625383,234.66795705663441,0,0,0,0,0,0,0,0
1.1073,411.68025494802731,9.5908978697382228,233.3797945506694,0,0,0,0,0,0,0,0
1.1073199999999999,411.68748820207645,9.5938188211007596,232.08241861002585,0,0,0,0,0,0,0,0
1.10734,411.69440286911248,9.5532095866224527,230.77588045287257,0,0,0,0,0,0,0,0
1.1073599999999999,411.69985436572586,9.5373915688849582,229.46023165912243,0,0,0,0,0,0,0,0
1.10738,411.70466548159101,9.4774762398352888,228.13552416831328,0,0,0,0,0,0,0,0
1.1073999999999999,411.70808594758313,9.3731879521673989,226.80181027765261,0,0,0,0,0,0,0,0
1.1074199999999998,411.70936123600694,9.2242668922020385,225.4591426398691,0,0,0,0,0,0,0,0
1.10744,411.70485934106262,9.2362890256998558,224.10757426116987,0,0,0,0,0,0,0,0
1.1074599999999999,411.69979908500602,9.2718024757195021,222.74715849918474,0,0,0,0,0,0,0,0
1.10748,411.69495444735696,9.2619082540541395,221.37794906077391,0,0,0,0,0,0,0,0
1.1074999999999999,411.68958014520132,9.2063239434565691,220.00000000000631,0,0,0,0,0,0,0,0
1.1075200000000001,411.68292668230464,9.1047824297560389,218.61336571592656,0,0,0,0,0,0,0,0
1.10754,411.67424060175631,8.9570319845382347,217.21810095050697,0,0,0,0,0,0,0,0
1.1075599999999999,411.66090199861151,8.900035218538827,215.81426078639885,0,0,0,0,0,0,0,0
1.10758,411.6453666156437,8.864957748817238,214.40190064479535,0,0,0,0,0,0,0,0
1.1075999999999999,411.62853424763949,8.8515448940854835,212.98107628328208,0,0,0,0,0,0,0,0
1.10762,411.61112923501241,8.7909326754249228,211.55184379354625,0,0,0,0,0,0,0,0
1.10764,411.59240617858137,8.6828657154761988,210.11425959926518,0,0,0,0,0,0,0,0
1.1076599999999999,411.57161605505621,8.527103514839105,208.66838045378847,0,0,0,0,0,0,0,0
1.10768,411.54536879901224,8.5291639403605153,207.21426343792257,0,0,0,0,0,0,0,0
1.1076999999999999,411.5184307926848,8.5516431585703732,205.75196595778337,0,0,0,0,0,0,0,0
1.10772,411.49148073490437,8.5256920912329672,204.2815457422922,0,0,0,0,0,0,0,0
1.1077399999999999,411.46378304500797,8.4510553669588244,202.80306084118769,0,0,0,0,0,0,0,0
1.1077599999999999,411.43459866024358,8.3274918850272321,201.31656962249573,0,0,0,0,0,0,0,0
1.10778,411.40207827771093,8.2233302213167079,199.82213077033074,0,0,0,0,0,0,0,0
1.1077999999999999,411.36705184759984,8.1383491301205808,198.31980328260678,0,0,0,0,0,0,0,0
1.10782,411.32921949088421,8.1408566373200593,196.80964646861347,0,0,0,0,0,0,0,0
1.1078399999999999,411.29107937321419,8.0935067868192725,195.29171994678342,0,0,0,0,0,0,0,0
1.1078599999999998,411.251904817661,7.9960609832762035,193.76608364224285,0,0,0,0,0,0,0,0
1.10788,411.21096605204991,7.8482943259594524,192.23279778448693,0,0,0,0,0,0,0,0
1.1078999999999999,411.16511376050317,7.8555520353432531,190.6919229050437,0,0,0,0,0,0,0,0
1.10792,411.11867778558775,7.8805498522299962,189.14351983498699,0,0,0,0,0,0,0,0
1.1079399999999999,411.0722561023656,7.8545208658234076,187.58764970264687,0,0,0,0,0,0,0,0
1.1079600000000001,411.02513593276103,7.7772316454538384,186.02437393108386,0,0,0,0,0,0,0,0
1.10798,410.97660160607319,7.6484618052819879,184.45375423577696,0,0,0,0,0,0,0,0
1.1079999999999999,410.92492973848135,7.5364810152217849,182.8758526220883,0,0,0,0,0,0,0,0
1.10802,410.87005491142838,7.5095473181004415,181.29073138285744,0,0,0,0,0,0,0,0
1.1080399999999999,410.81415234468244,7.4989481390106816,179.6984530959854,0,0,0,0,0,0,0,0
1.10806,410.75778441620213,7.4359840927587166,178.09908062186369,0,0,0,0,0,0,0,0
1.10808,410.70025181374035,7.3204415040723259,176.49267710100801,0,0,0,0,0,0,0,0
1.1080999999999999,410.64085272404594,7.1521191208425527,174.87930595146432,0,0,0,0,0,0,0,0
1.10812,410.57670117493672,7.13609350834155,173.25903086634835,0,0,0,0,0,0,0,0
1.1081399999999999,410.51170642122679,7.135277962423368,171.63191581137545,0,0,0,0,0,0,0,0
1.10816,410.44638962428348,7.0810290029628744,169.99802502223247,0,0,0,0,0,0,0,0
1.1081799999999999,410.38006966962922,6.9731414712623359,168.35742300215963,0,0,0,0,0,0,0,0
1.1081999999999999,410.31206316466955,6.8114219534041558,166.71017451930086,0,0,0,0,0,0,0,0
1.10822,410.2396114198562,6.8007870928699097,165.05634460419066,0,0,0,0,0,0,0,0
1.1082399999999999,410.16641525460977,6.8042600911486133,163.39599854723215,0,0,0,0,0,0,0,0
1.10826,410.09296240192879,6.7532623537637892,161.72920189599964,0,0,0,0,0,0,0,0
1.1082799999999999,410.01859165167491,6.6475986995577845,160.05602045284633,0,0,0,0,0,0,0,0
1.1082999999999998,409.94263974562563,6.4870850128558022,158.3765202720503,0,0,0,0,0,0,0,0
1.10832,409.86247062811969,6.476459369192332,156.69076765738743,0,0,0,0,0,0,0,0
1.1083399999999999,409.78158604960157,6.4788702457634937,154.99882915954552,0,0,0,0,0,0,0,0
1.10836,409.70044398795676,6.4258118693591939,153.30077157331357,0,0,0,0,0,0,0,0
1.1083799999999999,409.61840486684525,6.3171001804576212,151.59666193512822,0,0,0,0,0,0,0,0
1.1084000000000001,409.53482729272196,6.1525615079717095,149.88656752028933,0,0,0,0,0,0,0,0
1.10842,409.44763220702077,6.0685007395467503,148.17055584042711,0,0,0,0,0,0,0,0
1.1084399999999999,409.35852530699532,6.0646930034956492,146.448694640729,0,0,0,0,0,0,0,0
1.10846,409.26910626261048,6.0044708483062932,144.72105189731118,0,0,0,0,0,0,0,0
1.1084799999999999,409.17875894160562,5.8876621869085231,142.98769581458225,0,0,0,0,0,0,0,0
1.1085,409.08686562094721,5.7141046483888029,141.248694822441,0,0,0,0,0,0,0,0
1.1085199999999999,408.99082996864655,5.7562864730110563,139.5041175737004,0,0,0,0,0,0,0,0
1.1085399999999999,408.89497394563119,5.741307702685166,137.75403294126738,0,0,0,0,0,0,0,0
1.10856,408.79870780155363,5.6689998079885049,135.99851001547063,0,0,0,0,0,0,0,0
1.1085799999999999,408.70144031977821,5.5392032944099494,134.23761810138112,0,0,0,0,0,0,0,0
1.1086,408.60198919227577,5.419862348070497,132.47142671596464,0,0,0,0,0,0,0,0
1.1086199999999999,408.5001363222878,5.3788694024686459,130.70000558546479,0,0,0,0,0,0,0,0
1.1086399999999998,408.39727207671342,5.3479280180262814,128.92342464253875,0,0,0,0,0,0,0,0
1.10866,408.29386771722636,5.2587955681074865,127.14175402354398,0,0,0,0,0,0,0,0
1.1086799999999999,408.18935856929704,5.1113255473993835,125.35506406581807,0,0,0,0,0,0,0,0
1.1087,408.08240234250974,5.04140008783473,123.56342530478888,0,0,0,0,0,0,0,0
1.1087199999999999,407.97391565114185,4.9807933167571976,121.76690847131935,0,0,0,0,0,0,0,0
1.1087400000000001,407.86431344116966,4.9293244014090023,119.96558448878544,0,0,0,0,0,0,0,0
1.10876,407.75401960837155,4.8188502558920723,118.15952447040621,0,0,0,0,0,0,0,0
1.1087799999999999,407.64175035250224,4.7851115388157845,116.34879971632245,0,0,0,0,0,0,0,0
1.1088,407.52896795162258,4.6920410006878415,114.53348171083051,0,0,0,0,0,0,0,0
1.1088199999999999,407.41424923253118,4.6753047520116198,112.71364211960982,0,0,0,0,0,0,0,0
1.10884,407.29918162463758,4.5989160373547229,110.88935278676189,0,0,0,0,0,0,0,0
1.10886,407.18325867543257,4.4627476831388897,109.06068573217193,0,0,0,0,0,0,0,0
1.1088799999999999,407.0652832543135,4.4023623976791413,107.22771314846771,0,0,0,0,0,0,0,0
1.1089,406.94661412606132,4.2818938880313357,105.39050739820183,0,0,0,0,0,0,0,0
1.1089199999999999,406.82595618906805,4.2368269834073518,103.54914101119458,0,0,0,0,0,0,0,0
1.10894,406.70428607168066,4.1991590183346679,101.70368668138804,0,0,0,0,0,0,0,0
1.1089599999999999,406.58193028084412,4.1687241759527085,99.854217264192627,0,0,0,0,0,0,0,0
1.1089799999999999,406.4591617415806,4.0776107461582516,98.000805773477467,0,0,0,0,0,0,0,0
1.109,406.33552059408407,3.9257090844043634,96.143525378737834,0,0,0,0,0,0,0,0
1.1090199999999999,406.20982453610583,3.8483131676857241,94.282449402257143,0,0,0,0,0,0,0,0
1.10904,406.08277756349224,3.8452112438422192,92.417651316094606,0,0,0,0,0,0,0,0
1.1090599999999999,405.9555448671274,3.780871555263376,90.549204739319364,0,0,0,0,0,0,0,0
1.1090799999999998,405.82769943414155,3.6551925059828538,88.677183434986105,0,0,0,0,0,0,0,0
1.1091,405.69836990540557,3.5356904193370093,86.801661307273548,0,0,0,0,0,0,0,0
1.1091199999999999,405.56728118642155,3.5574049040149949,84.922712398617819,0,0,0,0,0,0,0,0
1.10914,405.43618481660781,3.5173515636203287,83.040410886670543,0,0,0,0,0,0,0,0
1.1091599999999999,405.30468750892283,3.4154375906156038,81.154831081506444,0,0,0,0,0,0,0,0
1.1091800000000001,405.17239555146932,3.2515754348911785,79.266047422553513,0,0,0,0,0,0,0,0
1.1092,405.03817548994277,3.1606890100386305,77.374134475790655,0,0,0,0,0,0,0,0
1.1092199999999999,404.90292018860464,3.1425843507908486,75.479166930684443,0,0,0,0,0,0,0,0
1.10924,404.76743339175874,3.0621347482607257,73.581219597291692,0,0,0,0,0,0,0,0
1.1092599999999999,404.63135607199524,2.9192615714720995,71.68036740335765,0,0,0,0,0,0,0,0
1.10928,404.49401786353576,2.7813041196591226,69.776685391237748,0,0,0,0,0,0,0,0
1.1093,404.35515949894886,2.7829150571769734,67.870248715072663,0,0,0,0,0,0,0,0
1.1093199999999999,404.21620114402594,2.7217285151268249,65.9611326377008,0,0,0,0,0,0,0,0
1.10934,404.07681921670172,2.5976753030064934,64.049412527738681,0,0,0,0,0,0,0,0
1.1093599999999999,403.93628292291839,2.545334390157389,62.135163856657414,0,0,0,0,0,0,0,0
1.10938,403.79539326554601,2.4299179419266896,60.218462195682207,0,0,0,0,0,0,0,0
1.1093999999999999,403.65341687739635,2.3859148024425743,58.299383212947383,0,0,0,0,0,0,0,0
1.1094199999999999,403.51115124437445,2.2786357430720647,56.378002670387865,0,0,0,0,0,0,0,0
1.10944,403.36794866870878,2.242480366130593,54.454396420782714,0,0,0,0,0,0,0,0
1.1094599999999999,403.22451237914157,2.142856942890119,52.52864040489996,0,0,0,0,0,0,0,0
1.10948,403.08032391730654,2.0468929991575289,50.600810648185174,0,0,0,0,0,0,0,0
1.1094999999999999,402.93555806236145,1.9544778861154775,48.670983258143337,0,0,0,0,0,0,0,0
1.1095199999999998,402.79004771124488,1.9326301259098624,46.739234421020555,0,0,0,0,0,0,0,0
1.10954,402.6443970218167,1.8469578033092691,44.805640398935729,0,0,0,0,0,0,0,0
1.1095599999999999,402.49816007762837,1.76450180829353,42.870277526905006,0,0,0,0,0,0,0,0
1.10958,402.35148420728683,1.685159783768361,40.933222209705676,0,0,0,0,0,0,0,0
1.1095999999999999,402.2042168964274,1.6758615709217355,38.994550918999934,0,0,0,0,0,0,0,0
1.1096200000000001,402.05688002045611,1.6024184873954355,37.054340190175729,0,0,0,0,0,0,0,0
1.10964,401.90927921743889,1.4648002989263536,35.112666619465564,0,0,0,0,0,0,0,0
1.1096599999999999,401.76106969362081,1.3299393412553799,33.169606860799789,0,0,0,0,0,0,0,0
1.10968,401.61215643718447,1.3316161255173504,31.225237622833031,0,0,0,0,0,0,0,0
1.1096999999999999,401.46322556370922,1.2688663060832064,29.279635665968691,0,0,0,0,0,0,0,0
1.10972,401.31412089908093,1.141670088163609,27.332877799205413,0,0,0,0,0,0,0,0
1.1097399999999999,401.16457192528378,1.0168709837067389,25.385040877245622,0,0,0,0,0,0,0,0
1.1097599999999999,401.01457548474582,0.96122261139292264,23.43620179733816,0,0,0,0,0,0,0,0
1.10978,400.86441456260519,0.90776219642089051,21.486437496295306,0,0,0,0,0,0,0,0
1.1097999999999999,400.71415453681885,0.7896225765563919,19.535824947508416,0,0,0,0,0,0,0,0
1.10982,400.56356798412372,0.7403204072537527,17.584441157785637,0,0,0,0,0,0,0,0
1.1098399999999999,400.4129144592265,0.62623721711153268,15.63236316445299,0,0,0,0,0,0,0,0
1.1098599999999998,400.26201038768721,0.58079453273958626,13.679668032189507,0,0,0,0,0,0,0,0
1.10988,400.1110690826664,0.47047894065632206,11.72643285003779,0,0,0,0,0,0,0,0
1.1098999999999999,399.95995551088652,0.42861701887562559,9.7727347284136936,0,0,0,0,0,0,0,0
1.10992,399.80883144975547,0.3218003319750557,7.8186507959384466,0,0,0,0,0,0,0,0
1.1099399999999999,399.65761756179177,0.21664846147745245,5.8642581965351281,0,0,0,0,0,0,0,0
1.1099600000000001,399.50634748581359,0.17968855281501422,3.9096340862240631,0,0,0,0,0,0,0,0
1.10998,399.35509897318167,0.14423157753251098,1.9548556303066904,0,0,0,0,0,0,0,0
1.1099999999999999,399.20388708799732,0.043686669717058833,1.8598815560528056e-11,0,0,0,0,0,0,0,0
1.11002,399.05270212972761,0.011094695382456722,-1.9548556303048636,0,0,0,0,0,0,0,0
1.1100399999999999,398.9015744279954,-0.086636741170558376,-3.9096340862399206,0,0,0,0,0,0,0,0
1.11006,398.75052321338086,-0.18302156028198774,-5.8642581965333012,0,0,0,0,0,0,0,0
1.11008,398.59956145935502,-0.27810314244436446,-7.8186507959366205,0,0,0,0,0,0,0,0
1.1100999999999999,398.44869066982437,-0.43833433961677687,-9.7727347283941928,0,0,0,0,0,0,0,0
1.11012,398.29808288239877,-0.53091620053919142,-11.726432850035966,0,0,0,0,0,0,0,0
1.1101399999999999,398.14738221577045,-1.3679609305992395e-05,-13.679668032170014,0,1,0,0,0,0,0,0
1.11016,397.996597257492,-1.5632304436098566e-05,-15.632363164451165,0,1,0,0,0,0,0,0
1.1101799999999999,397.84586940457388,-1.7584382429574732e-05,-17.584441157783811,0,1,0,0,0,0,0,0
1.1101999999999999,397.69519869238189,-1.9535766221741971e-05,-19.535824947488944,0,1,0,0,0,0,0,0
1.11022,397.54458509876957,-2.1486378775326805e-05,-21.486437496293483,0,1,0,0,0,0,0,0
1.1102399999999999,397.39402854495677,-2.3436143083450735e-05,-23.436201797318706,0,1,0,0,0,0,0,0
1.11026,397.2435290093423,-2.5384982172792257e-05,-25.385040877243807,0,1,0,0,0,0,0,0
1.1102799999999999,397.09308647033248,-2.7332819106486121e-05,-27.332877799203594,0,1,0,0,0,0,0,0
1.1102999999999998,396.94270090634154,-2.9279576987283058e-05,-29.279635665949264,0,1,0,0,0,0,0,0
1.11032,396.79237229579172,-3.1225178960532605e-05,-31.225237622831219,0,1,0,0,0,0,0,0
1.1103399999999999,396.64210061711424,-3.3169548217165559e-05,-33.169606860780391,0,1,0,0,0,0,0,0
1.11036,396.49188584874832,-3.5112607996847454e-05,-35.112666619463752,0,1,0,0,0,0,0,0
1.1103799999999999,396.34172796914044,-3.7054281590870665e-05,-37.05434019017391,0,1,0,0,0,0,0,0
1.1104000000000001,396.19162695674618,-3.8994492345321433e-05,-38.994550918998122,0,1,0,0,0,0,0,0
1.11042,396.04158279002922,-4.0933163663966015e-05,-40.933222209703864,0,1,0,0,0,0,0,0
1.1104399999999999,395.89159544746076,-4.2870219011398062e-05,-42.87027752688568,0,1,0,0,0,0,0,0
1.11046,395.74166490752151,-4.4805581916006425e-05,-44.805640398933924,0,1,0,0,0,0,0,0
1.1104799999999999,395.59179114869846,-4.6739175972942795e-05,-46.739234421001264,0,1,0,0,0,0,0,0
1.1105,395.44197414948792,-4.8670924847259512e-05,-48.670983258141533,0,1,0,0,0,0,0,0
1.11052,395.2922138883938,-5.0600752276783764e-05,-50.600810648183369,0,1,0,0,0,0,0,0
1.1105399999999999,395.14251034392913,-5.2528582075250618e-05,-52.528640404863303,0,1,0,0,0,0,0,0
1.11056,394.99286349461443,-5.4454338135257706e-05,-54.454396420780917,0,1,0,0,0,0,0,0
1.1105799999999999,394.84327331897788,-5.6377944431218647e-05,-56.378002670351279,0,1,0,0,0,0,0,0
1.1106,394.6937397955561,-5.8299325022502617e-05,-58.299383212945585,0,1,0,0,0,0,0,0
1.1106199999999999,394.54426290289427,-6.0218404056224479e-05,-60.218462195680416,0,1,0,0,0,0,0,0
1.1106399999999998,394.39484261954533,-6.2135105770447509e-05,-62.135163856620977,0,1,0,0,0,0,0,0
1.11066,394.24547892407105,-6.404935449713863e-05,-64.049412527736891,0,1,0,0,0,0,0,0
1.1106799999999999,394.09617179503999,-6.5961074664949951e-05,-65.961132637681743,0,1,0,0,0,0,0,0
1.1107,393.94692121102946,-6.7870190802494016e-05,-67.870248715070886,0,1,0,0,0,0,0,0
1.1107199999999999,393.79772715062495,-6.9776627541100428e-05,-69.776685391235972,0,1,0,0,0,0,0,0
1.1107400000000001,393.64858959242099,-7.1680309617945463e-05,-71.680367403355874,0,1,0,0,0,0,0,0
1.11076,393.49950851501825,-7.3581161878885905e-05,-73.581219597289916,0,1,0,0,0,0,0,0
1.1107799999999999,393.35048389702678,-7.5479109281546648e-05,-75.479166930665514,0,1,0,0,0,0,0,0
1.1108,393.20151571706458,-7.7374076898230833e-05,-77.374134475788878,0,1,0,0,0,0,0,0
1.1108199999999999,393.05260395375763,-7.926598991882769e-05,-79.26604742255175,0,1,0,0,0,0,0,0
1.11084,392.90374858574006,-8.115477365388476e-05,-81.154831081504682,0,1,0,0,0,0,0,0
1.11086,392.75494959165354,-8.3040353537420142e-05,-83.040410886668781,0,1,0,0,0,0,0,0
1.1108799999999999,392.60620695014916,-8.4922655129985821e-05,-84.922712398599046,0,1,0,0,0,0,0,0
1.1109,392.45752063988488,-8.6801604121554686e-05,-86.801661307271814,0,1,0,0,0,0,0,0
1.1109199999999999,392.30889063952725,-8.867712633440407e-05,-88.677183434967404,0,1,0,0,0,0,0,0
1.11094,392.16031692775078,-9.054914772616232e-05,-90.549204739317631,0,1,0,0,0,0,0,0
1.1109599999999999,392.01179948323812,-9.241759439259636e-05,-92.417651316092872,0,1,0,0,0,0,0,0
1.1109799999999999,391.86333828468003,-9.4282392570648274e-05,-94.282449402238541,0,1,0,0,0,0,0,0
1.111,391.71493331077545,-9.6143468641295384e-05,-96.143525378736086,0,1,0,0,0,0,0,0
1.1110199999999999,391.56658454023051,-9.8000749132407891e-05,-98.00080577345895,0,1,0,0,0,0,0,0
1.11104,391.41829195176024,-9.9854160721765388e-05,-99.854217264190893,0,1,0,0,0,0,0,0
1.1110599999999999,391.2700555240886,-0.00010170363023981864,-101.7036866813863,0,1,0,0,0,0,0,0
1.1110799999999998,391.1218752359452,-0.00010354908467269467,-103.54914101117616,0,1,0,0,0,0,0,0
1.1111,390.97375106606989,-0.00010539045116502874,-105.39050739820013,0,1,0,0,0,0,0,0
1.1111199999999999,390.82568299320945,-0.00010722765702279172,-107.2277131484328,0,1,0,0,0,0,0,0
1.1111218072577109,390.82568299320945,-0.00010722765702279172,-107.2277131484328,0,1,0,0,0,0,0,0
