"Time / s","Vo:Measured voltage","IL:Measured current","Vin:Measured voltage","open1:Output","open3:Output","open2:Output","open4:Output","short1:Output","short2:Output","short3:Output","short4:Output"
1.1723882937693115,387.70586930229746,-8.6284289344257843,-211.55184379354313,0,0,0,0,0,0,0,0
1.1723999999999999,387.7014202908818,-8.7240246640885175,-212.98107628326608,0,0,0,0,0,0,0,0
1.17242,387.69892964996075,-8.86716691581017,-214.40190064479228,0,0,0,0,0,0,0,0
1.1724399999999999,387.70134159552197,-8.9283158379929315,-215.81426078638304,0,0,0,0,0,0,0,0
1.1724600000000001,387.70623558477837,-8.9071173868455418,-217.2181009505039,0,0,0,0,0,0,0,0
1.17248,387.71116656640396,-8.9324801597155172,-218.61336571592352,0,0,0,0,0,0,0,0
1.1724999999999999,387.71692195186188,-9.0041025351860569,-219.99999999999079,0,0,0,0,0,0,0,0
1.17252,387.72428359726297,-9.1216664599392345,-221.3779490607709,0,0,0,0,0,0,0,0
1.1725399999999999,387.73402752768959,-9.2848375688266493,-222.74715849916942,0,0,0,0,0,0,0,0
1.17256,387.74964435447845,-9.2994272607920827,-224.10757426116695,0,0,0,0,0,0,0,0
1.17258,387.76658204413872,-9.2942901143207983,-225.45914263985398,0,0,0,0,0,0,0,0
1.1725999999999999,387.78381797520586,-9.3337256592992794,-226.80181027763757,0,0,0,0,0,0,0,0
1.17262,387.80213250440414,-9.4174167822252013,-228.13552416831038,0,0,0,0,0,0,0,0
1.1726399999999999,387.82229997303563,-9.5450296249578344,-229.46023165910762,0,0,0,0,0,0,0,0
1.17266,387.84741919372675,-9.5869578885838962,-230.77588045288155,0,0,0,0,0,0,0,0
1.1726799999999999,387.87481622500536,-9.5428077267302402,-232.08241861001125,0,0,0,0,0,0,0,0
1.1726999999999999,387.90179294123988,-9.541516957724502,-233.37979455065491,0,0,0,0,0,0,0,0
1.17272,387.92912579328026,-9.5827742568893903,-234.66795705664316,0,0,0,0,0,0,0,0
1.1727399999999999,387.95758512255526,-9.6662511725454063,-235.94685527347949,0,0,0,0,0,0,0,0
1.17276,387.98793485330611,-9.7916022657137116,-237.21643871248682,0,0,0,0,0,0,0,0
1.1727799999999999,388.02201196775178,-9.893807561703758,-238.47665725266194,0,0,0,0,0,0,0,0
1.1727999999999998,388.06013203558712,-9.9078122107951696,-239.72746114274622,0,0,0,0,0,0,0,0
1.17282,388.09958785543796,-9.8978900699812904,-240.96880100315502,0,0,0,0,0,0,0,0
1.1728399999999999,388.13922469339911,-9.9283703094625242,-242.2006278278937,0,0,0,0,0,0,0,0
1.17286,388.17979827819397,-9.998918357630842,-243.42289298657073,0,0,0,0,0,0,0,0
1.1728799999999999,388.22205760649609,-10.1091825222354,-244.63554822622839,0,0,0,0,0,0,0,0
1.1729000000000001,388.2678629792033,-10.194095979864086,-245.83854567333611,0,0,0,0,0,0,0,0
1.17292,388.31613475887298,-10.253254651009254,-247.03183783559285,0,0,0,0,0,0,0,0
1.1729399999999999,388.3679714799411,-10.221561192143872,-248.21537760387818,0,0,0,0,0,0,0,0
1.17296,388.41954692348156,-10.22805571604709,-249.38911825407916,0,0,0,0,0,0,0,0
1.1729799999999999,388.47159843247914,-10.272403945618167,-250.55301344890344,0,0,0,0,0,0,0,0
1.173,388.52485642228697,-10.354254450120759,-251.70701723978269,0,0,0,0,0,0,0,0
1.17302,388.58004405223983,-10.473238811515893,-252.85108406860238,0,0,0,0,0,0,0,0
1.1730399999999999,388.63904342173436,-10.564212377390639,-253.98516876957353,0,0,0,0,0,0,0,0
1.17306,388.70068837727734,-10.626749072678781,-255.10922657098411,0,0,0,0,0,0,0,0
1.1730799999999999,388.76604824797062,-10.595666001080824,-256.22321309693649,0,0,0,0,0,0,0,0
1.1731,388.83111953366819,-10.600115492336775,-257.32708436917022,0,0,0,0,0,0,0,0
1.1731199999999999,388.89660943804648,-10.639754192003087,-258.42079680871774,0,0,0,0,0,0,0,0
1.1731399999999998,388.96321786196961,-10.714221860790765,-259.50430723769455,0,0,0,0,0,0,0,0
1.17316,389.03163707040773,-10.823141554198356,-260.57757288097389,0,0,0,0,0,0,0,0
1.1731799999999999,389.10430433033031,-10.836446873908264,-261.64055136784651,0,0,0,0,0,0,0,0
1.1732,389.17755696203864,-10.883381353215785,-262.69320073376105,0,0,0,0,0,0,0,0
1.1732199999999999,389.25350018862139,-10.898716027154641,-263.73547942190396,0,0,0,0,0,0,0,0
1.1732399999999998,389.33082298549147,-10.882027075616561,-264.76734628490681,0,0,0,0,0,0,0,0
1.17326,389.40810940483078,-10.897808731977074,-265.78876058644198,0,0,0,0,0,0,0,0
1.1732799999999999,389.48602473510465,-10.945701729231311,-266.79968200280319,0,0,0,0,0,0,0,0
1.1733,389.56522644293631,-11.025330510489496,-267.80007062457128,0,0,0,0,0,0,0,0
1.1733199999999999,389.64636384247723,-11.136303425588375,-268.78988695808022,0,0,0,0,0,0,0,0
1.17334,389.7318904641985,-11.148332065351612,-269.76909192710286,0,0,0,0,0,0,0,0
1.17336,389.8179562301201,-11.190848623327922,-270.7376468742861,0,0,0,0,0,0,0,0
1.1733799999999999,389.90519435286035,-11.26347463080927,-271.69551356274798,0,0,0,0,0,0,0,0
1.1734,389.99647807175404,-11.235847955226429,-272.64265417756019,0,0,0,0,0,0,0,0
1.1734199999999999,390.0874537154819,-11.237489554135589,-273.57903132721594,0,0,0,0,0,0,0,0
1.17344,390.17873829404886,-11.268037093072342,-274.50460804516564,0,0,0,0,0,0,0,0
1.1734599999999999,390.2709407346639,-11.327112746230494,-275.41934779120862,0,0,0,0,0,0,0,0
1.1734799999999999,390.36466155845335,-11.414323404616789,-276.32321445299425,0,0,0,0,0,0,0,0
1.1735,390.46177618759452,-11.464199181279279,-277.21617234742257,0,0,0,0,0,0,0,0
1.1735199999999999,390.56079660116296,-11.47627728510238,-278.09818622202869,0,0,0,0,0,0,0,0
1.17354,390.66032960589456,-11.515222140300841,-278.96922125643107,0,0,0,0,0,0,0,0
1.1735599999999999,390.76094878466552,-11.580645696465659,-279.8292430636422,0,0,0,0,0,0,0,0
1.1735799999999998,390.86472392260993,-11.607018135386136,-280.67821769148168,0,0,0,0,0,0,0,0
1.1736,390.96931131173551,-11.659019598789872,-281.51611162389241,0,0,0,0,0,0,0,0
1.1736199999999999,391.07606255956978,-11.671087551082042,-282.34289178224145,0,0,0,0,0,0,0,0
1.17364,391.18330902330001,-11.707960035424858,-283.15852552667883,0,0,0,0,0,0,0,0
1.1736599999999999,391.29158732841995,-11.769244326961232,-283.96298065736613,0,0,0,0,0,0,0,0
1.1736800000000001,391.40203488918218,-11.789316481427235,-284.7562254158068,0,0,0,0,0,0,0,0
1.1737,391.51446401139896,-11.76772724573731,-285.53822848604165,0,0,0,0,0,0,0,0
1.1737199999999999,391.62663025271337,-11.769286393165579,-286.30895899593571,0,0,0,0,0,0,0,0
1.17374,391.73904152103808,-11.793615796124106,-287.06838651837506,0,0,0,0,0,0,0,0
1.1737599999999999,391.85219702216745,-11.84032410104493,-287.81648107244763,0,0,0,0,0,0,0,0
1.17378,391.96658697310005,-11.909006959704154,-288.55321312467487,0,0,0,0,0,0,0,0
1.1738,392.08269232066226,-11.999247267475459,-289.27855359012352,0,0,0,0,0,0,0,0
1.1738199999999999,392.20335392587191,-11.979914395486313,-289.9924738336008,0,0,0,0,0,0,0,0
1.17384,392.32376933174777,-11.981216628073307,-290.69494567077049,0,0,0,0,0,0,0,0
1.1738599999999999,392.44439697946189,-12.002770516423732,-291.38594136921563,0,0,0,0,0,0,0,0
1.17388,392.56568640372222,-12.044180529697336,-292.06543364964676,0,0,0,0,0,0,0,0
1.1738999999999999,392.68807796793482,-12.105039294153558,-292.73339568684122,0,0,0,0,0,0,0,0
1.1739199999999999,392.81337353434435,-12.119475280298829,-293.38980111081389,0,0,0,0,0,0,0,0
1.17394,392.93978269233349,-12.087006919155073,-294.03462400780842,0,0,0,0,0,0,0,0
1.1739599999999999,393.06425172424133,-12.138183792197461,-294.66783892130923,0,0,0,0,0,0,0,0
1.17398,393.19140149550714,-12.141646978279347,-295.28942085308722,0,0,0,0,0,0,0,0
1.1739999999999999,393.31877997596206,-12.16245357590115,-295.89934526414089,0,0,0,0,0,0,0,0
1.1740199999999998,393.44677662878291,-12.200202563829375,-296.49758807570441,0,0,0,0,0,0,0,0
1.17404,393.57577153881851,-12.254482539905538,-297.08412567018121,0,0,0,0,0,0,0,0
1.1740599999999999,393.706135183127,-12.324871974627316,-297.65893489206087,0,0,0,0,0,0,0,0
1.17408,393.83822820742665,-12.410939470402221,-298.22199304886976,0,0,0,0,0,0,0,0
1.1740999999999999,393.97400159163493,-12.446599787543711,-298.77327791202595,0,0,0,0,0,0,0,0
1.1741200000000001,394.11155225287592,-12.431339683508105,-299.31276771775686,0,0,0,0,0,0,0,0
1.17414,394.24886552201235,-12.430385457108954,-299.84044116791898,0,0,0,0,0,0,0,0
1.1741599999999999,394.38626636756715,-12.443343630090194,-300.35627743087292,0,0,0,0,0,0,0,0
1.17418,394.52407047330337,-12.469811954076061,-300.86025614229089,0,0,0,0,0,0,0,0
1.1741999999999999,394.6639989035055,-12.443619205108282,-301.35235740594709,0,0,0,0,0,0,0,0
1.17422,394.80341558221244,-12.430072164920725,-301.83256179453514,0,0,0,0,0,0,0,0
1.17424,394.94260928532447,-12.42878232589638,-302.30085035039934,0,0,0,0,0,0,0,0
1.1742599999999999,395.08185958338038,-12.439353340280308,-302.75720458631383,0,0,0,0,0,0,0,0
1.17428,395.22143666625823,-12.461381273461182,-303.20160648619867,0,0,0,0,0,0,0,0
1.1742999999999999,395.36083510073684,-12.494455948296643,-303.63403850581977,0,0,0,0,0,0,0,0
1.17432,395.50248628077247,-12.472277288917466,-304.05448357350923,0,0,0,0,0,0,0,0
1.1743399999999999,395.64368621164994,-12.460285367230385,-304.46292509080814,0,0,0,0,0,0,0,0
1.1743599999999998,395.78402584522831,-12.524033754069301,-304.85934693314857,0,0,0,0,0,0,0,0
1.17438,395.92655235874446,-12.53122286486748,-305.24373345047843,0,0,0,0,0,0,0,0
1.1743999999999999,396.06929800598357,-12.547362636639699,-305.61606946786918,0,0,0,0,0,0,0,0
1.17442,396.21246672439662,-12.572042206289574,-305.97634028614243,0,0,0,0,0,0,0,0
1.1744399999999999,396.35625272382771,-12.604845150571846,-306.32453168240693,0,0,0,0,0,0,0,0
1.1744599999999998,396.50084036359556,-12.645349753661105,-306.66062991067554,0,0,0,0,0,0,0,0
1.17448,396.64640403591153,-12.693129277792119,-306.9846217023682,0,0,0,0,0,0,0,0
1.1744999999999999,396.79310805567758,-12.747752236807395,-307.29649426683204,0,0,0,0,0,0,0,0
1.17452,396.94110655675013,-12.808782672446727,-307.59623529188087,0,0,0,0,0,0,0,0
1.1745399999999999,397.09054339471618,-12.875780433210938,-307.88383294424688,0,0,0,0,0,0,0,0
1.17456,397.24155205623202,-12.948301455631304,-308.15927587007229,0,0,0,0,0,0,0,0
1.17458,397.3967889668391,-12.893469092818879,-308.42255319533706,0,0,0,0,0,0,0,0
1.1745999999999999,397.54908307496902,-12.909434398932172,-308.67365452630582,0,0,0,0,0,0,0,0
1.17462,397.70339057949076,-12.863361293645371,-308.91256994993006,0,0,0,0,0,0,0,0
1.1746399999999999,397.85495708063416,-12.887345423702309,-309.13929003423357,0,0,0,0,0,0,0,0
1.17466,398.00871350091876,-12.848443077588893,-309.35380582869976,0,0,0,0,0,0,0,0
1.1746799999999999,398.15989080095449,-12.87884689969065,-309.55610886460852,0,0,0,0,0,0,0,0
1.1746999999999999,398.31339861948277,-12.845507012166168,-309.74619115538434,0,0,0,0,0,0,0,0
1.17472,398.46608681206817,-12.814321354248859,-309.92404519690547,0,0,0,0,0,0,0,0
1.1747399999999999,398.61715201541892,-12.851321602707582,-310.08966396779556,0,0,0,0,0,0,0,0
1.17476,398.76990163916008,-12.823278370331829,-310.24304092971221,0,0,0,0,0,0,0,0
1.1747799999999999,398.92030856134744,-12.862651840544746,-310.3841700275928,0,0,0,0,0,0,0,0
1.1747999999999998,399.07323100885407,-12.836132038543493,-310.51304568990361,0,0,0,0,0,0,0,0
1.17482,399.22383514366493,-12.876257657283809,-310.62966282885515,0,0,0,0,0,0,0,0
1.1748399999999999,399.37696456823397,-12.849616907147331,-310.73401684060042,0,0,0,0,0,0,0,0
1.17486,399.52939905205267,-12.822279797357975,-310.8261036054235,0,0,0,0,0,0,0,0
1.1748799999999999,399.68026938666947,-12.860451786755876,-310.90591948789501,0,0,0,0,0,0,0,0
1.1749000000000001,399.83281645703204,-12.830547484171406,-310.97346133702206,0,0,0,0,0,0,0,0
1.17492,399.98372866592518,-12.86538275127344,-311.02872648636674,0,0,0,0,0,0,0,0
1.1749399999999999,400.13459043836326,-12.897943793037873,-311.07171275415629,0,0,0,0,0,0,0,0
1.17496,400.28777232497549,-12.86112856331679,-311.10241844336679,0,0,0,0,0,0,0,0
1.1749799999999999,400.43913803504665,-12.887887108829325,-311.12084234178951,0,0,0,0,0,0,0,0
1.175,400.59024870420228,-12.91113483326116,-311.12698372208092,0,0,0,0,0,0,0,0
1.17502,400.74344663722059,-12.863699404475305,-311.12084234178957,0,0,0,0,0,0,0,0
1.1750399999999999,400.89456426826854,-12.878689214443035,-311.10241844336713,0,0,0,0,0,0,0,0
1.17506,401.04513633166425,-12.888950976784495,-311.07171275415652,0,0,0,0,0,0,0,0
1.1750799999999999,401.19583299767675,-12.894092306967593,-311.02872648636696,0,0,0,0,0,0,0,0
1.1751,401.34652916768897,-12.893702654555865,-310.97346133702177,0,0,0,0,0,0,0,0
1.1751199999999999,401.49787535033005,-12.887375977934525,-310.9059194878954,0,0,0,0,0,0,0,0
1.1751399999999999,401.64894157161928,-12.874687554790267,-310.82610360542395,0,0,0,0,0,0,0,0
1.17516,401.79793097814536,-12.922185962528616,-310.73401684060087,0,0,0,0,0,0,0,0
1.1751799999999999,401.94875438993245,-12.895596157005627,-310.62966282885571,0,0,0,0,0,0,0,0
1.1752,402.09794847673703,-12.928438064260799,-310.51304568990423,0,0,0,0,0,0,0,0
1.1752199999999999,402.2486244397906,-12.886324599526123,-310.38417002759348,0,0,0,0,0,0,0,0
1.1752399999999998,402.39730009682864,-12.902885344374345,-310.24304092971295,0,0,0,0,0,0,0,0
1.17526,402.54620465948057,-12.910717310906264,-310.08966396779641,0,0,0,0,0,0,0,0
1.1752799999999999,402.69512959929352,-12.909409801426099,-309.92404519690632,0,0,0,0,0,0,0,0
1.1753,402.84385695182561,-12.898557833016771,-309.7461911553853,0,0,0,0,0,0,0,0
1.1753199999999999,402.99215945652838,-12.877762393604986,-309.55610886460954,0,0,0,0,0,0,0,0
1.1753400000000001,403.13980070251705,-12.846630694332086,-309.35380582869897,0,0,0,0,0,0,0,0
1.17536,403.28653528012109,-12.804776418080154,-309.1392900342347,0,0,0,0,0,0,0,0
1.1753799999999999,403.43210893813443,-12.751819964005911,-308.91256994993125,0,0,0,0,0,0,0,0
1.1754,68.535294754813052,-19.033655337968238,-308.67365452630713,0,0,0,0,0,0,0,1
1.1754199999999999,3.3078406180513875,-29.324954397980683,-308.42255319533837,0,0,0,0,0,0,0,1
1.17544,0.15689775196989914,-39.601550320547787,-308.15927587007121,0,0,0,0,0,0,0,1
1.1754599999999999,0.0073959669159520403,-49.868967590922743,-307.8838329442483,0,0,0,0,0,0,0,1
1.1754799999999999,0.00040064079431357771,-60.127000634035824,-307.59623529188241,0,0,0,0,0,0,0,1
1.1755,8.2550525209102392e-05,-70.375244332494759,-307.29649426683363,0,0,0,0,0,0,0,1
1.1755199999999999,8.0612955372506482e-05,-80.613294063170926,-306.98462170236985,0,0,0,0,0,0,0,1
1.17554,9.084040724985739e-05,-90.840745711963237,-306.6606299106802,0,0,0,0,0,0,0,1
1.1755599999999999,0.00010105685726340518,-101.05719548349779,-306.32453168241176,0,0,0,0,0,0,0,1
1.1755799999999998,0.00011126190208544376,-111.26224005007811,-305.97634028614419,0,0,0,0,0,0,0,1
1.1756,0.00012145513883852468,-121.45547653426583,-305.61606946787106,0,0,0,0,0,0,0,1
1.1756199999999999,0.00013163616511136173,-131.6365025247853,-305.24373345048377,0,0,0,0,0,0,0,1
1.17564,0.00014180457897471766,-141.80491609241051,-304.85934693315056,0,0,0,0,0,0,0,1
1.1756599999999999,0.00015195997899727107,-151.96031580583167,-304.46292509081019,0,0,0,0,0,0,0,1
1.1756799999999998,0.00016210196426146565,-162.10230074750464,-304.05448357351133,0,0,0,0,0,0,0,1
1.1757,0.00017223013437933559,-172.23047052947646,-303.63403850582199,0,0,0,0,0,0,0,1
1.1757199999999999,0.00018234408950831431,-182.34442530919372,-303.20160648620094,0,0,0,0,0,0,0,1
1.17574,0.00019244343036701813,-192.44376580528655,-302.75720458631616,0,0,0,0,0,0,0,1
1.1757599999999999,0.00020252775825101019,-202.52809331333242,-302.30085035040173,0,0,0,0,0,0,0,1
1.17578,0.00021259667504854032,-212.59700972159595,-301.83256179453326,0,0,0,0,0,0,0,1
1.1758,0.00022264978325626058,-222.65011752674459,-301.35235740594953,0,0,0,0,0,0,0,1
1.1758199999999999,0.00023268668599492036,-232.68701984954367,-300.86025614229345,0,0,0,0,0,0,0,1
1.17584,0.00024270698702503262,-242.70732045052253,-300.35627743087554,0,0,0,0,0,0,0,1
1.1758599999999999,0.00025271029076251678,-252.71062374561754,-299.84044116792165,0,0,0,0,0,0,0,1
1.17588,0.00026269620229431767,-262.69653482179103,-299.31276771775475,0,0,0,0,0,0,0,1
1.1758999999999999,0.00027266432739399385,-272.66465945261945,-298.77327791202873,0,0,0,0,0,0,0,1
1.1759199999999999,0.00028261427253728114,-282.61460411385718,-298.22199304887266,0,0,0,0,0,0,0,1
1.17594,0.00029254564491762973,-292.54597599897346,-297.65893489206377,0,0,0,0,0,0,0,1
1.1759599999999999,0.00030245805246171029,-302.45838303465843,-297.08412567018422,0,0,0,0,0,0,0,1
1.17598,0.00031235110384489237,-312.3514338963019,-296.49758807570748,0,0,0,0,0,0,0,1
1.1759999999999999,0.00032222440850669507,-322.22473802344336,-295.89934526414396,0,0,0,0,0,0,0,1
1.1760199999999998,0.00033207757666620346,-332.07790563518904,-295.28942085309041,0,0,0,0,0,0,0,1
1.17604,0.0003419102193374569,-341.91054774560007,-294.66783892131247,0,0,0,0,0,0,0,1
1.1760599999999999,0.0003517219483448061,-351.72227617904906,-294.03462400781171,0,0,0,0,0,0,0,1
1.17608,0.00036151237633823773,-361.51270358554552,-293.38980111081725,0,0,0,0,0,0,0,1
1.1760999999999999,0.00037128111680866539,-371.28144345602618,-292.73339568684463,0,0,0,0,0,0,0,1
1.1761200000000001,0.00038102778410318953,-381.02811013761516,-292.06543364963807,0,0,0,0,0,0,0,1
1.17614,0.0003907519934403204,-390.75231884884693,-291.38594136922541,0,0,0,0,0,0,0,1
1.1761599999999999,0.00040045336092517164,-400.4536856948597,-290.69494567077408,0,0,0,0,0,0,0,1
1.17618,0.00041013150356461405,-410.13182768254973,-289.99247383360449,0,0,0,0,0,0,0,1
1.1761999999999999,0.00041978603928239446,-419.78636273568918,-289.27855359012727,0,0,0,0,0,0,0,1
1.17622,0.00042941658693422118,-429.4169097100131,-288.55321312467197,0,0,0,0,0,0,0,1
1.17624,0.00043902276632281002,-439.02308840826385,-287.81648107245138,0,0,0,0,0,0,0,1
1.1762599999999999,0.00044860419821289479,-448.60451959520242,-287.06838651837893,0,0,0,0,0,0,0,1
1.17628,0.00045816050434619831,-458.16082501257938,-286.30895899593969,0,0,0,0,0,0,0,1
1.1762999999999999,0.00046769130745636408,-467.69162739406659,-285.53822848604563,0,0,0,0,0,0,0,1
1.17632,0.00047719623128385111,-477.19655048015164,-284.75622541580373,0,0,0,0,0,0,0,1
1.1763399999999999,0.00048667490059078948,-486.67521903299416,-283.96298065737022,0,0,0,0,0,0,0,1
1.1763599999999999,0.00049612694117579176,-496.12725885123638,-283.15852552668298,0,0,0,0,0,0,0,1
1.17638,0.00050555197988872899,-505.55229678477957,-282.34289178224566,0,0,0,0,0,0,0,1
1.1763882937693113,0.00050555197988872899,-505.55229678477957,-282.34289178224566,0,0,0,0,0,0,0,1
