"Time / s","Vo:Measured voltage","IL:Measured current","Vin:Measured voltage","open1:Output","open3:Output","open2:Output","open4:Output","short1:Output","short2:Output","short3:Output","short4:Output"
1.1840239408271271,393.45681347165657,12.18536913839538,296.49758807570339,0,0,0,0,0,0,0,0
1.18404,393.58471118641847,12.239359455949158,297.08412567018024,0,0,0,0,0,0,0,0
1.1840599999999999,393.71397038307799,12.309486675254767,297.6589348920599,0,0,0,0,0,0,0,0
1.18408,393.84495236541528,12.39531957156899,298.22199304886885,0,0,0,0,0,0,0,0
1.1840999999999999,393.97800839190671,12.496417300325858,298.77327791202504,0,0,0,0,0,0,0,0
1.1841199999999998,394.11518936345976,12.480993155650731,299.31276771775111,0,0,0,0,0,0,0,0
1.18414,394.25212678616862,12.479884237683422,299.84044116791807,0,0,0,0,0,0,0,0
1.1841599999999999,394.38914590770003,12.492697222233462,300.35627743087207,0,0,0,0,0,0,0,0
1.18418,394.52656269442485,12.519030007864444,300.86025614228998,0,0,0,0,0,0,0,0
1.1841999999999999,394.66468363573807,12.55847196979399,301.35235740594624,0,0,0,0,0,0,0,0
1.1842200000000001,394.80485417025449,12.544819283786037,301.83256179453434,0,0,0,0,0,0,0,0
1.18424,394.94479584735308,12.543404554796203,302.30085035039855,0,0,0,0,0,0,0,0
1.1842599999999999,395.08658941263707,12.48800360898213,302.75720458631309,0,0,0,0,0,0,0,0
1.18428,395.22614019073552,12.509851223900712,303.20160648620185,0,0,0,0,0,0,0,0
1.1842999999999999,395.36550622506701,12.542741279979843,303.63403850581903,0,0,0,0,0,0,0,0
1.18432,395.50751031540619,12.520380934353975,304.0544835735123,0,0,0,0,0,0,0,0
1.1843399999999999,395.64905769900264,12.508198281554016,304.46292509081104,0,0,0,0,0,0,0,0
1.1843599999999999,395.78934739079671,12.571750047279204,304.85934693315141,0,0,0,0,0,0,0,0
1.18438,395.93221025043539,12.578740827739869,305.24373345048122,0,0,0,0,0,0,0,0
1.1843999999999999,396.07528650056969,12.594673660568915,305.61606946787185,0,0,0,0,0,0,0,0
1.18442,396.21877991227223,12.619137834937764,305.97634028614181,0,0,0,0,0,0,0,0
1.1844399999999999,396.3628845327068,12.651717084082017,306.32453168240943,0,0,0,0,0,0,0,0
1.1844599999999998,396.5077845623066,12.691989852773888,306.66062991067793,0,0,0,0,0,0,0,0
1.18448,396.65365423828439,12.73952956786329,306.98462170236763,0,0,0,0,0,0,0,0
1.1844999999999999,396.80065772452218,12.793904911724441,307.29649426683153,0,0,0,0,0,0,0,0
1.18452,396.94894900791854,12.854680098441547,307.59623529188036,0,0,0,0,0,0,0,0
1.1845399999999999,397.09867180124991,12.921415152567008,307.88383294424636,0,0,0,0,0,0,0,0
1.1845600000000001,397.24995945259832,12.993666190283003,308.15927587007184,0,0,0,0,0,0,0,0
1.18458,397.40470354092264,12.938554761398512,308.4225531953366,0,0,0,0,0,0,0,0
1.1845999999999999,397.55688018019674,12.954257226582115,308.67365452630543,0,0,0,0,0,0,0,0
1.18462,397.71068007124893,12.907921055863616,308.91256994992966,0,0,0,0,0,0,0,0
1.1846399999999999,397.8628956393523,12.931654730770358,309.13929003423323,0,0,0,0,0,0,0,0
1.18466,398.01613005655139,12.892485776493707,309.35380582869942,0,0,0,0,0,0,0,0
1.18468,398.1671625578137,12.922639894912937,309.55610886460818,0,0,0,0,0,0,0,0
1.1846999999999999,398.32013471887296,12.889050871678668,309.74619115538405,0,0,0,0,0,0,0,0
1.18472,398.47102809849736,12.924025666117844,309.92404519690513,0,0,0,0,0,0,0,0
1.1847399999999999,398.62396496636757,12.894393357155391,310.08966396779527,0,0,0,0,0,0,0,0
1.18476,398.77490647225363,12.932559350939199,310.24304092971198,0,0,0,0,0,0,0,0
1.1847799999999999,398.92795784703594,12.905249139225138,310.38417002759252,0,0,0,0,0,0,0,0
1.1847999999999999,399.08031242755345,12.87847073401382,310.51304568990338,0,0,0,0,0,0,0,0
1.18482,399.23151229752165,12.918351884941094,310.62966282885498,0,0,0,0,0,0,0,0
1.1848399999999999,399.38406090326561,12.891451965903782,310.73401684060025,0,0,0,0,0,0,0,0
1.18486,399.53465676311214,12.930443739673406,310.82610360542418,0,0,0,0,0,0,0,0
1.1848799999999999,399.68735666087082,12.901798231717692,310.90591948789489,0,0,0,0,0,0,0,0
1.1848999999999998,399.83805205729817,12.938273766767168,310.97346133702132,0,0,0,0,0,0,0,0
1.18492,399.99078323394076,12.906241687090807,311.02872648636708,0,0,0,0,0,0,0,0
1.1849399999999999,400.14220583186574,12.938559442906358,311.07171275415658,0,0,0,0,0,0,0,0
1.18496,400.29477035607289,12.901487152271448,311.10241844336696,0,0,0,0,0,0,0,0
1.1849799999999999,400.44589964016183,12.928002997481977,311.12084234178963,0,0,0,0,0,0,0,0
1.1850000000000001,400.59676845853295,12.951019191890037,311.12698372208092,0,0,0,0,0,0,0,0
1.18502,400.74807558235403,12.970130499733131,311.12084234178963,0,0,0,0,0,0,0,0
1.1850399999999999,400.90098348798642,12.918117413074343,311.1024184433669,0,0,0,0,0,0,0,0
1.18506,401.05208359265049,12.92815283094551,311.07171275415658,0,0,0,0,0,0,0,0
1.1850799999999999,401.20330274228508,12.933054270634461,311.02872648636708,0,0,0,0,0,0,0,0
1.1851,401.3545155395758,12.932411332128204,310.97346133702189,0,0,0,0,0,0,0,0
1.18512,401.50558703842762,12.925817073664392,310.90591948789552,0,0,0,0,0,0,0,0
1.1851399999999999,401.65637283185407,12.912868273173755,310.82610360542407,0,0,0,0,0,0,0,0
1.18516,401.80546291385008,12.960116984634874,310.73401684060104,0,0,0,0,0,0,0,0
1.1851799999999999,401.95599490303505,12.93327663006521,310.62966282885594,0,0,0,0,0,0,0,0
1.1852,402.10527879066382,12.965873951092171,310.5130456899044,0,0,0,0,0,0,0,0
1.1852199999999999,402.2556528552285,12.923515359303517,310.38417002759371,0,0,0,0,0,0,0,0
1.1852399999999998,402.40440782254723,12.939837178649061,310.24304092971323,0,0,0,0,0,0,0,0
1.18526,402.55338650920459,12.94742829436534,310.08966396779664,0,0,0,0,0,0,0,0
1.1852799999999999,402.70238037630054,12.945878144253712,309.9240451969066,0,0,0,0,0,0,0,0
1.1853,402.85117145209716,12.934781881111407,309.74619115538559,0,0,0,0,0,0,0,0
1.1853199999999999,402.99953247190007,12.913740628715681,309.55610886460988,0,0,0,0,0,0,0,0
1.1853399999999998,403.1472270238325,12.882361734113706,309.35380582870124,0,0,0,0,0,0,0,0
1.18536,403.29400970038091,12.840259016067661,309.1392900342351,0,0,0,0,0,0,0,0
1.1853799999999999,403.43962625564041,12.787053009507979,308.91256994993165,0,0,0,0,0,0,0,0
1.1854,403.58381376815237,12.722371205849045,308.67365452630753,0,0,0,0,0,0,0,0
1.1854199999999999,403.72630080923858,12.645848289024906,308.42255319533882,0,0,0,0,0,0,0,0
1.18544,403.86499720327959,12.624417627493797,308.15927587006922,0,0,0,0,0,0,0,0
1.18546,404.00196348988902,12.657799916981267,307.88383294424625,0,0,0,0,0,0,0,0
1.1854799999999999,404.13950037813282,12.678318380036702,307.59623529188292,0,0,0,0,0,0,0,0
1.1855,404.27730670804755,12.685558433980649,307.29649426683136,0,0,0,0,0,0,0,0
1.1855199999999999,404.41507198107661,12.679113663507994,306.98462170236752,0,0,0,0,0,0,0,0
1.18554,404.55247655454718,12.65858607012305,306.66062991067776,0,0,0,0,0,0,0,0
1.1855599999999999,404.68919184176156,12.62358631654101,306.32453168240926,0,0,0,0,0,0,0,0
1.1855799999999999,404.82365429135393,12.641188873797081,305.97634028614164,0,0,0,0,0,0,0,0
1.1856,404.95906921403127,12.643592590207817,305.61606946787168,0,0,0,0,0,0,0,0
1.1856199999999999,405.09431060696636,12.630380128132574,305.24373345048105,0,0,0,0,0,0,0,0
1.18564,405.22778397968216,12.668681954866386,304.85934693315124,0,0,0,0,0,0,0,0
1.1856599999999999,405.36189280013144,12.690622247292524,304.46292509081087,0,0,0,0,0,0,0,0
1.1856799999999998,405.49626038208356,12.695790272743711,304.05448357351207,0,0,0,0,0,0,0,0
1.1857,405.63050096310474,12.683785393033078,303.63403850582267,0,0,0,0,0,0,0,0
1.1857199999999999,405.76421994009991,12.654217303381476,303.20160648620168,0,0,0,0,0,0,0,0
1.18574,405.89701411011913,12.606706265349011,302.7572045863169,0,0,0,0,0,0,0,0
1.1857599999999999,406.02847191630752,12.540883333640382,302.30085035040253,0,0,0,0,0,0,0,0
1.1857800000000001,406.15817369883229,12.456390576657755,301.83256179453406,0,0,0,0,0,0,0,0
1.1858,406.28391791722214,12.420576118202124,301.35235740595039,0,0,0,0,0,0,0,0
1.1858199999999999,406.40757492313242,12.433169590610268,300.8602561422943,0,0,0,0,0,0,0,0
1.18584,406.53124976129465,12.426110170906901,300.35627743087645,0,0,0,0,0,0,0,0
1.1858599999999999,406.65449747068169,12.399009026745926,299.84044116792256,0,0,0,0,0,0,0,0
1.18588,406.77686467278221,12.351489110052881,299.31276771775566,0,0,0,0,0,0,0,0
1.1859,406.89788984145139,12.28318537589743,298.7732779120297,0,0,0,0,0,0,0,0
1.1859199999999999,407.01546034804579,12.329383837257792,298.22199304887363,0,0,0,0,0,0,0,0
1.18594,407.13377274287996,12.35413585448603,297.65893489206474,0,0,0,0,0,0,0,0
1.1859599999999999,407.25234796238522,12.357039061767738,297.08412567018519,0,0,0,0,0,0,0,0
1.18598,407.37069836358671,12.337703639789584,296.49758807570845,0,0,0,0,0,0,0,0
1.1859999999999999,407.48832800728957,12.295752535378796,295.89934526414504,0,0,0,0,0,0,0,0
1.1860199999999999,407.60473294592811,12.230821674145131,295.28942085309149,0,0,0,0,0,0,0,0
1.18604,407.71940151594157,12.142560166013308,294.66783892130786,0,0,0,0,0,0,0,0
1.1860599999999999,407.82910677420853,12.166540472483595,294.03462400781279,0,0,0,0,0,0,0,0
1.18608,407.93903555475379,12.166582391971168,293.38980111081247,0,0,0,0,0,0,0,0
1.1860999999999999,408.04866141622887,12.14230260502311,292.73339568683974,0,0,0,0,0,0,0,0
1.1861199999999998,408.15744990302898,12.093331414866094,292.06543364964534,0,0,0,0,0,0,0,0
1.18614,408.26485884772262,12.019312950071978,291.38594136922035,0,0,0,0,0,0,0,0
1.1861599999999999,408.36916279157327,11.987952258364622,290.69494567076902,0,0,0,0,0,0,0,0
1.18618,408.47202733998955,11.998957916919403,289.99247383360569,0,0,0,0,0,0,0,0
1.1861999999999999,408.57481156186304,11.983922626297234,289.27855359012847,0,0,0,0,0,0,0,0
1.1862200000000001,408.67695133322133,11.942476339384985,288.55321312467322,0,0,0,0,0,0,0,0
1.18624,408.77787493836644,11.874263432526053,287.81648107245269,0,0,0,0,0,0,0,0
1.1862599999999999,408.87436365429596,11.915202260669027,287.06838651838024,0,0,0,0,0,0,0,0
1.18628,408.97139702461266,11.928754129822998,286.308958995941,0,0,0,0,0,0,0,0
1.1862999999999999,409.06838999753819,11.914538634009645,285.53822848604699,0,0,0,0,0,0,0,0
1.18632,409.16474983152295,11.872190152893806,284.75622541580509,0,0,0,0,0,0,0,0
1.18634,409.25987641375127,11.801358040869056,283.96298065737159,0,0,0,0,0,0,0,0
1.1863599999999999,409.35316258245507,11.701706808608128,283.1585255266844,0,0,0,0,0,0,0,0
1.18638,409.4428458031154,11.641142685172657,282.34289178224708,0,0,0,0,0,0,0,0
1.1863999999999999,409.53047887269912,11.619391812528368,281.5161116238981,0,0,0,0,0,0,0,0
1.18642,409.61731518395118,11.56789257492211,280.67821769148742,0,0,0,0,0,0,0,0
1.1864399999999999,409.70180801021075,11.554573670021274,279.82924306364805,0,0,0,0,0,0,0,0
1.1864599999999998,409.78404570418098,11.579130906140151,278.96922125643698,0,0,0,0,0,0,0,0
1.18648,409.86644537242091,11.572969152373757,278.09818622203471,0,0,0,0,0,0,0,0
1.1864999999999999,409.94837038144669,11.535728700857103,277.21617234742865,0,0,0,0,0,0,0,0
1.18652,410.02917708945546,11.467065545119377,276.32321445300045,0,0,0,0,0,0,0,0
1.1865399999999999,410.10821517420737,11.366651547970251,275.41934779121482,0,0,0,0,0,0,0,0
1.1865599999999998,410.18370680932924,11.302524991723235,274.50460804517201,0,0,0,0,0,0,0,0
1.18658,410.25710525507537,11.274415576088828,273.57903132722237,0,0,0,0,0,0,0,0
1.1865999999999999,410.32799229823303,11.282019369231648,272.64265417756667,0,0,0,0,0,0,0,0
1.18662,410.39777406983109,11.325048466549793,271.69551356274587,0,0,0,0,0,0,0,0
1.1866399999999999,410.46806074922324,11.334782504244576,270.73764687429275,0,0,0,0,0,0,0,0
1.18666,410.53818281086336,11.310864615117199,269.76909192709189,0,0,0,0,0,0,0,0
1.18668,410.6074640074695,11.252954043131583,268.789886958078,0,0,0,0,0,0,0,0
1.1866999999999999,410.67522169630934,11.16072629991414,267.80007062456912,0,0,0,0,0,0,0,0
1.18672,410.74076716841364,11.033873313974665,266.79968200281013,0,0,0,0,0,0,0,0
1.1867399999999999,410.80231439918373,10.940557605255577,265.78876058644892,0,0,0,0,0,0,0,0
1.18676,410.85969732447535,10.94898495326356,264.76734628491386,0,0,0,0,0,0,0,0
1.1867799999999999,410.91754805273808,10.921963285099199,263.73547942191107,0,0,0,0,0,0,0,0
1.1867999999999999,410.9729730316871,10.927621554927194,262.69320073376821,0,0,0,0,0,0,0,0
1.18682,411.02814073887845,10.897184971858103,261.64055136785373,0,0,0,0,0,0,0,0
1.1868399999999999,411.08234821283696,10.830325866663639,260.57757288098122,0,0,0,0,0,0,0,0
1.18686,411.13488656424715,10.726733060787131,259.50430723770194,0,0,0,0,0,0,0,0
1.1868799999999999,411.18504129927209,10.586112000937742,258.42079680872519,0,0,0,0,0,0,0,0
1.1868999999999998,411.22916639899427,10.613759110505027,257.32708436917778,0,0,0,0,0,0,0,0
1.18692,411.27409531482061,10.603860665813288,256.22321309694411,0,0,0,0,0,0,0,0
1.1869399999999999,411.31698381870268,10.6246071015841,255.10922657099178,0,0,0,0,0,0,0,0
1.18696,411.35989115357847,10.607164823901924,253.98516876958126,0,0,0,0,0,0,0,0
1.1869799999999999,411.40209693455046,10.551210766158064,252.85108406861022,0,0,0,0,0,0,0,0
1.1870000000000001,411.44287513533766,10.456438334204782,251.70701723978019,0,0,0,0,0,0,0,0
1.18702,411.48149440101429,10.322557530787069,250.5530134489114,0,0,0,0,0,0,0,0
1.1870399999999999,411.51476493689307,10.286439717868985,249.38911825408718,0,1,0,0,0,0,0,0
1.18706,411.54620038224556,10.279281320116363,248.21537760388628,0,1,0,0,0,0,0,0
1.1870799999999999,411.57671248224671,10.300792703339846,247.03183783560101,0,1,0,0,0,0,0,0
1.1871,411.60724255272936,10.282078420017122,245.83854567333353,0,1,0,0,0,0,0,0
1.18712,411.63705651897021,10.222826532499216,244.63554822623669,0,1,0,0,0,0,0,0
1.1871399999999999,411.66541506204817,10.122741454767887,243.42289298657909,0,1,0,0,0,0,0,0
1.18716,411.69157391910164,9.9815440648725371,242.20062782790214,0,1,0,0,0,0,0,0
1.1871799999999999,411.71342516486658,9.8675762147702031,240.96880100316352,0,1,0,0,0,0,0,0
1.1872,411.73070358089723,9.9178296602113019,239.72746114274352,0,1,0,0,0,0,0,0
1.1872199999999999,411.74849469488299,9.9262031045786152,238.47665725265918,0,1,0,0,0,0,0,0
1.1872399999999999,411.76605964612048,9.8923850104051478,237.21643871249549,0,1,0,0,0,0,0,0
1.18726,411.78265451979257,9.8160798688554092,235.9468552734767,0,1,0,0,0,0,0,0
1.1872799999999999,411.79753063147177,9.6970083047957569,234.66795705664038,0,1,0,0,0,0,0,0
1.1873,411.80861757958593,9.6035279170262449,233.37979455066375,0,1,0,0,0,0,0,0
1.1873199999999999,411.81698121493895,9.535403325865941,232.08241861002017,0,1,0,0,0,0,0,0
1.1873399999999998,411.82243137462797,9.5610009537943945,230.77588045287868,0,1,0,0,0,0,0,0
1.18736,411.82794628921238,9.542791447640008,229.46023165911666,0,1,0,0,0,0,0,0
1.1873799999999999,411.83278021896797,9.4804841761492877,228.13552416831951,0,1,0,0,0,0,0,0
1.1874,411.83618290887517,9.3738042498586136,226.80181027764678,0,1,0,0,0,0,0,0
1.1874199999999999,411.83739985819017,9.2224926124367421,225.45914263986324,0,1,0,0,0,0,0,0
1.1874400000000001,411.83280097862269,9.2321899783572654,224.10757426116396,0,1,0,0,0,0,0,0
1.18746,411.82760637873344,9.2654024360363323,222.74715849917877,0,1,0,0,0,0,0,0
1.1874799999999999,411.82258982718014,9.2532103310379821,221.37794906078034,0,1,0,0,0,0,0,0
1.1875,411.81700611166639,9.1953319212289966,220.00000000000026,0,1,0,0,0,0,0,0
1.1875199999999999,411.81010581758215,9.0915007660788945,218.61336571593307,0,1,0,0,0,0,0,0
1.18754,411.80113558061942,8.9414658091423505,217.21810095050085,0,1,0,0,0,0,0,0
1.1875599999999999,411.78748100043276,8.882232583484301,215.81426078639271,0,1,0,0,0,0,0,0
1.1875799999999999,411.77159693096064,8.8449459740380654,214.401900644802,0,1,0,0,0,0,0,0
1.1876,411.75438428677074,8.8293517494539113,212.98107628327585,0,1,0,0,0,0,0,0
1.1876199999999999,411.73656483161955,8.7665653971367856,211.55184379355296,0,1,0,0,0,0,0,0
1.18764,411.71739329791927,8.6563321296118172,210.11425959925887,0,1,0,0,0,0,0,0
1.1876599999999999,411.69496240093002,8.5670156137425284,208.66838045378211,0,1,0,0,0,0,0,0
1.1876799999999998,411.66926313337456,8.5669886375276469,207.21426343794258,0,1,0,0,0,0,0,0
1.1877,411.64321153166156,8.5187933012081061,205.75196595777697,0,1,0,0,0,0,0,0
1.1877199999999999,411.61570089913863,8.49077283018846,204.28154574231243,0,1,0,0,0,0,0,0
1.18774,411.58741157282947,8.4140766482989466,202.80306084119462,0,1,0,0,0,0,0,0
1.1877599999999999,411.55760465631698,8.2884641694374803,201.31656962250267,0,1,0,0,0,0,0,0
1.1877799999999998,411.52383212643963,8.2508645127774454,199.82213077035129,0,1,0,0,0,0,0,0
1.1878,411.48829004845436,8.2324595302848689,198.31980328260019,0,1,0,0,0,0,0,0
1.1878199999999999,411.45176612115199,8.2330005772322963,196.80964646863427,0,1,0,0,0,0,0,0
1.18784,411.41490519112062,8.1836639077830604,195.29171994677674,0,1,0,0,0,0,0,0
1.1878599999999999,411.37698029987587,8.0842114002132952,193.76608364223617,0,1,0,0,0,0,0,0
1.18788,411.33726140071036,7.9344186317760244,192.23279778448023,0,1,0,0,0,0,0,0
1.1879,411.29339917457946,7.8711547213470041,190.6919229050369,0,1,0,0,0,0,0,0
1.1879199999999999,411.24747282198734,7.8256470134608334,189.14351983499427,0,1,0,0,0,0,0,0
1.18794,411.20022353134635,7.797659538872189,187.58764970264005,0,1,0,0,0,0,0,0
1.1879599999999999,411.15224886463324,7.7184250780492976,186.02437393109119,0,1,0,0,0,0,0,0
1.18798,411.10283334881103,7.5877236535319472,184.45375423577008,0,1,0,0,0,0,0,0
1.1879999999999999,411.05026329494979,7.4738463331451293,182.8758526220814,0,1,0,0,0,0,0,0
1.1880199999999999,410.99414815239567,7.5135651206188303,181.29073138286486,0,1,0,0,0,0,0,0
1.1880239408271269,410.99414815239567,7.5135651206188303,181.29073138286486,0,1,0,0,0,0,0,0
