"Time / s","Vo:Measured voltage","IL:Measured current","Vin:Measured voltage","open1:Output","open3:Output","open2:Output","open4:Output","short1:Output","short2:Output","short3:Output","short4:Output"
1.1176076193651403,411.65486627736129,-8.7751162724582219,-212.98107628327165,0,0,0,0,0,0,0,0
1.1176200000000001,411.63730498417868,-8.7141049673443067,-211.55184379353574,0,0,0,0,0,0,0,0
1.11764,411.61841213202888,-8.6056415345915127,-210.11425959925464,0,0,0,0,0,0,0,0
1.1176599999999999,411.59743870382027,-8.4494857069543858,-208.66838045377781,0,0,0,0,0,0,0,0
1.11768,411.57129308423117,-8.4511681336636251,-207.21426343792507,0,0,0,0,0,0,0,0
1.1176999999999999,411.54419233953661,-8.4732712324089867,-205.75196595777263,0,0,0,0,0,0,0,0
1.11772,411.51706645535774,-8.4469466545207084,-204.2815457422947,0,0,0,0,0,0,0,0
1.11774,411.48917985638315,-8.3719392447226646,-202.80306084119022,0,0,0,0,0,0,0,0
1.1177599999999999,411.45979348877876,-8.2480081182578306,-201.31656962249829,0,0,0,0,0,0,0,0
1.11778,411.42732295274487,-8.1434885541722206,-199.8221307703333,0,0,0,0,0,0,0,0
1.1177999999999999,411.39149706051495,-8.1267063522892204,-198.31980328260937,0,0,0,0,0,0,0,0
1.11782,411.35446961646403,-8.128857158240292,-196.80964646861611,0,0,0,0,0,0,0,0
1.1178399999999999,411.31712111487997,-8.0811376212999573,-195.291719946786,0,0,0,0,0,0,0,0
1.1178599999999999,411.27872465762084,-7.9833093614567581,-193.76608364224546,0,0,0,0,0,0,0,0
1.11788,411.23855025484357,-7.8351476967886393,-192.23279778448958,0,0,0,0,0,0,0,0
1.1178999999999999,411.19402202314575,-7.773486470414487,-190.69192290504631,0,0,0,0,0,0,0,0
1.11792,411.14737585376139,-7.7980937580557192,-189.14351983498969,0,0,0,0,0,0,0,0
1.1179399999999999,411.10073073512876,-7.7716773634340166,-187.58764970264951,0,0,0,0,0,0,0,0
1.1179599999999998,411.05337390164601,-7.694004056916194,-186.02437393110071,0,0,0,0,0,0,0,0
1.11798,411.00458969819482,-7.5648536534534925,-184.45375423577966,0,0,0,0,0,0,0,0
1.1179999999999999,410.9536597633932,-7.3840190628356623,-182.87585262209103,0,0,0,0,0,0,0,0
1.11802,410.89730097785383,-7.4252069618691854,-181.29073138286017,0,0,0,0,0,0,0,0
1.1180399999999999,410.84116081169003,-7.414259234430518,-179.69845309598813,0,0,0,0,0,0,0,0
1.1180600000000001,410.78454263261841,-7.3509500107805845,-178.09908062186642,0,0,0,0,0,0,0,0
1.11808,410.72674714379428,-7.2350657992280789,-176.4926771010108,0,0,0,0,0,0,0,0
1.1180999999999999,410.66707255013102,-7.066405530969913,-174.87930595146707,0,0,0,0,0,0,0,0
1.11812,410.60235652396898,-7.1184865125481931,-173.25903086633645,0,0,0,0,0,0,0,0
1.1181399999999999,410.53798451562096,-7.1173419345935178,-171.63191581137826,0,0,0,0,0,0,0,0
1.11816,410.47327769584371,-7.0627551115418781,-169.99802502222045,0,0,0,0,0,0,0,0
1.11818,410.40755480982182,-6.9545210650113454,-168.35742300214764,0,0,0,0,0,0,0,0
1.1181999999999999,410.3401323273099,-6.792446563316398,-166.71017451928876,0,0,0,0,0,0,0,0
1.11822,410.26873692376483,-6.7130895859210407,-165.05634460417849,0,0,0,0,0,0,0,0
1.1182399999999999,410.19528187507899,-6.7162221758733649,-163.39599854721996,0,0,0,0,0,0,0,0
1.11826,410.12155767879676,-6.6648873716155324,-161.72920189600251,0,0,0,0,0,0,0,0
1.1182799999999999,410.04690313869042,-6.5588901563331294,-160.05602045283402,0,0,0,0,0,0,0,0
1.1182999999999998,409.97065501276899,-6.3980465784660296,-158.37652027203796,0,0,0,0,0,0,0,0
1.11832,409.89017419106301,-6.3871080049033031,-156.69076765739032,0,0,0,0,0,0,0,0
1.1183399999999999,409.80902333912991,-6.3892144110360238,-154.99882915954842,0,0,0,0,0,0,0,0
1.11836,409.72760300982009,-6.335854821018823,-153.30077157331647,0,0,0,0,0,0,0,0
1.1183799999999999,409.64527363907064,-6.2268453255697356,-151.59666193513115,0,0,0,0,0,0,0,0
1.1183999999999998,409.56139384767522,-6.0620124036471248,-149.88656752030775,0,0,0,0,0,0,0,0
1.11842,409.47345006080303,-6.0459102318617868,-148.17055584043007,0,0,0,0,0,0,0,0
1.1184399999999999,409.38481706687287,-6.0418186452009763,-146.44869464073196,0,0,0,0,0,0,0,0
1.11846,409.29585986613699,-5.9813068389467059,-144.72105189731414,0,0,0,0,0,0,0,0
1.1184799999999999,409.20596223950383,-5.8642028716908055,-142.98769581458524,0,0,0,0,0,0,0,0
1.1185,409.11450637907933,-5.6903445191857429,-141.24869482244398,0,0,0,0,0,0,0,0
1.11852,409.01912403327964,-5.6640710157997756,-139.50411757370341,0,0,0,0,0,0,0,0
1.1185399999999999,408.92299384649596,-5.6488151987836979,-137.75403294127037,0,0,0,0,0,0,0,0
1.11856,408.82644191042624,-5.5762332523220497,-135.99851001547364,0,0,0,0,0,0,0,0
1.1185799999999999,408.7288770171586,-5.446165812224053,-134.23761810138413,0,0,0,0,0,0,0,0
1.1186,408.6289632717743,-5.3265594685166437,-132.47142671596768,0,0,0,0,0,0,0,0
1.1186199999999999,408.52666600105073,-5.2853157107726245,-130.70000558546784,0,0,0,0,0,0,0,0
1.1186399999999999,408.42352707699285,-5.2541336812025552,-128.92342464254182,0,0,0,0,0,0,0,0
1.11866,408.31983680052844,-5.1647634003489973,-127.14175402354705,0,0,0,0,0,0,0,0
1.1186799999999999,408.21431745505203,-5.0850866002734101,-125.35506406582113,0,0,0,0,0,0,0,0
1.1187,408.10740656882086,-5.0149226025253206,-123.56342530477572,0,0,0,0,0,0,0,0
1.1187199999999999,407.99911687146619,-4.9540828045143712,-121.76690847132244,0,0,0,0,0,0,0,0
1.1187399999999998,407.88985992545292,-4.9023840549737638,-119.96558448880485,0,0,0,0,0,0,0,0
1.11876,407.77989997696545,-4.7916765130725674,-118.15952447039295,0,0,0,0,0,0,0,0
1.1187799999999999,407.66766562412982,-4.7577059367440526,-116.34879971630914,0,0,0,0,0,0,0,0
1.1188,407.5549114626491,-4.6644031241619253,-114.53348171081718,0,0,0,0,0,0,0,0
1.1188199999999999,407.44067413907612,-4.579540492056652,-112.71364211959646,0,0,0,0,0,0,0,0
1.1188400000000001,407.32533642051635,-4.5029451853762774,-110.88935278676504,0,0,0,0,0,0,0,0
1.11886,407.20850568297288,-4.4344340670893105,-109.06068573217507,0,0,0,0,0,0,0,0
1.1188799999999999,407.0905500514275,-4.3738388506813592,-107.22771314845426,0,0,0,0,0,0,0,0
1.1189,406.97189432325951,-4.2531601574708411,-105.390507398205,0,0,0,0,0,0,0,0
1.1189199999999999,406.85151624082312,-4.2078942826549088,-103.54914101119773,0,0,0,0,0,0,0,0
1.11894,406.72999050998214,-4.1700270751627002,-101.7036866813912,0,0,0,0,0,0,0,0
1.11896,406.60764725050348,-4.1393944648880971,-99.854217264195796,0,0,0,0,0,0,0,0
1.1189799999999999,406.48488503747836,-4.0480830947304796,-98.000805773480636,0,0,0,0,0,0,0,0
1.119,406.36124400269415,-3.8959833716176204,-96.143525378741003,0,0,0,0,0,0,0,0
1.1190199999999999,406.23579163848581,-3.8184008478624891,-94.28244940226034,0,0,0,0,0,0,0,0
1.11904,406.1087511712559,-3.8151155276510575,-92.417651316097817,0,0,0,0,0,0,0,0
1.1190599999999999,405.98151896249124,-3.7505923305417705,-90.54920473932259,0,0,0,0,0,0,0,0
1.1190799999999999,405.85366799205616,-3.6247297064966331,-88.677183434989331,0,0,0,0,0,0,0,0
1.1191,405.72444189808823,-3.5050500260716384,-86.801661307276788,0,0,0,0,0,0,0,0
1.1191199999999999,405.59335490754279,-3.5265970437839846,-84.922712398621044,0,0,0,0,0,0,0,0
1.11914,405.4622544305538,-3.486376167115544,-83.040410886673769,0,0,0,0,0,0,0,0
1.1191599999999999,405.33074717377531,-3.3842946291973486,-81.154831081509698,0,0,0,0,0,0,0,0
1.1191799999999998,405.19843941945788,-3.2202649206232441,-79.266047422573862,0,0,0,0,0,0,0,0
1.1192,405.06424715810039,-3.1292201449350876,-77.374134475793895,0,0,0,0,0,0,0,0
1.1192199999999999,404.92898427274741,-3.1109648054805259,-75.479166930687697,0,0,0,0,0,0,0,0
1.11924,404.79348422124815,-3.0303645178465164,-73.581219597294947,0,0,0,0,0,0,0,0
1.1192599999999999,404.65738797113016,-2.8873406868087987,-71.680367403360918,0,0,0,0,0,0,0,0
1.1192800000000001,404.51971421770077,-2.8166541445763942,-69.776685391223779,0,0,0,0,0,0,0,0
1.1193,404.38128246164496,-2.7507159485271444,-67.870248715058679,0,0,0,0,0,0,0,0
1.1193199999999999,404.24230856869349,-2.6893953259222716,-65.961132637704083,0,0,0,0,0,0,0,0
1.11934,404.10290558030857,-2.5652080722303672,-64.049412527724655,0,0,0,0,0,0,0,0
1.1193599999999999,403.96219366379233,-2.5127389479255857,-62.135163856643373,0,0,0,0,0,0,0,0
1.11938,403.8211278175296,-2.3971952186899714,-60.218462195668145,0,0,0,0,0,0,0,0
1.1194,403.67913468544191,-2.3530770126526028,-58.299383212933307,0,0,0,0,0,0,0,0
1.1194199999999999,403.53684693140502,-2.2456829240104907,-56.378002670373768,0,0,0,0,0,0,0,0
1.11944,403.39348736987728,-2.2094183651366031,-54.454396420786011,0,0,0,0,0,0,0,0
1.1194599999999999,403.24989368141837,-2.1096864904717934,-52.528640404885842,0,0,0,0,0,0,0,0
1.11948,403.10561717496677,-2.0136204326933522,-50.600810648188478,0,0,0,0,0,0,0,0
1.1194999999999999,402.96054082715932,-1.9882660582389462,-48.670983258146656,0,0,0,0,0,0,0,0
1.1195199999999998,402.81513726708454,-1.9663088237443191,-46.739234421023866,0,0,0,0,0,0,0,0
1.11954,402.66959292085852,-1.8805266069005617,-44.805640398939055,0,0,0,0,0,0,0,0
1.1195599999999999,402.52367572041959,-1.7308789288651616,-42.870277526908332,0,0,0,0,0,0,0,0
1.11958,402.37672824364296,-1.7185166110693202,-40.933222209709001,0,0,0,0,0,0,0,0
1.1195999999999999,402.22954681976699,-1.7091244333871736,-38.99455091900326,0,0,0,0,0,0,0,0
1.1196200000000001,402.08229550662378,-1.6355871090731202,-37.054340190179055,0,0,0,0,0,0,0,0
1.11964,401.93477994178249,-1.4978744050144754,-35.112666619468897,0,0,0,0,0,0,0,0
1.1196599999999999,401.78660809132901,-1.362921642891282,-33.169606860803128,0,0,0,0,0,0,0,0
1.11968,401.63780335928698,-1.2975783609062894,-31.225237622836371,0,0,0,0,0,0,0,0
1.1196999999999999,401.48877570470785,-1.2347708636564245,-29.27963566597203,0,0,0,0,0,0,0,0
1.11972,401.33957415167009,-1.1075172316911968,-27.332877799208756,0,0,0,0,0,0,0,0
1.11974,401.18981467264524,-1.0495297077670334,-25.385040877248965,0,0,0,0,0,0,0,0
1.1197599999999999,401.03992503268171,-0.92697496580007133,-23.436201797341507,0,0,0,0,0,0,0,0
1.11978,400.88968875911604,-0.87347470612136513,-21.486437496298652,0,0,0,0,0,0,0,0
1.1197999999999999,400.73935333524048,-0.75529539778670252,-19.535824947511763,0,0,0,0,0,0,0,0
1.11982,400.58865544014765,-0.70596017853087267,-17.584441157788984,0,0,0,0,0,0,0,0
1.1198399999999999,400.43789549088592,-0.59184418041646625,-15.63236316445634,0,0,0,0,0,0,0,0
1.1198599999999999,400.28693790357067,-0.54637923068785066,-13.679668032192859,0,0,0,0,0,0,0,0
1.11988,400.13587239992472,-0.50273001190615418,-11.726432850023469,0,0,0,0,0,0,0,0
1.1198999999999999,399.98474980471497,-0.460831044903876,-9.7727347284170474,0,0,0,0,0,0,0,0
1.11992,399.83362162224483,-0.3539773845618025,-7.8186507959241194,0,0,0,0,0,0,0,0
1.1199399999999999,399.68242882130545,-0.18217849188628699,-5.8642581965207992,0,0,0,0,0,0,0,0
1.1199599999999998,399.53111134508362,-0.21180654195247464,-3.9096340862451004,0,0,0,0,0,0,0,0
1.11998,399.37985517374835,-0.17632911667306911,-1.9548556302923592,0,0,0,0,0,0,0,0
1.1199999999999999,399.22864056201769,-0.075763822200579922,-4.267431445128511e-12,0,0,0,0,0,0,0,0
1.12002,399.07743282450599,-0.1096739090066511,1.9548556303015097,0,0,0,0,0,0,0,0
1.1200399999999999,398.92625541520397,-0.14488800814842345,3.9096340862365664,0,0,0,0,0,0,0,0
1.1200600000000001,398.77513451905423,-0.11489392264375931,5.8642581965299492,0,0,0,0,0,0,0,0
1.12008,398.6240898667362,-0.019720054295933875,7.8186507959332676,0,0,0,0,0,0,0,0
1.1200999999999999,398.47313923040355,0.14060377577338742,9.7727347283908408,0,0,0,0,0,0,0,0
1.12012,398.32230619245189,0.36604338531011582,11.726432850032612,0,0,0,0,0,0,0,0
1.1201399999999999,398.1716858104308,0.59020203337682886,13.679668032166663,0,0,0,0,0,0,0,0
1.12016,398.02146477415522,0.68043730887169163,15.632363164447813,0,0,0,0,0,0,0,0
1.12018,397.87141242471648,0.83586277631884198,17.584441157780464,0,0,0,0,0,0,0,0
1.1201999999999999,397.72179098840792,0.9238606169458774,19.535824947485597,0,0,0,0,0,0,0,0
1.12022,397.57250504593236,1.0107913897457963,21.486437496290137,0,0,0,0,0,0,0,0
1.1202399999999999,397.42352776403544,1.0966759360440321,23.436201797315359,0,0,0,0,0,0,0,0
1.12026,397.27501647066367,1.1153225475445596,25.38504087724046,0,0,0,0,0,0,0,0
1.1202799999999999,397.12665461433414,1.199194798312385,27.332877799200254,0,0,0,0,0,0,0,0
1.1202999999999999,396.97872580801493,1.2820751653558058,29.279635665945925,0,0,0,0,0,0,0,0
1.12032,396.83118184168802,1.3639731211940804,31.22523762282788,0,0,0,0,0,0,0,0
1.1203399999999999,396.68420459080335,1.3787845242520724,33.169606860777051,0,0,0,0,0,0,0,0
1.12036,396.5373978970581,1.4587638265198772,35.112666619460413,0,0,0,0,0,0,0,0
1.1203799999999999,396.39091956992445,1.6038454599433853,37.054340190170585,0,0,0,0,0,0,0,0
1.1203999999999998,396.24546816719771,1.6158407080527823,38.994550918977247,0,0,0,0,0,0,0,0
1.12042,396.10029747985317,1.6269133310242994,40.933222209700538,0,0,0,0,0,0,0,0
1.1204399999999999,395.95531391038674,1.7030521593545382,42.870277526882354,0,0,0,0,0,0,0,0
1.12046,395.81071440726566,1.8441815919019819,44.805640398948107,0,0,0,0,0,0,0,0
1.1204799999999999,395.66693612442111,1.9842802019033117,46.739234421015432,0,0,0,0,0,0,0,0
1.1205000000000001,395.5242958780031,1.9914913147798803,48.670983258155687,0,0,0,0,0,0,0,0
1.12052,395.38185391452515,2.0636208304364909,50.600810648197516,0,0,0,0,0,0,0,0
1.1205399999999999,395.23984602661108,2.2005831355578538,52.528640404877429,0,0,0,0,0,0,0,0
1.12056,395.09878928846365,2.3364416577412741,54.454396420795028,0,0,0,0,0,0,0,0
1.1205799999999999,394.95905013193482,2.3395167605136034,56.378002670365376,0,0,0,0,0,0,0,0
1.1206,394.81951425356232,2.4073167521058743,58.299383212942296,0,0,0,0,0,0,0,0
1.1206199999999999,61.221051043208291,5.8278467991094143,60.218462195677127,0,0,0,0,0,0,1,0
1.1206399999999999,2.9568207807153803,7.8670162979163578,62.135163856635018,0,0,0,0,0,0,1,0
1.12066,0.142815498990051,9.9700960975602371,64.049412527733608,0,0,0,0,0,0,1,0
1.1206799999999999,0.0069085776529118322,12.136945127706847,65.96113263767846,0,0,0,0,0,0,1,0
1.1207,0.00034674065503099093,14.367475039443951,67.870248715067603,0,0,0,0,0,0,1,0
1.1207199999999999,3.1987548525132316e-05,16.661597637740091,69.776685391232704,0,0,0,0,0,0,1,0
1.1207399999999998,1.9019178586399916e-05,19.019222734809965,71.680367403335396,0,0,0,0,0,0,1,0
1.12076,2.1440175268114412e-05,21.440256475364617,73.581219597286662,0,0,0,0,0,0,1,0
1.1207799999999999,2.3924520341862287e-05,23.924603667906215,75.479166930662259,0,0,0,0,0,0,1,0
1.1208,2.6472080790172868e-05,26.472166232522888,77.374134475785638,0,0,0,0,0,0,1,0
1.1208199999999999,2.9082756037583131e-05,29.082843593668052,79.26604742254851,0,0,0,0,0,0,1,0
1.1208400000000001,3.1756443016965817e-05,31.756532684130992,81.154831081501456,0,0,0,0,0,0,1,0
1.12086,3.4493036173598429e-05,34.493127949105897,83.040410886665541,0,0,0,0,0,0,1,0
1.1208799999999999,3.7292427469330151e-05,37.292521350358669,84.92271239859582,0,0,0,0,0,0,1,0
1.1209,4.0154506386847428e-05,40.154602370492682,86.801661307268574,0,0,0,0,0,0,1,0
1.1209199999999999,4.3079159934036533e-05,43.079258017311183,88.677183434964192,0,0,0,0,0,0,1,0
1.12094,4.6066272648444677e-05,46.066372828278489,90.549204739314419,0,0,0,0,0,0,1,0
1.12096,4.9115726601837874e-05,49.115828875077838,92.41765131608966,0,0,0,0,0,0,1,0
1.1209799999999999,5.2227401404856911e-05,52.227505768267399,94.282449402235343,0,0,0,0,0,0,1,0
1.121,5.5401174211769881e-05,55.401280662032711,96.143525378732889,0,0,0,0,0,0,1,0
1.1210199999999999,5.8636919725322268e-05,58.63702825903691,98.000805773455753,0,0,0,0,0,0,1,0
1.12104,6.1934510201682748e-05,61.934620815366415,99.854217264204451,0,0,0,0,0,0,1,0
1.1210599999999999,6.5293815455487247e-05,65.293928145575023,101.70368668139984,0,0,0,0,0,0,1,0
1.1210799999999999,6.8714702864977584e-05,68.714817627822555,103.54914101117301,0,0,0,0,0,0,1,0
1.1211,7.2197037377237969e-05,72.197154209111432,105.3905073982136,0,0,0,0,0,0,1,0
1.1211199999999999,7.5740681513525386e-05,75.740800410616956,107.22771314844624,0,0,0,0,0,0,1,0
1.12114,7.9345495374698964e-05,79.345616333116709,109.06068573218364,0,0,0,0,0,0,1,0
1.1211599999999999,8.3011336646740942e-05,83.011459662511584,110.88935278677359,0,0,0,0,0,0,1,0
1.1211799999999998,8.673806060637606e-05,86.738185675445024,112.7136421195885,0,0,0,0,0,0,1,0
1.1212,9.0525520126785125e-05,90.52564724501687,114.5334817108257,0,0,0,0,0,0,1,0
1.1212199999999999,9.4373565683412451e-05,94.373694846590482,116.34879971630123,0,0,0,0,0,0,1,0
1.12124,9.8282045359870094e-05,98.28217656369722,118.15952447040142,0,0,0,0,0,0,1,0
1.1212599999999999,0.00010225080485393402,102.25093809403241,119.96558448878066,0,0,0,0,0,0,1,0
1.1212800000000001,0.00010627968748363621,106.27982275554774,121.76690847131458,0,0,0,0,0,0,1,0
1.1213,0.00011036853419345035,110.36867149263665,123.56342530478413,0,0,0,0,0,0,1,0
1.1213199999999999,0.0001145171835605711,114.51732288241372,125.35506406579714,0,0,0,0,0,0,1,0
1.12134,0.00011872547180128638,118.72561314108709,127.14175402353925,0,0,0,0,0,0,1,0
1.1213599999999999,0.00012299323277744346,122.99337613042435,128.92342464251794,0,0,0,0,0,0,1,0
1.12138,0.00012732029800300771,127.32044336431134,130.7000055854601,0,0,0,0,0,0,1,0
1.1214,0.0001317064966507149,131.70664401540461,132.47142671595995,0,0,0,0,0,0,1,0
1.1214199999999999,0.00013615165555881363,136.15180492187363,134.23761810136048,0,0,0,0,0,0,1,0
1.12144,0.00014065559923790393,140.65575059423949,135.99851001546594,0,0,0,0,0,0,1,0
1.1214599999999999,0.00014521814987786109,145.218303222299,137.75403294124686,0,0,0,0,0,0,1,0
1.12148,0.00014983912735486038,149.83928268214862,139.50411757369579,0,0,0,0,0,0,1,0
1.1214999999999999,0.000154518349238485,154.51850654329354,141.24869482243639,0,0,0,0,0,0,1,0
1.1215199999999999,0.00015925563079892795,159.25579007584858,142.98769581456193,0,0,0,0,0,0,1,0
1.12154,0.00016405078501428622,164.05094625783289,144.72105189730661,0,0,0,0,0,0,1,0
1.1215599999999999,0.00016890362257794385,168.9037857825528,146.44869464070882,0,0,0,0,0,0,1,0
1.12158,0.00017381395190604391,173.81411706607412,148.17055584043811,0,0,0,0,0,0,1,0
1.1215999999999999,0.00017878157914505351,178.78174625478661,149.88656752028479,0,0,0,0,0,0,1,0
1.1216076193651401,0.00017878157914505351,178.78174625478661,149.88656752028479,0,0,0,0,0,0,1,0
