"Time / s","Vo:Measured voltage","IL:Measured current","Vin:Measured voltage","open1:Output","open3:Output","open2:Output","open4:Output","short1:Output","short2:Output","short3:Output","short4:Output"
1.1204769081547921,395.81071440726566,1.8441815919019819,44.805640398948107,0,0,0,0,0,0,0,0
1.1204799999999999,395.66693612442111,1.9842802019033117,46.739234421015432,0,0,0,0,0,0,0,0
1.1205000000000001,395.5242958780031,1.9914913147798803,48.670983258155687,0,0,0,0,0,0,0,0
1.12052,395.38185391452515,2.0636208304364909,50.600810648197516,0,0,0,0,0,0,0,0
1.1205399999999999,395.23984602661108,2.2005831355578538,52.528640404877429,0,0,0,0,0,0,0,0
1.12056,395.09878928846365,2.3364416577412741,54.454396420795028,0,0,0,0,0,0,0,0
1.1205799999999999,394.95905013193482,2.3395167605136034,56.378002670365376,0,0,0,0,0,0,0,0
1.1206,394.81951425356232,2.4073167521058743,58.299383212942296,0,0,0,0,0,0,0,0
1.1206199999999999,394.68045591351836,2.5397460482205427,60.218462195677127,0,0,0,0,0,0,0,0
1.1206399999999999,394.54262429826679,2.6051936280048227,62.135163856635018,0,0,0,0,0,0,0,0
1.12066,394.40562913990578,2.6694197849454127,64.049412527733608,0,0,0,0,0,0,0,0
1.1206799999999999,394.26932497927584,2.7323805165779378,65.96113263767846,0,0,0,0,0,0,0,0
1.1207,394.13386220870854,2.7940349422809518,67.870248715067603,0,0,0,0,0,0,0,0
1.1207199999999999,393.99908296385587,2.8543332350103872,69.776685391232704,0,0,0,0,0,0,0,0
1.1207399999999998,393.86483000827945,2.9788705164251255,71.680367403335396,0,0,0,0,0,0,0,0
1.12076,393.73203627445201,3.0362925105633849,73.581219597286662,0,0,0,0,0,0,0,0
1.1207799999999999,393.60014129337878,3.0922020079787615,75.479166930662259,0,0,0,0,0,0,0,0
1.1208,393.46896414758112,3.1465370178483436,77.374134475785638,0,0,0,0,0,0,0,0
1.1208199999999999,393.33833260567388,3.2647928139896716,79.26604742254851,0,0,0,0,0,0,0,0
1.1208400000000001,393.20904854410452,3.3813138409222105,81.154831081501456,0,0,0,0,0,0,0,0
1.12086,393.08151407578868,3.3650034995392848,83.040410886665541,0,0,0,0,0,0,0,0
1.1208799999999999,392.95412582100448,3.4123797026231331,84.92271239859582,0,0,0,0,0,0,0,0
1.1209,392.82728851764898,3.523312740490296,86.801661307268574,0,0,0,0,0,0,0,0
1.1209199999999999,392.70140590833648,3.6976676338055592,88.677183434964192,0,0,0,0,0,0,0,0
1.12094,392.57802837236915,3.7390252354499394,90.549204739314419,0,0,0,0,0,0,0,0
1.12096,392.45545009949711,3.7782211220234543,92.41765131608966,0,0,0,0,0,0,0,0
1.1209799999999999,392.33341039420634,3.8805577095035115,94.282449402235343,0,0,0,0,0,0,0,0
1.121,392.21234854166931,4.0458901529284379,96.143525378732889,0,0,0,0,0,0,0,0
1.1210199999999999,392.09395248015988,4.0780323259540383,98.000805773455753,0,0,0,0,0,0,0,0
1.12104,391.97635398389667,4.1076412036132881,99.854217264204451,0,0,0,0,0,0,0,0
1.1210599999999999,391.85926061235028,4.1999278648700908,101.70368668139984,0,0,0,0,0,0,0,0
1.1210799999999999,391.74314633765795,4.354737854628544,103.54914101117301,0,0,0,0,0,0,0,0
1.1211,391.62924887246226,4.4413740235025676,105.3905073982136,0,0,0,0,0,0,0,0
1.1211199999999999,391.51721967905161,4.4597767945762481,107.22771314844624,0,0,0,0,0,0,0,0
1.12114,391.40563659711398,4.5403439157320236,109.06068573218364,0,0,0,0,0,0,0,0
1.1211599999999999,391.29553177213495,4.6177007778068457,110.88935278677359,0,0,0,0,0,0,0,0
1.1211799999999998,391.18662213965098,4.691723807816973,112.7136421195885,0,0,0,0,0,0,0,0
1.1212,391.0792621668873,4.7622962733106213,114.5334817108257,0,0,0,0,0,0,0,0
1.1212199999999999,390.97315632202123,4.8292873972955555,116.34879971630123,0,0,0,0,0,0,0,0
1.12124,390.86849925203563,4.8925719405640979,118.15952447040142,0,0,0,0,0,0,0,0
1.1212599999999999,390.76497873010521,4.9520143674339323,119.96558448878066,0,0,0,0,0,0,0,0
1.1212800000000001,390.66231295757729,5.0725903380524722,121.76690847131458,0,0,0,0,0,0,0,0
1.1213,390.56209753777495,5.1239382988326199,123.56342530478413,0,0,0,0,0,0,0,0
1.1213199999999999,390.46326511605594,5.1710305145062927,125.35506406579714,0,0,0,0,0,0,0,0
1.12134,390.36547275264149,5.2137199122499327,127.14175402353925,0,0,0,0,0,0,0,0
1.1213599999999999,390.26842186383124,5.3169052126239054,128.92342464251794,0,0,0,0,0,0,0,0
1.12138,390.17340946350373,5.4153716850740263,130.7000055854601,0,0,0,0,0,0,0,0
1.1214,390.08009061308667,5.5089560363468104,132.47142671595995,0,0,0,0,0,0,0,0
1.1214199999999999,389.98894446728917,5.5325062818498951,134.23761810136048,0,0,0,0,0,0,0,0
1.12144,389.898380627687,5.6158598237325306,135.99851001546594,0,0,0,0,0,0,0,0
1.1214599999999999,389.80976510792738,5.6938551709328955,137.75403294124686,0,0,0,0,0,0,0,0
1.12148,389.72271936415075,5.7663173819172018,139.50411757369579,0,0,0,0,0,0,0,0
1.1214999999999999,389.63743260692866,5.8330784972142435,141.24869482243639,0,0,0,0,0,0,0,0
1.1215199999999999,389.55350646066921,5.8939602442768395,142.98769581456193,0,0,0,0,0,0,0,0
1.12154,389.4705941788161,6.0136970667981577,144.72105189730661,0,0,0,0,0,0,0,0
1.1215599999999999,389.39058469963516,6.0622875920617236,146.44869464070882,0,0,0,0,0,0,0,0
1.12158,389.31214681176829,6.1044569537809874,148.17055584043811,0,0,0,0,0,0,0,0
1.1215999999999999,389.23484545832605,6.1400169092702095,149.88656752028479,0,0,0,0,0,0,0,0
1.1216199999999998,389.15831398499648,6.2336403048464781,151.59666193510824,0,0,0,0,0,0,0,0
1.12164,389.08321931323809,6.3851028175599245,153.30077157332443,0,0,0,0,0,0,0,0
1.1216599999999999,389.01226716987588,6.3996854202359179,154.99882915952568,0,0,0,0,0,0,0,0
1.12168,388.94216401805403,6.4068714683387071,156.69076765739823,0,0,0,0,0,0,0,0
1.1216999999999999,388.87251808268792,6.4712776707849144,158.3765202720306,0,0,0,0,0,0,0,0
1.1217200000000001,388.8040212706988,6.5926745885648561,160.05602045284186,0,0,0,0,0,0,0,0
1.12174,388.73825888292521,6.7060411879471022,161.72920189601032,0,0,0,0,0,0,0,0
1.1217599999999999,388.67549187539692,6.7463778883534626,163.39599854721271,0,0,0,0,0,0,0,0
1.12178,388.61392973500716,6.7782527640815209,165.05634460418625,0,0,0,0,0,0,0,0
1.1217999999999999,388.55315011373085,6.866209567724999,166.71017451928157,0,0,0,0,0,0,0,0
1.12182,388.4938648175974,7.0100032453996617,168.35742300215529,0,0,0,0,0,0,0,0
1.1218399999999999,388.43826649835398,7.0799138754377768,169.99802502222812,0,0,0,0,0,0,0,0
1.1218599999999999,388.38506462499191,7.0757216158585505,171.63191581135641,0,0,0,0,0,0,0,0
1.12188,388.33219113315869,7.1266538871224947,173.25903086634406,0,0,0,0,0,0,0,0
1.1218999999999999,388.28037913345298,7.2324632969557099,174.87930595144539,0,0,0,0,0,0,0,0
1.12192,388.23035807554157,7.3928896381192013,176.49267710100375,0,0,0,0,0,0,0,0
1.1219399999999999,388.18557429756294,7.3489026837895812,178.09908062185946,0,0,0,0,0,0,0,0
1.1219599999999998,388.14056819277135,7.3590377324417391,179.6984530959667,0,0,0,0,0,0,0,0
1.12198,388.09609243786753,7.4230472772998812,181.29073138285321,0,0,0,0,0,0,0,0
1.1219999999999999,388.05289588058378,7.5406702454164343,182.8758526220698,0,0,0,0,0,0,0,0
1.12202,388.01172335256416,7.7116320696312561,184.45375423577278,0,0,0,0,0,0,0,0
1.1220399999999999,387.97615406929441,7.6770292687844499,186.02437393107968,0,0,0,0,0,0,0,0
1.1220600000000001,387.940475554182,7.6952304822215387,187.58764970264272,0,0,0,0,0,0,0,0
1.12208,387.90545391088375,7.7659763669285873,189.14351983498287,0,0,0,0,0,0,0,0
1.1220999999999999,387.87185107794494,7.8889933491558528,190.69192290502562,0,0,0,0,0,0,0,0
1.12212,387.84042462400026,8.063993704945025,192.23279778448287,0,0,0,0,0,0,0,0
1.1221399999999999,387.81490224683375,8.032170055603121,193.76608364222494,0,0,0,0,0,0,0,0
1.12216,387.78929337065568,8.0517566256835895,195.29171994679311,0,0,0,0,0,0,0,0
1.12218,387.76437481975131,8.1224838422089061,196.80964646860946,0,0,0,0,0,0,0,0
1.1221999999999999,387.74091892797571,8.2440672658287877,198.31980328258916,0,0,0,0,0,0,0,0
1.12222,387.72083498867761,8.3515998200532007,199.82213077034029,0,0,0,0,0,0,0,0
1.1222399999999999,387.70469245381429,8.3155530790554248,201.31656962249176,0,0,0,0,0,0,0,0
1.12226,387.68837822658037,8.3294726869193259,202.80306084119718,0,0,0,0,0,0,0,0
1.1222799999999999,387.67267742509165,8.3930809368196471,204.28154574230163,0,0,0,0,0,0,0,0
1.1222999999999999,387.65837037310757,8.5060846492188578,205.75196595776623,0,0,0,0,0,0,0,0
1.12232,387.64623235884682,8.668175270103859,207.21426343793189,0,0,0,0,0,0,0,0
1.1223399999999999,387.63983378127296,8.6852418741155564,208.66838045377148,0,0,0,0,0,0,0,0
1.12236,387.63448825082162,8.6861478001281469,210.11425959926137,0,0,0,0,0,0,0,0
1.1223799999999999,387.62954994935069,8.7352013301907014,211.55184379354247,0,0,0,0,0,0,0,0
1.1223999999999998,387.62580404009822,8.8321032558692441,212.98107628326542,0,0,0,0,0,0,0,0
1.12242,387.62403036346632,8.9765384441242855,214.40190064479162,0,0,0,0,0,0,0,0
1.1224399999999999,387.62789950284719,8.9743962518954845,215.81426078638239,0,0,0,0,0,0,0,0
1.12246,387.63250980100696,8.9545180527343202,217.21810095050324,0,0,0,0,0,0,0,0
1.1224799999999999,387.63717263592798,8.9812057542528976,218.6133657159229,0,0,0,0,0,0,0,0
1.1225000000000001,387.64267553363948,9.0541574448396389,220.00000000000264,0,0,0,0,0,0,0,0
1.12252,387.64980046011107,9.1730547789349419,221.37794906077025,0,0,0,0,0,0,0,0
1.1225399999999999,387.65932354554224,9.3375630971904435,222.74715849916876,0,0,0,0,0,0,0,0
1.12256,387.67544110670684,9.2889279217638361,224.10757426116629,0,0,0,0,0,0,0,0
1.1225799999999999,387.69108892164621,9.2851903220141043,225.45914263985335,0,0,0,0,0,0,0,0
1.1226,387.70705353729818,9.3260497007193681,226.80181027764905,0,0,0,0,0,0,0,0
1.12262,387.72411577214228,9.4111885795181625,228.13552416830976,0,0,0,0,0,0,0,0
1.1226399999999999,387.74305042283885,9.5402727266017564,229.460231659107,0,0,0,0,0,0,0,0
1.12266,387.7659674766104,9.6483381814109794,230.77588045286907,0,0,0,0,0,0,0,0
1.1226799999999999,387.79294141762131,9.6703791457650183,232.08241861001065,0,0,0,0,0,0,0,0
1.1227,387.82109707107503,9.6706458029288971,233.37979455066599,0,0,0,0,0,0,0,0
1.1227199999999999,387.84963004481932,9.7134362640020182,234.66795705663097,0,0,0,0,0,0,0,0
1.1227399999999998,387.87931027415664,9.7984216628201803,235.94685527346732,0,0,0,0,0,0,0,0
1.12276,387.91090127015167,9.9252561541725317,237.21643871247477,0,0,0,0,0,0,0,0
1.1227799999999999,387.9473509518088,9.9642878976307045,238.47665725264997,0,0,0,0,0,0,0,0
1.1228,387.98530744839189,9.9797590754094845,239.72746114275691,0,0,0,0,0,0,0,0
1.1228199999999999,388.02493384186226,9.9713190770666831,240.96880100315445,0,0,0,0,0,0,0,0
1.1228399999999998,388.06476281552699,10.003277265366233,242.20062782788204,0,0,0,0,0,0,0,0
1.12286,388.10555005526783,10.075298626048779,243.42289298657016,0,0,0,0,0,0,0,0
1.1228799999999999,388.14804450687279,10.187031025241238,244.6355482262278,0,0,0,0,0,0,0,0
1.1229,388.19442850531931,10.273421973632498,245.83854567333557,0,0,0,0,0,0,0,0
1.1229199999999999,388.24467182187277,10.269361776166948,247.03183783559231,0,0,0,0,0,0,0,0
1.12294,388.29560294872118,10.239145360446338,248.21537760388827,0,0,0,0,0,0,0,0
1.12296,388.34629608064938,10.247135573042568,249.38911825407862,0,0,0,0,0,0,0,0
1.1229799999999999,388.39748895820884,10.292997635748906,250.5530134489029,0,0,0,0,0,0,0,0
1.123,388.44991238460466,10.376379608409673,251.70701723978215,0,0,0,0,0,0,0,0
1.1230199999999999,388.50428989715357,10.496912555463327,252.85108406860186,0,0,0,0,0,0,0,0
1.12304,388.5628281769296,10.589466498178847,253.9851687695832,0,0,0,0,0,0,0,0
1.1230599999999999,388.62436410143835,10.653604484236176,255.10922657098359,0,0,0,0,0,0,0,0
1.1230799999999999,388.68900696713263,10.62414830401076,256.22321309693598,0,0,0,0,0,0,0,0
1.1231,388.75338867296625,10.630239740481301,257.32708436916971,0,0,0,0,0,0,0,0
1.1231199999999999,388.81821675846237,10.67153483259227,258.42079680871723,0,0,0,0,0,0,0,0
1.12314,388.88419144822291,10.747672727260129,259.50430723770376,0,0,0,0,0,0,0,0
1.1231599999999999,388.95200531870353,10.858275859275054,260.57757288097338,0,0,0,0,0,0,0,0
1.1231799999999998,389.02476654054982,10.873305169884295,261.640551367846,0,0,0,0,0,0,0,0
1.1232,389.09814546630071,10.921960797255784,262.69320073376053,0,0,0,0,0,0,0,0
1.1232199999999999,389.17282073814772,11.003872678154341,263.73547942190345,0,0,0,0,0,0,0,0
1.12324,389.25101689513372,10.988932492726702,264.76734628491562,0,0,0,0,0,0,0,0
1.1232599999999999,389.32920704792849,11.006442372077515,265.78876058644153,0,0,0,0,0,0,0,0
1.1232800000000001,389.40805609619434,11.056042369545706,266.79968200281183,0,0,0,0,0,0,0,0
1.1233,389.48822110419462,11.137356257627708,267.80007062456184,0,0,0,0,0,0,0,0
1.1233199999999999,389.57193861376459,11.185080421379467,268.78988695807078,0,0,0,0,0,0,0,0
1.12334,389.65784368347278,11.198760582349589,269.76909192710241,0,0,0,0,0,0,0,0
1.1233599999999999,389.74431979381836,11.242919242074649,270.73764687427695,0,0,0,0,0,0,0,0
1.12338,389.83199996790785,11.317177203329599,271.6955135627561,0,0,0,0,0,0,0,0
1.1234,389.92308690894117,11.291195088400745,272.64265417755973,0,0,0,0,0,0,0,0
1.1234199999999999,390.0138960843438,11.294485123637626,273.57903132721549,0,0,0,0,0,0,0,0
1.12344,390.10504462185008,11.326684267854334,274.50460804516524,0,0,0,0,0,0,0,0
1.1234599999999999,390.19714155152445,11.387413986023562,275.41934779120817,0,0,0,0,0,0,0,0
1.12348,390.26773460719113,0.00027632318473637949,276.32321445300198,0,0,0,1,0,0,0,0
1.1234999999999999,390.1199330912238,0.00027721614294966138,277.21617234742217,0,0,0,1,0,0,0,0
1.1235199999999999,389.97218774482667,0.00027809815714428972,278.09818622202829,0,0,0,1,0,0,0,0
1.12354,389.82449852641338,0.00027896919249986219,278.96922125643061,0,0,0,1,0,0,0,0
1.1235599999999999,389.67686542834952,0.00027982921462937882,279.8292430636418,0,0,0,1,0,0,0,0
1.12358,389.52928842567911,0.00028067818958065388,280.6782176914889,0,0,0,1,0,0,0,0
1.1235999999999999,389.38176736266195,0.00028151608383759468,281.51611162389202,0,0,0,1,0,0,0,0
1.1236199999999998,389.23430216854285,0.00028234286432157844,282.34289178224105,0,0,0,1,0,0,0,0
1.12364,389.08689282216085,0.00028315849839273457,283.15852552667843,0,0,0,1,0,0,0,0
1.1236599999999999,388.93953930236182,0.0002839629538512119,283.96298065736573,0,0,0,1,0,0,0,0
1.12368,388.79224158800014,0.00028475619893850081,284.75622541580645,0,0,0,1,0,0,0,0
1.1236999999999999,388.64499965793772,0.0002855382023386292,285.53822848604131,0,0,0,1,0,0,0,0
1.1237200000000001,388.49781349104484,0.000286308933179456,286.30895899594231,0,0,0,1,0,0,0,0
1.12374,388.35068306620013,0.00028706836103383328,287.06838651837467,0,0,0,1,0,0,0,0
1.1237599999999999,388.20360836228997,0.00028781645592085699,287.81648107244723,0,0,0,1,0,0,0,0
1.12378,388.05658935820821,0.00028855318830702821,288.55321312467453,0,0,0,1,0,0,0,0
1.1237999999999999,387.90962603285669,0.00028927852910740065,289.27855359012324,0,0,0,1,0,0,0,0
1.12382,387.76271836514604,0.00028999244968677467,289.99247383360688,0,0,0,1,0,0,0,0
1.12384,387.6158663339944,0.00029069492186077519,290.6949456707639,0,0,0,1,0,0,0,0
1.1238599999999999,387.46906991832793,0.00029138591789701021,291.38594136921535,0,0,0,1,0,0,0,0
1.12388,387.32232909707989,0.00029206541051614543,292.0654336496404,0,0,0,1,0,0,0,0
1.1238999999999999,387.1756438491937,0.00029273337289296341,292.73339568683491,0,0,0,1,0,0,0,0
1.12392,387.02901415361833,0.00029338977865747126,293.38980111081952,0,0,0,1,0,0,0,0
1.1239399999999999,386.88243998931256,0.00029403460189586386,294.03462400780234,0,0,0,1,0,0,0,0
1.1239599999999998,386.73592133524193,0.00029466781715164754,294.66783892130326,0,0,0,1,0,0,0,0
1.12398,386.58945817038006,0.00029528939942657326,295.28942085308699,0,0,0,1,0,0,0,0
1.1239999999999999,386.44305047370926,0.00029589932418161495,295.89934526414061,0,0,0,1,0,0,0,0
1.12402,386.29669822421948,0.00029649756733800405,296.49758807570947,0,0,0,1,0,0,0,0
1.1240399999999999,386.15040140090815,0.00029708410527811454,297.08412567018098,0,0,0,1,0,0,0,0
1.1240600000000001,386.00415998278146,0.0002976589148464433,297.6589348920657,0,0,0,1,0,0,0,0
1.12408,385.85797394885248,0.00029822197335048251,298.22199304886954,0,0,0,1,0,0,0,0
1.1240999999999999,385.71184327814325,0.00029877325856165181,298.77327791202572,0,0,0,1,0,0,0,0
1.12412,385.56576794968385,0.00029931274871615964,299.31276771775663,0,0,0,1,0,0,0,0
1.1241399999999999,385.41974794251098,0.00029984042251584886,299.84044116791875,0,0,0,1,0,0,0,0
1.12416,385.27378323567012,0.0003003562591290709,300.3562774308773,0,0,0,1,0,0,0,0
1.12418,385.12787380821459,0.0003008602381914702,300.86025614229061,0,0,0,1,0,0,0,0
1.1241999999999999,384.98201963920542,0.00030135233980682109,301.3523574059468,0,0,0,1,0,0,0,0
1.12422,384.83622070771298,0.0003018325445477986,301.83256179453491,0,0,0,1,0,0,0,0
1.1242399999999999,384.69047699281339,0.00030230083345673318,302.30085035039917,0,0,0,1,0,0,0,0
1.12426,384.54478847359178,0.00030275718804638897,302.7572045863177,0,0,0,1,0,0,0,0
1.1242799999999999,384.39915512914155,0.00030320159030065993,303.20160648619844,0,0,0,1,0,0,0,0
1.1242999999999999,384.25357693856307,0.00030363402267531031,303.63403850581955,0,0,0,1,0,0,0,0
1.12432,384.10805388096526,0.00030405446809865391,304.05448357350906,0,0,0,1,0,0,0,0
1.1243399999999999,383.96258593546503,0.00030446290997221794,304.46292509080797,0,0,0,1,0,0,0,0
1.12436,383.81717308118692,0.00030485933217142382,304.85934693315193,0,0,0,1,0,0,0,0
1.1243799999999999,383.67181529726327,0.00030524371904619484,305.2437334504782,0,0,0,1,0,0,0,0
1.1243999999999998,383.52651256283434,0.00030561605542159899,305.61606946786901,0,0,0,1,0,0,0,0
1.12442,383.38126485704851,0.00030597632659843684,305.97634028613902,0,0,0,1,0,0,0,0
1.1244399999999999,383.23607215906242,0.00030632451835381291,306.32453168240676,0,0,0,1,0,0,0,0
1.12446,383.09093444803887,0.0003066606169417189,306.66062991067838,0,0,0,1,0,0,0,0
1.1244769081547918,383.09093444803887,0.0003066606169417189,306.66062991067838,0,0,0,1,0,0,0,0
