"Time / s","Vo:Measured voltage","IL:Measured current","Vin:Measured voltage","open1:Output","open3:Output","open2:Output","open4:Output","short1:Output","short2:Output","short3:Output","short4:Output"
1.133246463480059,389.27481865098008,-10.924592044598132,-264.76734628492318,0,0,0,0,0,0,0,0
1.1332599999999999,389.35301617008707,-10.941628247436393,-265.78876058644892,0,0,0,0,0,0,0,0
1.1332799999999998,389.43186788535417,-10.990754719472399,-266.79968200280103,0,0,0,0,0,0,0,0
1.1333,389.51203081385898,-11.07159533803563,-267.80007062456912,0,0,0,0,0,0,0,0
1.1333199999999999,389.5953922815695,-11.118840016223565,-268.789886958078,0,0,0,0,0,0,0,0
1.13334,389.68058543262339,-11.13204662794397,-269.76909192710076,0,0,0,0,0,0,0,0
1.1333599999999999,389.76634255674099,-11.175748420339835,-270.737646874284,0,0,0,0,0,0,0,0
1.1333800000000001,389.85329700297092,-11.249566351326301,-271.69551356275451,0,0,0,0,0,0,0,0
1.1334,389.94431828612892,-11.223155055969698,-272.64265417755814,0,0,0,0,0,0,0,0
1.1334199999999999,390.03505743093245,-11.22601773439701,-273.5790313272139,0,0,0,0,0,0,0,0
1.13344,390.12613155200268,-11.257791445166417,-274.50460804516365,0,0,0,0,0,0,0,0
1.1334599999999999,390.21814966822717,-11.318097753264853,-275.41934779120658,0,0,0,0,0,0,0,0
1.13348,390.31171237943755,-11.406542938565392,-276.32321445300045,0,0,0,0,0,0,0,0
1.1335,390.40869418287474,-11.457665337511628,-277.21617234742064,0,0,0,0,0,0,0,0
1.1335199999999999,390.50760767820208,-11.471001604867075,-278.09818622202681,0,0,0,0,0,0,0,0
1.13354,390.60706089324589,-11.511206711314903,-278.96922125642914,0,0,0,0,0,0,0,0
1.1335599999999999,390.70762743860632,-11.577891963877594,-279.82924306364032,0,0,0,0,0,0,0,0
1.13358,390.81137688803619,-11.60553579009509,-280.67821769148742,0,0,0,0,0,0,0,0
1.1335999999999999,390.91675831316718,-11.593670960286358,-281.51611162389054,0,0,0,0,0,0,0,0
1.1336199999999999,391.02211789083225,-11.607022981093129,-282.34289178223963,0,0,0,0,0,0,0,0
1.13364,391.12800158267135,-11.645212467279045,-283.15852552667707,0,0,0,0,0,0,0,0
1.1336599999999999,391.23494671398481,-11.707845988958436,-283.96298065736437,0,0,0,0,0,0,0,0
1.13368,391.34348167309776,-11.794516298475942,-284.75622541580509,0,0,0,0,0,0,0,0
1.1336999999999999,391.45606371329376,-11.774349528816897,-285.53822848604,0,0,0,0,0,0,0,0
1.1337199999999998,391.56841423000918,-11.777326911705819,-286.30895899593406,0,0,0,0,0,0,0,0
1.13374,391.68104101728875,-11.80306955829054,-287.06838651837342,0,0,0,0,0,0,0,0
1.1337599999999999,391.79444315029946,-11.851185356782116,-287.81648107244598,0,0,0,0,0,0,0,0
1.13378,391.90911069872806,-11.921269204185538,-288.55321312467987,0,0,0,0,0,0,0,0
1.1337999999999999,392.02552444549445,-12.012903244957815,-289.27855359012199,0,0,0,0,0,0,0,0
1.1338200000000001,392.14652963209676,-11.994975096306655,-289.99247383361211,0,0,0,0,0,0,0,0
1.13384,392.2673198838794,-11.99767306983181,-290.69494567076902,0,0,0,0,0,0,0,0
1.1338599999999999,392.38835342017273,-12.020612949041814,-291.38594136922035,0,0,0,0,0,0,0,0
1.13388,392.51007953677885,-12.063398441166926,-292.06543364964534,0,0,0,0,0,0,0,0
1.1338999999999999,392.63293834127319,-12.125621416704799,-292.73339568683974,0,0,0,0,0,0,0,0
1.13392,392.75799486779255,-12.141419564481916,-293.38980111081838,0,0,0,0,0,0,0,0
1.1339399999999999,392.88493929731766,-12.110327157670726,-294.03462400780705,0,0,0,0,0,0,0,0
1.1339599999999999,393.01133629623331,-12.097371410906124,-294.66783892130786,0,0,0,0,0,0,0,0
1.13398,393.13759388325201,-12.102172044425096,-295.28942085308591,0,0,0,0,0,0,0,0
1.1339999999999999,393.26411115735658,-12.124337895505965,-295.89934526413958,0,0,0,0,0,0,0,0
1.13402,393.39127805662434,-12.163467160709457,-296.49758807570845,0,0,0,0,0,0,0,0
1.1340399999999999,393.51947512271812,-12.2191476440901,-297.08412567017996,0,0,0,0,0,0,0,0
1.1340599999999998,393.64907327117299,-12.290957011233557,-297.65893489205962,0,0,0,0,0,0,0,0
1.13408,393.78043356760531,-12.378463048972574,-298.22199304886857,0,0,0,0,0,0,0,0
1.1340999999999999,393.91390700997056,-12.481223930630529,-298.77327791202475,0,0,0,0,0,0,0,0
1.13412,394.05229509903359,-12.467472857405394,-299.31276771775566,0,0,0,0,0,0,0,0
1.1341399999999999,394.19047997672209,-12.468005893081161,-299.84044116791785,0,0,0,0,0,0,0,0
1.1341600000000001,394.32878608747075,-12.482428701863112,-300.35627743087645,0,0,0,0,0,0,0,0
1.13418,394.46894435962889,-12.444610248320622,-300.86025614228981,0,0,0,0,0,0,0,0
1.1341999999999999,394.60691466874215,-12.48558339698342,-301.35235740594601,0,0,0,0,0,0,0,0
1.13422,394.74658086434346,-12.47347691437353,-301.83256179453406,0,0,0,0,0,0,0,0
1.1342399999999999,394.88605610069914,-12.473620737336725,-302.30085035039838,0,0,0,0,0,0,0,0
1.13426,395.02561979702733,-12.485617704445435,-302.75720458631696,0,0,0,0,0,0,0,0
1.13428,395.16695384933018,-12.443218765151654,-303.20160648619776,0,0,0,0,0,0,0,0
1.1342999999999999,395.30673418624707,-12.477688000361463,-303.63403850581881,0,0,0,0,0,0,0,0
1.13432,395.44803092608379,-12.456903781748053,-304.05448357350832,0,0,0,0,0,0,0,0
1.1343399999999999,395.58826703237253,-12.512228419045174,-304.46292509080729,0,0,0,0,0,0,0,0
1.13436,395.73049814188164,-12.51143307608244,-304.85934693315477,0,0,0,0,0,0,0,0
1.1343799999999999,395.8727670309836,-12.520000352985525,-305.24373345047758,0,0,0,0,0,0,0,0
1.1343999999999999,396.01528737517322,-12.537524382811394,-305.61606946786839,0,0,0,0,0,0,0,0
1.13442,396.15826323208501,-12.56359347086279,-305.97634028614164,0,0,0,0,0,0,0,0
1.1344399999999999,396.30188891226601,-12.597790359522696,-306.32453168240926,0,0,0,0,0,0,0,0
1.13446,396.44634885620889,-12.639692496323818,-306.66062991068077,0,0,0,0,0,0,0,0
1.1344799999999999,396.59181751772678,-12.688872305090838,-306.98462170236752,0,0,0,0,0,0,0,0
1.1344999999999998,396.73845925372711,-12.744897459990916,-307.29649426683136,0,0,0,0,0,0,0,0
1.13452,396.88642822045762,-12.807331162326379,-307.59623529188025,0,0,0,0,0,0,0,0
1.1345399999999999,397.03586827627447,-12.875732419902182,-307.88383294424625,0,0,0,0,0,0,0,0
1.13456,397.18691289099581,-12.949656328798696,-308.15927587007167,0,0,0,0,0,0,0,0
1.1345799999999999,397.34221929172003,-12.89624360204413,-308.42255319533655,0,0,0,0,0,0,0,0
1.1346000000000001,397.49461575189315,-12.91361711295173,-308.67365452630753,0,0,0,0,0,0,0,0
1.13462,397.64905944659444,-12.868958101205534,-308.91256994992955,0,0,0,0,0,0,0,0
1.1346399999999999,397.80079439661353,-12.894343208134138,-309.13929003423311,0,0,0,0,0,0,0,0
1.13466,397.9547533143085,-12.856845966318614,-309.35380582869931,0,0,0,0,0,0,0,0
1.1346799999999999,398.10780371683961,-12.822307410181969,-309.55610886460806,0,0,0,0,0,0,0,0
1.1347,398.25915925641453,-12.856702042716057,-309.74619115538559,0,0,0,0,0,0,0,0
1.13472,398.41214917406182,-12.826921884903378,-309.92404519690507,0,0,0,0,0,0,0,0
1.1347399999999999,398.56276415037451,-12.865309249912301,-310.08966396779522,0,0,0,0,0,0,0,0
1.13476,398.71588158666168,-12.838674314739492,-310.24304092971192,0,0,0,0,0,0,0,0
1.1347799999999999,398.86832359316804,-12.812977530961199,-310.38417002759246,0,0,0,0,0,0,0,0
1.1348,399.01925905414066,-12.85431367808151,-310.5130456899044,0,0,0,0,0,0,0,0
1.1348199999999999,399.17196587271411,-12.829316165010052,-310.62966282885492,0,0,0,0,0,0,0,0
1.1348399999999998,399.32238662090123,-12.870576894279768,-310.73401684060019,0,0,0,0,0,0,0,0
1.13486,399.47535379428888,-12.844650368999126,-310.82610360542333,0,0,0,0,0,0,0,0
1.1348799999999999,399.62600118991099,-12.884208555831124,-310.90591948789489,0,0,0,0,0,0,0,0
1.1349,399.77914682143631,-12.85570572261617,-310.97346133702189,0,0,0,0,0,0,0,0
1.1349199999999999,399.92990094377762,-12.891916431346255,-311.02872648636662,0,0,0,0,0,0,0,0
1.1349399999999998,400.08306547415816,-12.859195652673927,-311.07171275415624,0,0,0,0,0,0,0,0
1.13496,400.23372942515755,-12.890421697459818,-311.1024184433669,0,0,0,0,0,0,0,0
1.1349799999999999,400.3866760584491,-12.851851266643729,-311.12084234178951,0,0,0,0,0,0,0,0
1.135,400.53776212054424,-12.876468500228645,-311.12698372208092,0,0,0,0,0,0,0,0
1.1350199999999999,400.68853822966446,-12.897173577783912,-311.12084234178963,0,0,0,0,0,0,0,0
1.13504,400.83969358393006,-12.913567671612734,-311.10241844336673,0,0,0,0,0,0,0,0
1.13506,400.99276491474245,-12.858419772098699,-311.07171275415658,0,0,0,0,0,0,0,0
1.1350799999999999,401.14356595254293,-12.864926192814632,-311.02872648636708,0,0,0,0,0,0,0,0
1.1351,401.2943983459453,-12.865898419796396,-310.97346133702194,0,0,0,0,0,0,0,0
1.1351199999999999,401.44348376710309,-12.927817416816193,-310.90591948789557,0,0,0,0,0,0,0,0
1.13514,401.59475155892062,-12.91651729194639,-310.82610360542338,0,0,0,0,0,0,0,0
1.1351599999999999,401.74561807040783,-12.898450298506257,-310.7340168406011,0,0,0,0,0,0,0,0
1.1351799999999999,401.89670441581234,-12.873221505255838,-310.62966282885594,0,0,0,0,0,0,0,0
1.1352,402.04541189150189,-12.907407338059771,-310.51304568990452,0,0,0,0,0,0,0,0
1.1352199999999999,402.19641385279476,-12.866659640275959,-310.38417002759377,0,0,0,0,0,0,0,0
1.13524,402.34466621307786,-12.884567412767188,-310.24304092971198,0,0,0,0,0,0,0,0
1.1352599999999999,402.49317918634921,-12.893756761464179,-310.08966396779675,0,0,0,0,0,0,0,0
1.1352799999999998,402.64174446418326,-12.893816171221362,-309.92404519690672,0,0,0,0,0,0,0,0
1.1353,402.79014428294704,-12.884339836333767,-309.7461911553857,0,0,0,0,0,0,0,0
1.1353199999999999,402.93815156357527,-12.864927917097152,-309.55610886461,0,0,0,0,0,0,0,0
1.13534,403.08553005723701,-12.835186792676682,-309.35380582869942,0,0,0,0,0,0,0,0
1.1353599999999999,403.23203449679795,-12.794729310133034,-309.13929003423516,0,0,0,0,0,0,0,0
1.1353800000000001,403.37741075399595,-12.743175029458591,-308.91256994992966,0,0,0,0,0,0,0,0
1.1354,403.52139600221705,-12.680150464477963,-308.67365452630764,0,0,0,0,0,0,0,0
1.1354199999999999,403.66371888478562,-12.605289319469639,-308.42255319533899,0,0,0,0,0,0,0,0
1.13544,403.80268433691583,-12.585516498047099,-308.15927587007184,0,0,0,0,0,0,0,0
1.1354599999999999,403.94099468202239,-12.553231117528998,-307.88383294424892,0,0,0,0,0,0,0,0
1.13548,404.07771810471439,-12.575377805840461,-307.59623529188036,0,0,0,0,0,0,0,0
1.1355,404.21474744722491,-12.584266041699127,-307.29649426683426,0,0,0,0,0,0,0,0
1.1355199999999999,404.35177258465416,-12.579488476901831,-306.98462170237053,0,0,0,0,0,0,0,0
1.13554,404.48847422631906,-12.560646170937838,-306.66062991067793,0,0,0,0,0,0,0,0
1.1355599999999999,404.62369267953886,-12.594769501292072,-306.3245316824125,0,0,0,0,0,0,0,0
1.13558,404.75947100581476,-12.61407500282702,-305.97634028613857,0,0,0,0,0,0,0,0
1.1355999999999999,404.89546529354146,-12.618151241746821,-305.61606946787185,0,0,0,0,0,0,0,0
1.1356199999999999,405.03132245563216,-12.60659605464738,-305.24373345048122,0,0,0,0,0,0,0,0
1.13564,405.16506586505875,-12.646526316657887,-304.85934693315141,0,0,0,0,0,0,0,0
1.1356599999999999,405.29948048320176,-12.670087641728387,-304.46292509081104,0,0,0,0,0,0,0,0
1.13568,405.43418940157812,-12.676868404439908,-304.05448357350849,0,0,0,0,0,0,0,0
1.1356999999999999,405.56880661540941,-12.666467079736957,-303.6340385058229,0,0,0,0,0,0,0,0
1.1357199999999998,405.7029372593073,-12.638492482354948,-303.20160648620185,0,0,0,0,0,0,0,0
1.13574,405.83617784824628,-12.592564000247918,-302.75720458631713,0,0,0,0,0,0,0,0
1.1357599999999999,405.96811652367739,-12.528311821885932,-302.30085035040275,0,0,0,0,0,0,0,0
1.13578,406.09833330463863,-12.445377157295455,-301.83256179453434,0,0,0,0,0,0,0,0
1.1357999999999999,406.22640034373109,-12.343412452719324,-301.35235740595061,0,0,0,0,0,0,0,0
1.1358200000000001,406.34988356687944,-12.357498376675027,-300.86025614228998,0,0,0,0,0,0,0,0
1.13584,406.47341560403487,-12.351935081496379,-300.35627743087667,0,0,0,0,0,0,0,0
1.1358599999999999,406.59655149623143,-12.326332967830769,-299.84044116792279,0,0,0,0,0,0,0,0
1.13588,406.71883784992571,-12.280314220824311,-299.31276771775595,0,0,0,0,0,0,0,0
1.1358999999999999,406.83824043167124,-12.281301927941829,-298.77327791202993,0,0,0,0,0,0,0,0
1.13592,406.95738564782164,-12.261187644360708,-298.22199304886885,0,0,0,0,0,0,0,0
1.1359399999999999,407.07497705287875,-12.287422603071544,-297.65893489206502,0,0,0,0,0,0,0,0
1.1359599999999999,407.19286303234514,-12.291825673807852,-297.08412567018547,0,0,0,0,0,0,0,0
1.13598,407.31055626728465,-12.274006257103132,-296.49758807570873,0,0,0,0,0,0,0,0
1.1359999999999999,407.42756112513672,-12.233586512030744,-295.89934526414532,0,0,0,0,0,0,0,0
1.13602,407.54337394741299,-12.170201569271713,-295.2894208530862,0,0,0,0,0,0,0,0
1.1360399999999999,407.65748334192608,-12.083499737077149,-294.66783892131383,0,0,0,0,0,0,0,0
1.1360599999999998,407.76742323860861,-12.109033090247232,-294.03462400781314,0,0,0,0,0,0,0,0
1.13608,407.87761707864678,-12.110621781996457,-293.38980111081867,0,0,0,0,0,0,0,0
1.1360999999999999,407.98753820576525,-12.087881763511165,-292.73339568684611,0,0,0,0,0,0,0,0
1.13612,408.09665193379482,-12.040442614072418,-292.06543364963949,0,0,0,0,0,0,0,0
1.1361399999999999,408.20441584922662,-11.967947744094969,-291.38594136922688,0,0,0,0,0,0,0,0
1.1361600000000001,408.30874448217162,-11.938089033455142,-290.69494567076299,0,0,0,0,0,0,0,0
1.13618,408.4113040589499,-11.950587228626182,-289.99247383360603,0,0,0,0,0,0,0,0
1.1361999999999999,408.5138137395553,-11.937051058774616,-289.27855359012881,0,0,0,0,0,0,0,0
1.13622,408.61570949355018,-11.897109752776499,-288.55321312467356,0,0,0,0,0,0,0,0
1.1362399999999999,408.71641968321245,-11.830406961007661,-287.81648107245303,0,0,0,0,0,0,0,0
1.13626,408.81346422440186,-11.872840797410225,-287.06838651837376,0,0,0,0,0,0,1,0
1.13628,408.91108088854958,-11.8878739496826,-286.3089589959414,0,0,0,0,0,0,1,0
1.1362999999999999,409.00868426066626,-11.875125501567798,-285.53822848604733,0,0,0,0,0,0,1,0
1.13632,409.10568122335172,-11.834229204635287,-284.75622541580543,0,0,0,0,0,0,1,0
1.1363399999999999,409.20147127500968,-11.764833794180554,-283.96298065737199,0,0,0,0,0,0,1,0
1.13636,409.29544685236613,-11.666603171073366,-283.15852552667741,0,0,0,0,0,0,1,0
1.1363799999999999,409.38549331215017,-11.607430913799998,-282.34289178224748,0,0,0,0,0,0,1,0
1.1363999999999999,409.47316419599866,-11.58705489039656,-281.51611162389844,0,0,0,0,0,0,1,0
1.13642,409.56006485659384,-11.536929033334889,-280.67821769148787,0,0,0,0,0,0,1,0
1.1364399999999999,409.64429918522245,-11.524970603962775,-279.82924306364845,0,0,0,0,0,0,1,0
1.13646,409.72736803908157,-11.550886727939046,-278.96922125642959,0,0,0,0,0,0,1,0
1.1364799999999999,409.81062190201993,-11.5460644332809,-278.09818622203511,0,0,0,0,0,0,1,0
1.1364999999999998,409.89342367070452,-11.510143496104069,-277.21617234742911,0,0,0,0,0,0,1,0
1.13652,409.97512922331708,-11.442779404752583,-276.32321445300084,0,0,0,0,0,0,1,0
1.1365399999999999,410.05508774766685,-11.343643527911185,-275.41934779121527,0,0,0,0,0,0,1,0
1.13656,410.13264207255804,-11.212423275179825,-274.5046080451641,0,0,0,0,0,0,1,0
1.1365799999999999,410.20492883858071,-11.185528038829153,-273.57903132722276,0,0,0,0,0,0,1,0
1.1366000000000001,410.27508487985341,-11.194364171333378,-272.6426541775586,0,0,0,0,0,0,1,0
1.13662,410.34451421976405,-11.238631171837239,-271.69551356275497,0,0,0,0,0,0,1,0
1.1366399999999999,410.41446854015669,-11.249610302435995,-270.73764687429315,0,0,0,0,0,0,1,0
1.13666,410.4842783931644,-11.226944251515304,-269.76909192710121,0,0,0,0,0,0,1,0
1.1366799999999999,410.55326760044579,-11.170291817075558,-268.78988695808744,0,0,0,0,0,0,1,0
1.1367,410.62075357944576,-11.079328063423798,-267.80007062456059,0,0,0,0,0,0,1,0
1.13672,410.68604767259251,-10.953744470587521,-266.79968200281058,0,0,0,0,0,0,1,0
1.1367399999999999,410.74703988434817,-10.861691355656834,-265.78876058645864,0,0,0,0,0,0,1,0
1.13676,410.80391209710211,-10.871377872898519,-264.76734628491437,0,0,0,0,0,0,1,0
1.1367799999999999,410.8612736457099,-10.845622099947425,-263.73547942191152,0,0,0,0,0,0,1,0
1.1368,410.91657382025085,-10.852549436956918,-262.69320073375923,0,0,0,0,0,0,1,0
1.1368199999999999,410.97163603248435,-10.823384004553226,-261.64055136785424,0,0,0,0,0,0,1,0
1.1368399999999999,411.02575729779073,-10.757797720593596,-260.57757288098173,0,0,0,0,0,0,1,0
1.13686,411.07822869593014,-10.655478994247197,-259.50430723770245,0,0,0,0,0,0,1,0
1.1368799999999999,411.12833569438163,-10.516132860754343,-258.4207968087257,0,0,0,0,0,0,1,0
1.1369,411.17278885848498,-10.545028084543716,-257.3270843691684,0,0,0,0,0,0,1,0
1.1369199999999999,411.21741427721139,-10.536366301127691,-256.22321309694462,0,0,0,0,0,0,1,0
1.1369399999999998,411.26035106856006,-10.558348284471602,-255.10922657099229,0,0,0,0,0,0,1,0
1.13696,411.30332414020614,-10.542139984985626,-253.98516876958178,0,0,0,0,0,0,1,0
1.1369799999999999,411.34561301708504,-10.487417975746428,-252.85108406861073,0,0,0,0,0,0,1,0
1.137,411.38649157625503,-10.393875304282034,-251.70701723978073,0,0,0,0,0,0,1,0
1.1370199999999999,411.42522835968606,-10.26122161713643,-250.55301344891194,0,0,0,0,0,0,1,0
1.1370400000000001,411.45999739928607,-10.157747315850097,-249.38911825407712,0,0,0,0,0,0,1,0
1.13706,411.48994999933723,-10.220345200363708,-248.21537760388682,0,0,0,0,0,0,1,0
1.1370799999999999,411.5206645794222,-10.24304128995283,-247.03183783560158,0,0,0,0,0,0,1,0
1.1371,411.55141247117069,-10.22550710554153,-245.8385456733341,0,0,0,0,0,0,1,0
1.1371199999999999,411.58145945844927,-10.167430404015192,-244.63554822623723,0,0,0,0,0,0,1,0
1.13714,411.610066075693,-10.068515296825165,-243.42289298656866,0,0,0,0,0,0,1,0
1.1371599999999999,411.636487908221,-9.9284823625290972,-242.20062782790268,0,0,0,0,0,0,1,0
1.1371799999999999,411.65892936343823,-9.8156665014360804,-240.96880100316409,0,0,0,0,0,0,1,0
1.1372,411.67653045096682,-9.8670293571112513,-239.72746114275537,0,0,0,0,0,0,1,0
1.1372199999999999,411.69465718333822,-9.8765054372014696,-238.47665725267112,0,0,0,0,0,0,1,0
1.13724,411.71257052612555,-9.8437829560354793,-237.21643871248463,0,0,0,0,0,0,1,0
1.1372464634800588,411.71257052612555,-9.8437829560354793,-237.21643871248463,0,0,0,0,0,0,1,0
