"Time / s","Vo:Measured voltage","IL:Measured current","Vin:Measured voltage","open1:Output","open3:Output","open2:Output","open4:Output","short1:Output","short2:Output","short3:Output","short4:Output"
1.1931130800464667,388.84582904980238,-10.583328259025137,-257.32708436917642,0,0,0,0,0,0,0,0
1.19312,388.91097451092361,-10.622649047469695,-258.42079680872382,0,0,0,0,0,0,0,0
1.1931399999999999,388.97723234159417,-10.696806486318126,-259.50430723770057,0,0,0,0,0,0,0,0
1.19316,389.0452949640416,-10.805423763765742,-260.57757288097991,0,0,0,0,0,0,0,0
1.1931799999999999,389.11759434625532,-10.818430119604646,-261.64055136785242,0,0,0,0,0,0,0,0
1.1932,389.1904732550218,-10.865073948996171,-262.69320073376696,0,0,0,0,0,0,0,0
1.1932199999999999,389.26461055575049,-10.944986035712017,-263.73547942190976,0,0,0,0,0,0,0,0
1.1932399999999999,389.34287968823503,-10.928029591602877,-264.76734628491261,0,0,0,0,0,0,0,0
1.19326,389.42110635366271,-10.94352240298111,-265.78876058644767,0,0,0,0,0,0,0,0
1.1932799999999999,389.49995540437976,-10.991105348089729,-266.79968200280888,0,0,0,0,0,0,0,0
1.1933,389.58008387414753,-11.070403025119512,-267.80007062456787,0,0,0,0,0,0,0,0
1.1933199999999999,389.66337870536751,-11.116094731563404,-268.78988695807681,0,0,0,0,0,0,0,0
1.1933399999999998,389.74847238358177,-11.127739101433345,-269.7690919270907,0,0,0,0,0,0,0,0
1.19336,389.83409744187492,-11.169881476102036,-270.7376468742828,0,0,0,0,0,0,0,0
1.1933799999999999,389.92088730850372,-11.24214356191183,-271.69551356274468,0,0,0,0,0,0,0,0
1.1934,390.01093663079905,-11.279146026579928,-272.64265417755695,0,0,0,0,0,0,0,0
1.1934199999999999,390.10282137032004,-11.280435325464467,-273.57903132721276,0,0,0,0,0,0,0,0
1.1934400000000001,390.19500700485918,-11.310609481363439,-274.50460804516251,0,0,0,0,0,0,0,0
1.19346,390.28810201958817,-11.369290863330539,-275.41934779120544,0,0,0,0,0,0,0,0
1.1934799999999999,390.38270649800461,-11.456086567475548,-276.32321445299118,0,0,0,0,0,0,0,0
1.1935,390.48128304174259,-11.440459178300477,-277.21617234741956,0,0,0,0,0,0,0,0
1.1935199999999999,390.57978049796503,-11.452084106286661,-278.09818622202567,0,0,0,0,0,0,0,0
1.19354,390.67878112949944,-11.490588317467534,-278.9692212564359,0,0,0,0,0,0,0,0
1.19356,390.77885879472285,-11.555583979802893,-279.82924306363924,0,0,0,0,0,0,0,0
1.1935799999999999,390.88057863474927,-11.646668681685307,-280.67821769147878,0,0,0,0,0,0,0,0
1.1936,390.9868128945667,-11.633128941293331,-281.51611162389707,0,0,0,0,0,0,0,0
1.1936199999999999,391.09298822902798,-11.644786184840818,-282.34289178224606,0,0,0,0,0,0,0,0
1.19364,391.19965019020538,-11.68126192372735,-283.15852552668338,0,0,0,0,0,0,0,0
1.1936599999999999,391.30733571364954,-11.742163634211364,-283.96298065737062,0,0,0,0,0,0,0,0
1.1936799999999999,391.41789624170315,-11.761864418423333,-284.75622541580407,0,0,0,0,0,0,0,0
1.1937,391.52970801327217,-11.739899205593456,-285.53822848604602,0,0,0,0,0,0,0,0
1.1937199999999999,391.64124898946466,-11.741097528216278,-286.30895899594003,0,0,0,0,0,0,0,0
1.19374,391.75302741839937,-11.765081445786114,-287.06838651837927,0,0,0,0,0,0,0,0
1.1937599999999999,391.86554284999363,-11.811459783474451,-287.81648107245178,0,0,0,0,0,0,0,0
1.1937799999999998,391.97928584909812,-11.879828363361785,-288.55321312467231,0,0,0,0,0,0,0,0
1.1938,392.09473771393357,-11.969770242603248,-289.27855359012756,0,0,0,0,0,0,0,0
1.1938199999999999,392.21392111592354,-12.015504461700848,-289.99247383360483,0,0,0,0,0,0,0,0
1.19384,392.33512741933856,-12.016533196572487,-290.69494567076811,0,0,0,0,0,0,0,0
1.1938599999999999,392.45653931541523,-12.03779418406554,-291.38594136921949,0,0,0,0,0,0,0,0
1.1938800000000001,392.57860590825925,-12.078892064346027,-292.06543364964443,0,0,0,0,0,0,0,0
1.1939,392.70176713478799,-12.13941964523557,-292.73339568683895,0,0,0,0,0,0,0,0
1.1939199999999999,392.82845587952102,-12.088048935829962,-293.38980111081167,0,0,0,0,0,0,0,0
1.19394,392.95352240575204,-12.120690489874164,-294.03462400780626,0,0,0,0,0,0,0,0
1.1939599999999999,393.08010940724614,-12.106016916878605,-294.66783892130707,0,0,0,0,0,0,0,0
1.19398,393.2065178421347,-12.109095606702438,-295.28942085308512,0,0,0,0,0,0,0,0
1.194,393.3331467418007,-12.129536376685405,-295.89934526413879,0,0,0,0,0,0,0,0
1.1940199999999999,393.46038599903454,-12.166938404779089,-296.49758807570237,0,0,0,0,0,0,0,0
1.19404,393.5886161325368,-12.220890477200134,-297.08412567017922,0,0,0,0,0,0,0,0
1.1940599999999999,393.71820805721205,-12.290971241909423,-297.65893489205888,0,0,0,0,0,0,0,0
1.19408,393.84952286036503,-12.376749467769775,-298.22199304886789,0,0,0,0,0,0,0,0
1.1940999999999999,393.9829115839355,-12.477784309231803,-298.77327791202407,0,0,0,0,0,0,0,0
1.1941199999999998,394.12117422696201,-12.462286969480067,-299.31276771775021,0,0,0,0,0,0,0,0
1.19414,394.25919353879027,-12.461077564552586,-299.84044116791716,0,0,0,0,0,0,0,0
1.1941599999999999,394.3972940788293,-12.47376277326968,-300.35627743087122,0,0,0,0,0,0,0,0
1.19418,394.53579112562096,-12.499940514634273,-300.86025614229368,0,0,0,0,0,0,0,0
1.1941999999999999,394.67564963286384,-12.473438793255992,-301.35235740594982,0,0,0,0,0,0,0,0
1.1942199999999998,394.81574950308692,-12.459583609178539,-301.83256179452923,0,0,0,0,0,0,0,0
1.19424,394.95561879611563,-12.457968325773843,-302.30085035040196,0,0,0,0,0,0,0,0
1.1942599999999999,395.09553668668747,-12.468196795531831,-302.75720458631639,0,0,0,0,0,0,0,0
1.19428,395.23500800947659,-12.48986637746542,-303.20160648620117,0,0,0,0,0,0,0,0
1.1942999999999999,395.37647065160007,-12.456705239362293,-303.63403850582216,0,0,0,0,0,0,0,0
1.19432,395.51658866702019,-12.500041215862803,-304.05448357351156,0,0,0,0,0,0,0,0
1.19434,395.65842664842808,-12.487677011131547,-304.46292509081036,0,0,0,0,0,0,0,0
1.1943599999999999,395.80003750673205,-12.485090726788343,-304.85934693315079,0,0,0,0,0,0,0,0
1.19438,395.94164479025022,-12.491883650343407,-305.24373345048053,0,0,0,0,0,0,0,0
1.1943999999999999,396.08346258944545,-12.507650969697353,-305.61606946787123,0,0,0,0,0,0,0,0
1.19442,396.22569540124249,-12.531982033952582,-305.97634028614118,0,0,0,0,0,0,0,0
1.1944399999999999,396.36853799953172,-12.564460617627727,-306.32453168240886,0,0,0,0,0,0,0,0
1.1944599999999999,396.51217531190684,-12.604665188114501,-306.66062991067736,0,0,0,0,0,0,0,0
1.19448,396.65678230274227,-12.65216917621488,-306.98462170236706,0,0,0,0,0,0,0,0
1.1944999999999999,396.80252386264897,-12.706541249594567,-307.29649426683102,0,0,0,0,0,0,0,0
1.19452,396.9495547043897,-12.767345588986984,-307.59623529187991,0,0,0,0,0,0,0,0
1.1945399999999999,397.09801926530508,-12.834142166980534,-307.88383294424591,0,0,0,0,0,0,0,0
1.1945599999999998,397.24805161630803,-12.906487029220619,-308.15927587006894,0,0,0,0,0,0,0,0
1.19458,397.39977537750377,-12.983932577856235,-308.42255319533621,0,0,0,0,0,0,0,0
1.1945999999999999,397.5558480334966,-12.933546013373142,-308.67365452630503,0,0,0,0,0,0,0,0
1.19462,397.71072062176125,-12.887287901661137,-308.91256994992926,0,0,0,0,0,0,0,0
1.1946399999999999,397.86362421905881,-12.911074731297576,-309.13929003423283,0,0,0,0,0,0,0,0
1.1946600000000001,398.01793538502773,-12.871938083808443,-309.35380582869908,0,0,0,0,0,0,0,0
1.19468,398.16965799177279,-12.902094864472051,-309.55610886460784,0,0,0,0,0,0,0,0
1.1946999999999999,398.32370842801402,-12.868492266772124,-309.74619115538371,0,0,0,0,0,0,0,0
1.19472,398.47693265866258,-12.837029895223314,-309.92404519690643,0,0,0,0,0,0,0,0
1.1947399999999999,398.62852359735979,-12.873741461177895,-310.08966396779499,0,0,0,0,0,0,0,0
1.19476,398.7817951713858,-12.845394133282708,-310.24304092971306,0,0,0,0,0,0,0,0
1.19478,398.93271319762226,-12.88445208884618,-310.38417002759354,0,0,0,0,0,0,0,0
1.1947999999999999,399.08614224633186,-12.857601576518503,-310.51304568990315,0,0,0,0,0,0,0,0
1.19482,399.23888087895813,-12.830864420531386,-310.62966282885577,0,0,0,0,0,0,0,0
1.1948399999999999,399.3900768734967,-12.87039754422392,-310.73401684060093,0,0,0,0,0,0,0,0
1.19486,399.54299338114885,-12.842711718754956,-310.82610360542401,0,0,0,0,0,0,0,0
1.1948799999999999,399.69433412821195,-12.880524907664782,-310.9059194878954,0,0,0,0,0,0,0,0
1.1948999999999999,399.84734585152472,-12.850247403425751,-310.97346133702183,0,0,0,0,0,0,0,0
1.19492,399.99792531891359,-12.884698946368827,-311.02872648636702,0,0,0,0,0,0,0,0
1.1949399999999999,400.15087265309728,-12.850212861423278,-311.07171275415652,0,0,0,0,0,0,0,0
1.19496,400.30206501659478,-12.87969224676438,-311.1024184433669,0,0,0,0,0,0,0,0
1.1949799999999999,400.45307119668576,-12.906073609240092,-311.12084234178957,0,0,0,0,0,0,0,0
1.1949999999999998,400.60624284931487,-12.862205562959048,-311.12698372208092,0,0,0,0,0,0,0,0
1.19502,400.75742303703186,-12.881148585697753,-311.12084234178963,0,0,0,0,0,0,0,0
1.1950399999999999,400.9081551933474,-12.895769800736144,-311.10241844336701,0,0,0,0,0,0,0,0
1.19506,401.05911899165687,-12.90567411816982,-311.07171275415658,0,0,0,0,0,0,0,0
1.1950799999999999,401.21019873364855,-12.910448022157317,-311.02872648636713,0,0,0,0,0,0,0,0
1.1951000000000001,401.36126909227789,-12.909681189653595,-310.973461337022,0,0,0,0,0,0,0,0
1.19512,401.51219519348308,-12.902966754020458,-310.90591948789569,0,0,0,0,0,0,0,0
1.1951399999999999,401.66283270403153,-12.889901566423999,-310.82610360542424,0,0,0,0,0,0,0,0
1.19516,401.81381267886059,-12.870087514488814,-310.73401684060127,0,0,0,0,0,0,0,0
1.1951799999999999,401.9625455137035,-12.910083757405699,-310.62966282885611,0,0,0,0,0,0,0,0
1.1952,402.1137143444322,-12.875566071078417,-310.51304568990463,0,0,0,0,0,0,0,0
1.1952199999999999,402.26228233199015,-12.900091911515858,-310.38417002759394,0,0,0,0,0,0,0,0
1.1952399999999999,402.41126986021277,-12.916297041550909,-310.24304092971346,0,0,0,0,0,0,0,0
1.19526,402.56047778761871,-12.923765524923006,-310.08966396779692,0,0,0,0,0,0,0,0
1.1952799999999999,402.70969740798938,-12.922086885155384,-309.92404519690689,0,0,0,0,0,0,0,0
1.1953,402.85871058439648,-12.910856365028007,-309.74619115538428,0,0,0,0,0,0,0,0
1.1953199999999999,403.00728988918678,-12.889675182505332,-309.55610886461022,0,0,0,0,0,0,0,0
1.1953399999999998,403.15519874985023,-12.858150782967698,-309.35380582870158,0,0,0,0,0,0,0,0
1.19536,403.30219160066378,-12.815897087595022,-309.13929003423351,0,0,0,0,0,0,0,0
1.1953799999999999,403.44801404003317,-12.762534737756383,-308.91256994992995,0,0,0,0,0,0,0,0
1.1954,403.59240299341997,-12.697691335259597,-308.67365452630571,0,0,0,0,0,0,0,0
1.1954199999999999,403.73508688177094,-12.621001678318548,-308.422553195337,0,0,0,0,0,0,0,0
1.1954399999999998,403.87578579533317,-12.532107993098155,-308.15927587007212,0,0,0,0,0,0,0,0
1.19546,404.01217424681323,-12.565296729035385,-307.88383294424671,0,0,0,0,0,0,0,0
1.1954799999999999,404.14912773911107,-12.585636306573429,-307.59623529188076,0,0,0,0,0,0,0,0
1.1955,404.28634539228233,-12.592712276740324,-307.29649426683187,0,0,0,0,0,0,0,0
1.1955199999999999,404.42351699074089,-12.586118350796376,-306.98462170236803,0,0,0,0,0,0,0,0
1.19554,404.56032317756774,-12.565456649597301,-306.66062991067838,0,0,0,0,0,0,0,0
1.19556,404.69482987304934,-12.597769190950455,-306.32453168240983,0,0,0,0,0,0,0,0
1.1955799999999999,404.82985636640132,-12.615282478640443,-305.97634028614226,0,0,0,0,0,0,0,0
1.1956,404.96505922813452,-12.617586080230888,-305.61606946787231,0,0,0,0,0,0,0,0
1.1956199999999999,405.10085707894234,-12.604280226036371,-305.24373345048167,0,0,0,0,0,0,0,0
1.19564,405.2345017914646,-12.642473539452691,-304.85934693315193,0,0,0,0,0,0,0,0
1.1956599999999999,405.36877831486265,-12.664301020625544,-304.46292509081161,0,0,0,0,0,0,0,0
1.1956799999999999,405.50330983730055,-12.669352027620626,-304.05448357351281,0,0,0,0,0,0,0,0
1.1957,405.63771047292943,-12.657226016090425,-303.63403850582341,0,0,0,0,0,0,0,0
1.1957199999999999,405.7715854974922,-12.627532778145749,-303.20160648620242,0,0,0,0,0,0,0,0
1.19574,405.90453158920548,-12.579892675229969,-302.7572045863177,0,0,0,0,0,0,0,0
1.1957599999999999,406.03613707477348,-12.513936864865022,-302.30085035040332,0,0,0,0,0,0,0,0
1.1957799999999998,406.16598218038217,-12.42930752114348,-301.83256179453917,0,0,0,0,0,0,0,0
1.1958,406.29363928754429,-12.325658048843112,-301.35235740595124,0,0,0,0,0,0,0,0
1.1958199999999999,406.41668045656456,-12.338092398893467,-300.86025614229516,0,0,0,0,0,0,0,0
1.19584,406.53973370595622,-12.330889030061641,-300.3562774308773,0,0,0,0,0,0,0,0
1.1958599999999999,406.66235435862296,-12.303659244620455,-299.84044116792342,0,0,0,0,0,0,0,0
1.1958800000000001,406.78408932291546,-12.256026122063465,-299.3127677177518,0,0,0,0,0,0,0,0
1.1959,406.90366365412632,-12.255426184894668,-298.77327791203061,0,0,0,0,0,0,0,0
1.1959199999999999,407.02136751894324,-12.301540006390344,-298.22199304887459,0,0,0,0,0,0,0,0
1.19594,407.1398098324222,-12.326204087959773,-297.65893489206059,0,0,0,0,0,0,0,0
1.1959599999999999,407.25851143067081,-12.329016146889648,-297.08412567018098,0,0,0,0,0,0,0,0
1.19598,407.37698457235388,-12.309586449379673,-296.49758807570413,0,0,0,0,0,0,0,0
1.196,407.49473322192762,-12.267538030133522,-295.89934526414061,0,0,0,0,0,0,0,0
1.1960199999999999,407.61125333754768,-12.202506904950814,-295.28942085308699,0,0,0,0,0,0,0,0
1.19604,407.72603316348903,-12.114142276208833,-294.66783892130894,0,0,0,0,0,0,0,0
1.1960599999999999,407.83795234607516,-12.070063220124787,-294.03462400780813,0,0,0,0,0,0,0,0
1.19608,407.94725103891358,-12.069973598323797,-293.38980111081361,0,0,0,0,0,0,0,0
1.1960999999999999,408.05624098621234,-12.045577338820115,-292.73339568684088,0,0,0,0,0,0,0,0
1.1961199999999999,408.16438800573098,-11.996504737645322,-292.06543364964648,0,0,0,0,0,0,1,0
1.19614,408.27115020056323,-11.922399930064476,-291.38594136922154,0,0,0,0,0,0,1,0
1.1961599999999999,408.37364578121259,-11.959014169847496,-290.69494567077015,0,0,0,0,0,0,1,0
1.19618,408.47661431861252,-11.969969115057221,-289.99247383360688,0,0,0,0,0,0,1,0
1.1961999999999999,408.57949950832443,-11.95488056168664,-289.27855359012972,0,0,0,0,0,0,1,0
1.1962199999999998,408.68173714465649,-11.913378534124163,-288.55321312468112,0,0,0,0,0,0,1,0
1.19624,408.78275543185151,-11.845107482137042,-287.81648107245394,0,0,0,0,0,0,1,0
1.1962599999999999,408.88139086818785,-11.817857541683782,-287.06838651838154,0,0,0,0,0,0,1,0
1.19628,408.97779906655489,-11.831325352860681,-286.30895899594231,0,0,0,0,0,0,1,0
1.1962999999999999,409.07416153600172,-11.817040295977083,-285.5382284860483,0,0,0,0,0,0,1,0
1.1963200000000001,409.16988578871508,-11.774636869236655,-284.75622541580645,0,0,0,0,0,0,1,0
1.19634,409.26437196812418,-11.703764539624059,-283.96298065737295,0,0,0,0,0,0,1,0
1.1963599999999999,409.35701317109044,-11.604087924398177,-283.15852552668576,0,0,0,0,0,0,1,0
1.19638,409.44491796150163,-11.611737982522197,-282.3428917822485,0,0,0,0,0,0,1,0
1.1963999999999999,409.53264208398485,-11.589994150630732,-281.51611162389952,0,0,0,0,0,0,1,0
1.19642,409.61956735980618,-11.538499731182547,-280.6782176914889,0,0,0,0,0,0,1,0
1.1964399999999999,409.70450547712989,-11.525182452916262,-279.82924306364953,0,0,0,0,0,0,1,0
1.1964599999999999,409.78754183815937,-11.549734266450315,-278.96922125643846,0,0,0,0,0,0,1,0
1.19648,409.87073512410319,-11.543548861721321,-278.09818622202829,0,0,0,0,0,0,1,0
1.1964999999999999,409.9534482735483,-11.506266650806991,-277.21617234743019,0,0,0,0,0,0,1,0
1.19652,410.0350372196711,-11.437543756847079,-276.32321445299385,0,0,0,0,0,0,1,0
1.1965399999999999,410.11485121831794,-11.337052181859956,-275.41934779120817,0,0,0,0,0,0,1,0
1.1965599999999998,410.19076958680495,-11.272828965548543,-274.50460804516524,0,0,0,0,0,0,1,0
1.19658,410.26424719105682,-11.244615625424206,-273.57903132721549,0,0,0,0,0,0,1,0
1.1965999999999999,410.335557847122,-11.252117494533968,-272.64265417755973,0,0,0,0,0,0,1,0
1.19662,410.40666101958072,-11.226648599019084,-271.69551356274752,0,0,0,0,0,0,1,0
1.1966399999999999,410.4763385611916,-11.2362649307001,-270.7376468742857,0,0,0,0,0,0,1,0
1.1966599999999998,410.54584455383275,-11.212242622280815,-269.76909192710241,0,0,0,0,0,0,1,0
1.19668,410.61450296616192,-11.154241065185817,-268.78988695807971,0,0,0,0,0,0,1,0
1.1966999999999999,410.68163137439825,-11.061935913715741,-267.80007062457082,0,0,0,0,0,0,1,0
1.19672,410.7465412914475,-10.935019234202871,-266.79968200281183,0,0,0,0,0,0,1,0
1.1967399999999999,410.80637523957421,-10.910106853455767,-265.78876058645068,0,0,0,0,0,0,1,0
1.19676,410.86415851943173,-10.918502166213383,-264.76734628491562,0,0,0,0,0,0,1,0
1.19678,410.92173788658442,-10.891435668085833,-263.73547942191283,0,0,0,0,0,0,1,0
1.1967999999999999,410.97789088111739,-10.897058538119552,-262.69320073377003,0,0,0,0,0,0,1,0
1.19682,411.03378012329847,-10.866570877398804,-261.64055136785561,0,0,0,0,0,0,1,0
1.1968399999999999,411.08870229925532,-10.79964515959851,-260.57757288098304,0,0,0,0,0,0,1,0
1.19686,411.14194817046496,-10.695970356545551,-259.50430723770376,0,0,0,0,0,0,1,0
1.1968799999999999,411.19280289721746,-10.555252072742075,-258.42079680872706,0,0,0,0,0,0,1,0
1.1968999999999999,411.23845447470006,-10.51426520559529,-257.32708436917966,0,0,0,0,0,0,1,0
1.19692,411.28131292152631,-10.572779338063411,-256.22321309694604,0,0,0,0,0,0,1,0
1.1969399999999999,411.32489701877614,-10.593429487970631,-255.10922657099371,0,0,0,0,0,0,1,0
1.19696,411.36849201116507,-10.575876408874278,-253.9851687695832,0,0,0,0,0,0,1,0
1.1969799999999999,411.41137719501273,-10.519797202463995,-252.85108406861215,0,0,0,0,0,0,1,0
1.1969999999999998,411.45282622882445,-10.424885449434436,-251.70701723979255,0,0,0,0,0,0,1,0
1.19702,411.49210744615465,-10.290851333840513,-250.55301344891336,0,0,0,0,0,0,1,0
1.1970399999999999,411.52714449498052,-10.185994963203832,-249.3891182540892,0,0,0,0,0,0,1,0
1.19706,411.55829478351808,-10.178660013122666,-248.21537760387764,0,0,0,0,0,0,1,0
1.1970799999999999,411.58821338543066,-10.200002776339824,-247.03183783560306,0,0,0,0,0,0,1,0
1.1971000000000001,411.61814114698535,-10.181131606552364,-245.83854567332472,0,0,0,0,0,0,1,0
1.1971130800464664,411.61814114698535,-10.181131606552364,-245.83854567332472,0,0,0,0,0,0,1,0
