Time / s,Vo:Measured voltage,IL:Measured current,Vin:Measured voltage,short1:Output,short2:Output,short3:Output,short4:Output,open1:Output,open3:Output,open2:Output,open4:Output
1.1394693968466976,403.29086443286593,-2.157867810569396,-52.52864040489245,0,0,0,0,0,0,0,0
1.13948,403.14676907219285,-2.0616031128301566,-50.60081064819512,0,0,0,0,0,0,0,0
1.1395,403.0021539176376,-1.9688991120674,-48.67098325815328,0,0,0,0,0,0,0,0
1.13952,402.856663894053,-1.9467813024854124,-46.739234421030496,0,0,0,0,0,0,0,0
1.13954,402.71103253398,-1.8608389045538407,-44.80564039894569,0,0,0,0,0,0,0,0
1.13956,402.5650277710001,-1.7110314415123813,-42.870277526914975,0,0,0,0,0,0,0,0
1.13958,402.41800127376086,-1.6985304715538698,-40.93322220969812,0,0,0,0,0,0,0,0
1.1396,402.27074346734025,-1.6890068598704435,-38.99455091900992,0,0,0,0,0,0,0,0
1.13962,402.123415402816,-1.6153383961646244,-37.05434019020328,0,0,0,0,0,0,0,0
1.13964,401.9758227187922,-1.4774948484629356,-35.11266661945799,0,0,0,0,0,0,0,0
1.13966,401.8275764894586,-1.3424184015730136,-33.169606860792214,0,0,0,0,0,0,0,0
1.13968,401.6786635795674,-1.3439141846193516,-31.22523762282545,0,0,0,0,0,0,0,0
1.1397,401.5297326091935,-1.2809834070402648,-29.279635665961106,0,0,0,0,0,0,0,0
1.1397199999999998,401.38062740467353,-1.1536062752084026,-27.33287779921544,0,0,0,0,0,0,0,0
1.13974,401.2310432643712,-1.0286362502588495,-25.38504087723803,0,0,0,0,0,0,0,0
1.13976,401.0810936043888,-0.9059918689603762,-23.43620179733056,0,0,0,0,0,0,0,0
1.13978,400.9308035269327,-0.852415912488802,-21.486437496287703,0,0,0,0,0,0,0,0
1.1398,400.78041418205856,-0.7341610387839551,-19.535824947500807,0,0,0,0,0,0,0,0
1.13982,400.6296686741935,-0.6847641266202099,-17.584441157778027,0,0,0,0,0,0,0,0
1.13984,400.4788610368103,-0.5705865345359481,-15.632363164445376,0,0,0,0,0,0,0,0
1.13986,400.32786214425465,-0.5250738017053755,-13.679668032181892,0,0,0,0,0,0,0,0
1.13988,400.1767585279498,-0.4813837198731834,-11.726432850030172,0,0,0,0,0,0,0,0
1.1399,400.0256010310909,-0.4394507915014714,-9.772734728406071,0,0,0,0,0,0,0,0
1.13992,399.8744379293423,-0.3325632156739826,-7.818650795930826,0,0,0,0,0,0,0,0
1.13994,399.7231965745474,-0.2273523264319504,-5.864258196527506,0,0,0,0,0,0,0,0
1.13996,399.5718773408965,-0.2569518847228676,-3.909634086251809,0,0,0,0,0,0,0,0
1.13998,399.4206194041682,-0.2214459776559819,-1.954855630299068,0,0,0,0,0,0,0,0
1.14,399.2694030190852,-0.1208522113831461,-1.09757061235575e-11,0,0,0,0,0,0,0,0
1.14002,399.1181730143658,-0.1547539867029354,1.9548556302948017,0,0,0,0,0,0,0,0
1.14004,398.9669665182943,-0.1899664843681768,3.9096340862298575,0,0,0,0,0,0,0,0
1.14006,398.8158165468772,-0.1599707882339954,5.864258196505559,0,0,0,0,0,0,0,0
1.14008,398.6647428307925,-0.0647953001106091,7.818650795926561,0,0,0,0,0,0,0,0
1.1401,398.51376473485465,0.095529648271232,9.772734728384137,0,0,0,0,0,0,0,0
1.14012,398.36290265532966,0.3209705950569307,11.72643285002591,0,0,0,0,0,0,0,0
1.14014,398.2121759219345,0.6114924419949985,13.679668032159965,0,0,0,0,0,0,0,0
1.1401599999999998,398.0619588811247,0.7016803491408848,15.632363164423452,0,0,0,0,0,0,0,0
1.14018,397.9119104825895,0.8570584595797988,17.584441157791424,0,0,0,0,0,0,0,0
1.1402,397.7622993590544,0.9449955230183408,19.5358249474789,0,0,0,0,0,0,0,0
1.14022,397.61302684430177,1.0318588060568907,21.486437496301093,0,0,0,0,0,0,0,0
1.14024,397.46406607422097,1.117669142657028,23.436201797326305,0,0,0,0,0,0,0,0
1.14026,397.3154952299213,1.2024486721741248,25.3850408772514,0,0,0,0,0,0,0,0
1.14028,397.16727632628994,1.2862125398827,27.33287779921119,0,0,0,0,0,0,0,0
1.1403,397.0195033886827,1.36897762181723,29.279635665956853,0,0,0,0,0,0,0,0
1.14032,396.8723011189374,1.3846090450027433,31.2252376228388,0,0,0,0,0,0,0,0
1.14034,396.725358171941,1.399304440287079,33.169606860787965,0,0,0,0,0,0,0,0
1.14036,396.578585487848,1.4791676792807396,35.11266661947132,0,0,0,0,0,0,0,0
1.14038,396.43214087610727,1.624133194731192,37.054340190181485,0,0,0,0,0,0,0,0
1.1404,396.2867320585506,1.6359917417379428,38.99455091898814,0,0,0,0,0,0,0,0
1.14042,396.14160657848936,1.6469207191674893,40.93322220971142,0,0,0,0,0,0,0,0
1.14044,395.9966677638162,1.7229157951286744,42.87027752689323,0,0,0,0,0,0,0,0
1.14046,395.8521125628486,1.8639013700202969,44.80564039894148,0,0,0,0,0,0,0,0
1.14048,395.7083810948464,2.0038491439050565,46.7392344210088,0,0,0,0,0,0,0,0
1.1404999999999998,395.56579598694447,2.010888651349091,48.67098325813159,0,0,0,0,0,0,0,0
1.14052,395.4234085168913,2.082846392671611,50.60081064819089,0,0,0,0,0,0,0,0
1.14054,395.2814544769462,2.2196367571875766,52.52864040487081,0,0,0,0,0,0,0,0
1.14056,395.1405934632052,2.2894590299410127,54.45439642078842,0,0,0,0,0,0,0,0
1.14058,395.0004882828405,2.358186656612908,56.378002670358775,0,0,0,0,0,0,0,0
1.1406,394.86101548012965,2.425787799112267,58.2993832129357,0,0,0,0,0,0,0,0
1.14062,394.7223149042572,2.4922334007029208,60.21846219567056,0,0,0,0,0,0,0,0
1.14064,394.584251066576,2.5574857553369355,62.135163856628445,0,0,0,0,0,0,0,0
1.14066,394.44668197470094,2.687249033443829,64.04941252772704,0,0,0,0,0,0,0,0
1.14068,394.31044815210055,2.749985667737328,65.96113263767191,0,0,0,0,0,0,0,0
1.1407,394.1750572387392,2.811408849977308,67.87024871506107,0,0,0,0,0,0,0,0
1.14072,394.0403512637692,2.8714687221771387,69.77668539122617,0,0,0,0,0,0,0,0
1.14074,393.9061703214388,2.995767237437067,71.68036740332887,0,0,0,0,0,0,0,0
1.14076,393.77345238851,3.05293637769972,73.58121959729732,0,0,0,0,0,0,0,0
1.14078,393.6416342825164,3.108585751752308,75.47916693065577,0,0,0,0,0,0,0,0
1.1408,393.5105349658703,3.162653337854643,77.37413447579625,0,0,0,0,0,0,0,0
1.14082,393.37997968301767,3.280641294542542,79.2660474225591,0,0,0,0,0,0,0,0
1.14084,393.2507726687314,3.396887148469036,81.15483108149498,0,0,0,0,0,0,0,0
1.14086,393.12332054013433,3.380280386918672,83.04041088667611,0,0,0,0,0,0,0,0
1.14088,392.9960127063625,3.427359678293387,84.92271239860638,0,0,0,0,0,0,0,0
1.1409,392.8692539029541,3.5379953264766466,86.80166130727913,0,0,0,0,0,0,0,0
1.14092,392.74344787025393,3.712052365712792,88.67718343497472,0,0,0,0,0,0,0,0
1.1409399999999998,392.62039840808336,3.687655375126024,90.549204739308,0,0,0,0,0,0,0,0
1.14096,392.49744504198486,3.726541086093216,92.41765131610016,0,0,0,0,0,0,0,0
1.14098,392.375028234416,3.828570460628912,94.2824494022458,0,0,0,0,0,0,0,0
1.141,392.2535872920057,3.993598668329727,96.14352537874336,0,0,0,0,0,0,0,0
1.14102,392.1342665082121,4.0907695199424605,98.00080577346615,0,0,0,0,0,0,0,0
1.14104,392.01674793481016,4.120038970627761,99.85421726419813,0,0,0,0,0,0,0,0
1.14106,391.89973188275405,4.211985634660246,101.70368668139352,0,0,0,0,0,0,0,0
1.14108,391.7836923209312,4.366455078792285,103.54914101118337,0,0,0,0,0,0,0,0
1.1411,391.67044047621687,4.387464028274108,105.39050739820728,0,0,0,0,0,0,0,0
1.14112,391.5579532276639,4.40551129551154,107.22771314843996,0,0,0,0,0,0,0,0
1.14114,391.4459093731892,4.485727133575706,109.06068573217738,0,0,0,0,0,0,0,0
1.14116,391.33481663868713,4.6279478462189525,110.88935278676732,0,0,0,0,0,0,0,0
1.14118,391.22597749015966,4.7016014710272325,112.71364211958225,0,0,0,0,0,0,0,0
1.1412,391.11868627858615,4.771797422171055,114.53348171081946,0,0,0,0,0,0,0,0
1.14122,391.0126472972781,4.838404917235049,116.34879971629502,0,0,0,0,0,0,0,0
1.14124,390.90805501520686,4.901298714449209,118.1595244703952,0,0,0,0,0,0,0,0
1.14126,390.8045970243048,4.960343278067144,119.96558448877448,0,0,0,0,0,0,0,0
1.14128,390.7019901405054,5.080520871227643,121.76690847129213,0,0,0,0,0,0,0,0
1.1413,390.6018322442825,5.131456757202401,123.56342530477797,0,0,0,0,0,0,0,0
1.14132,390.50305452793606,5.178129798870097,125.35506406579098,0,0,0,0,0,0,0,0
1.14134,390.405313858037,5.220392935862456,127.14175402354928,0,0,0,0,0,0,0,0
1.14136,390.30831050837855,5.323151542910836,128.92342464251186,0,0,0,0,0,0,0,0
1.1413799999999998,390.2133423716273,5.421184288110266,130.70000558543796,0,0,0,0,0,0,0,0
1.1414,390.1200643098681,5.514327900012465,132.47142671596987,0,0,0,0,0,0,0,0
1.14142,390.02895602117377,5.537423759389459,134.2376181013704,0,0,0,0,0,0,0,0
1.14144,389.93842534206783,5.620322612710838,135.99851001547583,0,0,0,0,0,0,0,0
1.14146,389.84983889187566,5.697856349920126,137.7540329412567,0,0,0,0,0,0,0,0
1.14148,389.762817916269,5.76985006787832,139.5041175737056,0,0,0,0,0,0,0,0
1.1415,389.6778328921597,5.771193045968775,141.24869482244617,0,0,0,0,0,0,0,0
1.14152,389.59321390287823,5.831607393966008,142.98769581457168,0,0,0,0,0,0,0,0
1.14154,389.5096039884508,5.950885259183742,144.72105189731633,0,0,0,0,0,0,0,0
1.14156,389.4284472360878,6.063912534484548,146.44869464071851,0,0,0,0,0,0,0,0
1.14158,389.3500107802688,6.105608310735413,148.1705558404322,0,0,0,0,0,0,0,0
1.1416,389.2727055805093,6.140688486010437,149.8865675202944,0,0,0,0,0,0,0,0
1.14162,389.1961647396097,6.2338322842019,151.59666193511785,0,0,0,0,0,0,0,0
1.14164,389.1210551836279,6.3848154522224805,153.3007715733186,0,0,0,0,0,0,0,0
1.14166,389.0493832654798,6.463734585284322,154.9988291595352,0,0,0,0,0,0,0,0
1.14168,388.98003916671246,6.470407925679565,156.69076765739243,0,0,0,0,0,0,0,0
1.1417,388.9111457229458,6.534291446860499,158.37652027202483,0,0,0,0,0,0,0,0
1.1417199999999998,388.84339472326366,6.655155800076078,160.05602045282097,0,0,0,0,0,0,0,0
1.14174,388.77838073592426,6.767973460384937,161.72920189600458,0,0,0,0,0,0,0,0
1.14176,388.7166957040201,6.74295683236467,163.395998547207,0,0,0,0,0,0,0,0
1.14178,388.6550707624576,6.774256002521025,165.05634460418057,0,0,0,0,0,0,0,0
1.1418,388.5942210445394,6.861638142100541,166.7101745192759,0,0,0,0,0,0,0,0
1.14182,388.5348583729576,7.004858299029252,168.35742300214966,0,0,0,0,0,0,0,0
1.14184,388.47917368288057,7.074182997843553,169.99802502222252,0,0,0,0,0,0,0,0
1.14186,388.4258759312317,7.069392585108875,171.6319158113508,0,0,0,0,0,0,0,0
1.14188,388.3728986339357,7.119728279104655,173.2590308663385,0,0,0,0,0,0,0,0
1.1419,388.3209749263722,7.224942803337449,174.87930595143987,0,0,0,0,0,0,0,0
1.14192,388.27083428452187,7.384776065952356,176.4926771010128,0,0,0,0,0,0,0,0
1.14194,388.2259177907167,7.3401709989275,178.09908062186844,0,0,0,0,0,0,0,0
1.14196,388.1807704211372,7.3496901465097935,179.69845309596124,0,0,0,0,0,0,0,0
1.14198,388.13614488745554,7.413086132331933,181.29073138286213,0,0,0,0,0,0,0,0
1.142,388.09279007417433,7.5300980132813455,182.8758526220787,0,0,0,0,0,0,0,0
1.14202,388.0514508514975,7.700451351431979,184.4537542357816,0,0,0,0,0,0,0,0
1.14204,388.0156993240826,7.6652163490707474,186.0243739310885,0,0,0,0,0,0,0,0
1.14206,387.9798294622824,7.682788459100736,187.58764970263732,0,0,0,0,0,0,0,0
1.14208,387.94460741930806,7.752908483205581,189.1435198349916,0,0,0,0,0,0,0,0
1.1421,387.9107951853404,7.8753029914984465,190.6919229050343,0,0,0,0,0,0,0,0
1.14212,387.87915038271535,8.049684403016414,192.2327977844915,0,0,0,0,0,0,0,0
1.14214,387.85339171216833,8.017219718325325,193.76608364223355,0,0,0,0,0,0,0,0
1.1421599999999998,387.82753695232594,8.036169377789257,195.29171994677407,0,0,0,0,0,0,0,0
1.14218,387.8023629947919,8.106263967010412,196.809646468618,0,0,0,0,0,0,0,0
1.1422,387.7786422431074,8.22721920405019,198.31980328259763,0,0,0,0,0,0,0,0
1.14222,387.7571423899007,8.398736028744885,199.8221307703352,0,0,0,0,0,0,0,0
1.14224,387.74172366647656,8.362046180726201,201.31656962248664,0,0,0,0,0,0,0,0
1.14226,387.7261227471325,8.375310330144616,202.8030608411921,0,0,0,0,0,0,0,0
1.14228,387.7111245608304,8.438250955841593,204.2815457422965,0,0,0,0,0,0,0,0
1.1423,387.6975092451957,8.55057506716877,205.7519659577612,0,0,0,0,0,0,0,0
1.14232,387.6860519053852,8.71197430217169,207.2142634379269,0,0,0,0,0,0,0,0
1.14234,387.6807275421244,8.66371332968555,208.6683804537665,0,0,0,0,0,0,0,0
1.14236,387.6750083298092,8.66388987033831,210.11425959925643,0,0,0,0,0,0,0,0
1.14238,387.6696846113758,8.71222095841871,211.5518437935376,0,0,0,0,0,0,0,0
1.1424,387.66554166981655,8.808407594571236,212.98107628326048,0,0,0,0,0,0,0,0
1.14242,387.6633594686472,8.952134852617016,214.4019006447868,0,0,0,0,0,0,0,0
1.14244,387.66586372915,9.013873258657792,215.8142607863776,0,0,0,0,0,0,0,0
1.14246,387.67112334005685,8.993274576840044,217.21810095049844,0,0,0,0,0,0,0,0
1.14248,173.6766316455962,11.592294064306955,218.6133657159181,0,0,1,0,0,0,0,0
1.1424999999999998,38.27260761967074,17.408697644285446,219.99999999998545,0,0,1,0,0,0,0,0
1.14252,8.577724899473889,24.43150092062029,221.377949060778,0,0,1,0,0,0,0,0
1.14254,2.110467651952091,31.753129531487662,222.7471584991641,0,0,1,0,0,0,0,0
1.14256,0.7473128714721062,39.17392409068972,224.1075742611739,0,0,1,0,0,0,0,0
1.14258,0.5060078370739188,46.64977282463259,225.4591426398609,0,0,1,0,0,0,0,0
1.1425999999999998,0.5206647177236695,54.17084146187454,226.80181027764445,0,0,1,0,0,0,0,0
1.14262,0.5924778398472185,61.734631162602994,228.13552416831723,0,0,1,0,0,0,0,0
1.14264,0.6682092026594276,69.34024319818654,229.4602316591144,0,0,1,0,0,0,0,0
1.14266,0.7445252600449276,76.98732594047317,230.77588045287644,0,0,1,0,0,0,0,0
1.14268,0.8212619970812963,84.67556099360408,232.08241861001792,0,0,1,0,0,0,0,0
1.1427,0.8984084679644198,92.40463002592412,233.37979455067324,0,0,1,0,0,0,0,0
1.14272,0.9759611046187178,100.17421317996232,234.66795705663816,0,0,1,0,0,0,0,0
1.14274,1.0539166800972977,107.98398900765493,235.94685527347448,0,0,1,0,0,0,0,0
1.14276,1.1322719688431844,115.83363447929447,237.21643871248187,0,0,1,0,0,0,0,0
1.14278,1.2110237304014977,123.72282499610148,238.47665725265705,0,0,1,0,0,0,0,0
1.1428,1.2901687087545517,131.6512344030275,239.72746114275265,0,0,1,0,0,0,0,0
1.14282,1.369703632412079,139.6185350016303,240.96880100315025,0,0,1,0,0,0,0,0
1.14284,1.449625214538517,147.62439756300822,242.20062782788887,0,0,1,0,0,0,0,0
1.14286,1.529930153082665,155.66849134079635,243.422892986566,0,0,1,0,0,0,0,0
1.14288,1.6106151309080103,163.75048408422194,244.63554822622368,0,0,1,0,0,0,0,0
1.1429,1.691676815923688,171.87004205122025,245.83854567333145,0,0,1,0,0,0,0,0
1.14292,1.7731118612159915,180.02683002160722,247.03183783558825,0,0,1,0,0,0,0,0
1.1429399999999998,1.8549169051804952,188.2205113103124,248.2153776038736,0,0,1,0,0,0,0,0
1.14296,1.937088571654744,196.4507477806695,249.38911825407465,0,0,1,0,0,0,0,0
1.14298,2.0196234700515303,204.71719985776343,250.55301344889887,0,0,1,0,0,0,0,0
1.143,2.102518195492713,213.0195265418342,251.7070172397782,0,0,1,0,0,0,0,0
1.14302,2.1857693289436586,221.3573854217377,252.851084068598,0,0,1,0,0,0,0,0
1.14304,2.2693734373481567,229.73043268846243,253.9851687695896,0,0,1,0,0,0,0,0
1.14306,2.3533270737639698,238.1383231486999,255.10922657097976,0,0,1,0,0,0,0,0
1.14308,2.43762677749886,246.58071023847083,256.22321309693217,0,0,1,0,0,0,0,0
1.1431,2.5222690742472498,255.05724603680548,257.3270843691759,0,0,1,0,0,0,0,0
1.14312,2.6072504762273088,263.5675812794776,258.42079680872325,0,0,1,0,0,0,0,0
1.14314,2.6925674823186667,272.1113653727916,259.50430723770984,0,0,1,0,0,0,0,0
1.14316,2.7782165782005905,280.68824640741855,260.57757288097935,0,0,1,0,0,0,0,0
1.14318,2.86419423649072,289.2978711722923,261.640551367852,0,0,1,0,0,0,0,0
1.1432,2.950496916884319,297.9398851685492,262.69320073376645,0,0,1,0,0,0,0,0
1.14322,3.037121066293996,306.6139326235204,263.7354794219093,0,0,1,0,0,0,0,0
1.14324,3.124063118989984,315.3196565047789,264.7673462849214,0,0,1,0,0,0,0,0
1.14326,3.211319496740878,324.05669853423086,265.7887605864472,0,0,1,0,0,0,0,0
1.14328,3.2988866089548865,332.82469920225714,266.7996820028084,0,0,1,0,0,0,0,0
1.1433,3.38676085282156,341.6232977819051,267.8000706245674,0,0,1,0,0,0,0,0
1.14332,3.4749386134540146,350.4521323431311,268.78988695807635,0,0,1,0,0,0,0,0
1.14334,3.56341626403162,359.31083976708265,269.76909192709905,0,0,1,0,0,0,0,0
1.14336,3.6521901659431726,368.199055760435,270.73764687428235,0,0,1,0,0,0,0,0
1.1433799999999998,3.7412566689305216,377.1164148697708,271.6955135627442,0,0,1,0,0,0,0,0
1.1434,3.830612111232643,386.0625504960026,272.6426541775565,0,0,1,0,0,0,0,0
1.14342,3.9202528197302113,395.0370949088506,273.5790313272123,0,0,1,0,0,0,0,0
1.14344,4.010175110090575,404.0396792613523,274.50460804516206,0,0,1,0,0,0,0,0
