"Time / s","Vo:Measured voltage","IL:Measured current","Vin:Measured voltage","open1:Output","open3:Output","open2:Output","open4:Output","short1:Output","short2:Output","short3:Output","short4:Output"
1.1371320661092825,411.58146593032819,-10.167444364176999,-244.63554822623723,0,0,0,0,0,0,0,0
1.13714,411.6100728007724,-10.068529461442923,-243.42289298656866,0,0,0,0,0,0,0,0
1.1371599999999999,411.63649489004155,-9.9284967224948328,-242.20062782790268,0,0,0,0,0,0,0,0
1.1371799999999999,411.65893660317653,-9.8156810481990728,-240.96880100316409,0,0,0,0,0,0,0,0
1.1372,411.67653794522175,-9.8670440885228743,-239.72746114275537,0,0,0,0,0,0,0,0
1.1372199999999999,411.69466493522572,-9.8765203493001934,-238.47665725267112,0,0,0,0,0,0,0,0
1.13724,411.71257853867701,-9.8437980433994259,-237.21643871248463,0,0,0,0,0,0,0,0
1.1372599999999999,411.72953466290835,-9.768581415759078,-235.94685527348881,0,0,0,0,0,0,0,0
1.1372799999999998,411.74478444166806,-9.650590848535229,-234.6679570566526,0,0,0,0,0,0,0,0
1.1373,411.75757452138311,-9.4895629606507725,-233.37979455066437,0,0,0,0,0,0,0,0
1.1373199999999999,411.76575154641563,-9.4224843217370271,-232.08241861003253,0,0,0,0,0,0,0,0
1.13734,411.77047278478403,-9.4491109733900256,-230.77588045286745,0,0,0,0,0,0,0,0
1.1373599999999999,411.77526993075588,-9.4319435780921328,-229.46023165911728,0,0,0,0,0,0,0,0
1.1373800000000001,411.77939741482891,-9.3706912910707469,-228.13552416830811,0,0,0,0,0,0,0,0
1.1374,411.78210514875553,-9.2650790062339627,-226.80181027764738,0,0,0,0,0,0,0,0
1.1374199999999999,411.78263879506761,-9.1148474475784056,-225.45914263986384,0,0,0,0,0,0,0,0
1.13744,411.77770103008157,-9.1256090435447543,-224.10757426116459,0,0,0,0,0,0,0,0
1.1374599999999999,411.77191013375722,-9.1598818572264022,-222.74715849917939,0,0,0,0,0,0,0,0
1.13748,411.76630798026008,-9.1487603131375206,-221.37794906076851,0,0,0,0,0,0,0,0
1.1375,411.76014947441911,-9.0919624722985883,-220.00000000000091,0,0,0,0,0,0,0,0
1.1375199999999999,411.75268531574289,-8.9892216952868704,-218.61336571593372,0,0,0,0,0,0,0,0
1.13754,411.74316225100404,-8.8402867247736392,-217.21810095050151,0,0,0,0,0,0,0,0
1.1375599999999999,411.7295430387947,-8.7821457479558287,-215.81426078639336,0,0,0,0,0,0,0,0
1.13758,411.71280635723053,-8.8145476405594465,-214.40190064478983,0,0,0,0,0,0,0,0
1.1375999999999999,411.69621365494964,-8.8000158866847755,-212.98107628327654,0,0,0,0,0,0,0,0
1.1376199999999999,411.67902329216685,-8.7382807363232562,-211.55184379355362,0,0,0,0,0,0,0,0
1.13764,411.66048977684147,-8.6290872455213847,-210.11425959925955,0,0,0,0,0,0,0,0
1.1376599999999999,411.63986399998902,-8.4721953497679259,-208.66838045378279,0,0,0,0,0,0,0,0
1.13768,411.61404426766529,-8.4731571712043756,-207.21426343793007,0,0,0,0,0,0,0,0
1.1376999999999999,411.58725499874413,-8.4945415344552622,-205.75196595777766,0,0,0,0,0,0,0,0
1.1377199999999998,411.56042954655601,-8.467493241949926,-204.28154574231311,0,0,0,0,0,0,0,0
1.13774,411.53283226594937,-8.3917573238756606,-202.8030608411953,0,0,0,0,0,0,0,0
1.1377599999999999,411.50372403609231,-8.2670930820481825,-201.31656962250341,0,0,0,0,0,0,0,0
1.13778,411.47236247848133,-8.0932741542143631,-199.82213077033845,0,0,0,0,0,0,0,0
1.1377999999999999,411.43517761832101,-8.1443432246658372,-198.31980328261452,0,0,0,0,0,0,0,0
1.1378200000000001,411.3983850062105,-8.1457902533269131,-196.80964646860755,0,0,0,0,0,0,0,0
1.13784,411.36126098677494,-8.0973633868193602,-195.2917199467912,0,0,0,0,0,0,0,0
1.1378599999999999,411.32307861534315,-7.9988244117051543,-193.76608364225072,0,0,0,0,0,0,0,0
1.13788,411.28310785798612,-7.8499488133316646,-192.23279778448094,0,0,0,0,0,0,0,0
1.1378999999999999,411.23982522108162,-7.7190570723689991,-190.69192290503764,0,0,0,0,0,0,0,0
1.13792,411.19239833791511,-7.7429778773677311,-189.14351983498094,0,0,0,0,0,0,0,0
1.13794,411.14496331843566,-7.7158871641743909,-187.58764970264079,0,0,0,0,0,0,0,0
1.1379599999999999,411.09680757100801,-7.6375518404907474,-186.0243739310919,0,0,0,0,0,0,0,0
1.13798,411.04721561631038,-7.5077518558969549,-184.45375423577079,0,0,0,0,0,0,0,0
1.1379999999999999,410.99471718071413,-7.3947711524260527,-182.87585262208214,0,0,0,0,0,0,0,0
1.13802,410.9384821489283,-7.4353540081237117,-181.29073138285122,0,0,0,0,0,0,0,0
1.1380399999999999,410.88245761284969,-7.4237995949417233,-179.69845309597915,0,0,0,0,0,0,0,0
1.1380599999999998,410.82594692217509,-7.3598821627176161,-178.09908062187193,0,0,0,0,0,0,0,0
1.13808,410.76825076364071,-7.2433883395669616,-176.49267710100173,0,0,0,0,0,0,0,0
1.1380999999999999,410.70866732734572,-7.074117176700125,-174.87930595145801,0,0,0,0,0,0,0,0
1.13812,410.645005915203,-7.0571836549363489,-173.25903086634202,0,0,0,0,0,0,0,0
1.1381399999999999,410.57983398431259,-7.055459484984496,-171.63191581136911,0,0,0,0,0,0,0,0
1.1381599999999998,410.51432024188023,-7.0003044289781915,-169.99802502224091,0,0,0,0,0,0,0,0
1.13818,410.44778358088854,-6.8915136032985265,-168.35742300215327,0,0,0,0,0,0,0,0
1.1381999999999999,410.37954062002723,-6.7288938689277149,-166.71017451929441,0,0,0,0,0,0,0,0
1.13822,410.30656569156361,-6.7857746261657192,-165.05634460418418,0,0,0,0,0,0,0,0
1.1382399999999999,410.23397401309592,-6.7883825847622816,-163.39599854722567,0,0,0,0,0,0,0,0
1.13826,410.16110643315625,-6.7365117884891648,-161.72920189600825,0,0,0,0,0,0,0,0
1.13828,410.08730162096003,-6.629967313744813,-160.05602045283979,0,0,0,0,0,0,0,0
1.1382999999999999,410.01189620114712,-6.4685653039493181,-158.37652027204373,0,0,0,0,0,0,0,0
1.13832,409.93271396173816,-6.3887613521430504,-156.69076765739612,0,0,0,0,0,0,0,0
1.1383399999999999,409.85156293045839,-6.3903286299834603,-154.99882915955422,0,0,0,0,0,0,0,0
1.13836,409.77013621570461,-6.336430064660612,-153.30077157332232,0,0,0,0,0,0,0,0
1.1383799999999999,409.68779425797806,-6.2268818254353837,-151.59666193513701,0,0,0,0,0,0,0,0
1.1383999999999999,409.60389568353827,-6.0615104697292876,-149.88656752031363,0,0,0,0,0,0,0,0
1.13842,409.51592739180398,-6.0448914965772129,-148.17055584043595,0,0,0,0,0,0,0,0
1.1384399999999999,409.42726442166639,-6.0402906281248452,-146.44869464073787,0,0,0,0,0,0,0,0
1.13846,409.33827170399957,-5.9792700416396718,-144.72105189730445,0,0,0,0,0,0,0,0
1.1384799999999999,409.24833302764256,-5.8616578620412474,-142.98769581457549,0,0,0,0,0,0,0,0
1.1384999999999998,409.15683059335117,-5.6872919312961363,-141.24869482246572,0,0,0,0,0,0,0,0
1.13852,409.06139777201776,-5.6605327044286486,-139.50411757369358,0,0,0,0,0,0,0,0
1.1385399999999999,408.96521266448462,-5.644798922855391,-137.75403294126053,0,0,0,0,0,0,0,0
1.13856,408.86860090875535,-5.5717397671111533,-135.99851001546375,0,0,0,0,0,0,0,0
1.1385799999999999,408.77097130683785,-5.4411959282981428,-134.23761810137424,0,0,0,0,0,0,0,0
1.1386000000000001,408.67098879882747,-5.3211210648921083,-132.47142671595773,0,0,0,0,0,0,0,0
1.13862,408.56861982829048,-5.279423689741134,-130.70000558545789,0,0,0,0,0,0,0,0
1.1386399999999999,408.46540573013607,-5.247795936065125,-128.92342464253181,0,0,0,0,0,0,0,0
1.13866,408.36163599113951,-5.157980856770056,-127.14175402353703,0,0,0,0,0,0,0,0
1.1386799999999999,408.25603399988563,-5.0778671941189231,-125.35506406581109,0,0,0,0,0,0,0,0
1.1387,408.14903749393437,-5.0072742742511265,-123.56342530478189,0,0,0,0,0,0,0,0
1.13872,408.04065940858669,-4.9460134952699457,-121.76690847131233,0,0,0,0,0,0,0,0
1.1387399999999999,407.93131150824581,-4.8939017032955796,-119.96558448879472,0,0,0,0,0,0,0,0
1.13876,407.8212568902826,-4.7827821433458331,-118.15952447039915,0,0,0,0,0,0,0,0
1.1387799999999999,407.70892698137413,-4.748414394723981,-116.34879971631536,0,0,0,0,0,0,0,0
1.1388,407.59607381488712,-4.6547154441108587,-114.53348171082344,0,0,0,0,0,0,0,0
1.1388199999999999,407.48173557505339,-4.569464601656188,-112.71364211960271,0,0,0,0,0,0,0,0
1.1388399999999999,407.36629521566795,-4.4924889955114562,-110.88935278678782,0,0,0,0,0,0,0,0
1.13886,407.24936029569778,-4.423605468787601,-109.06068573218137,0,0,0,0,0,0,0,0
1.1388799999999999,407.13129911915945,-4.3626457130551533,-107.22771314846057,0,0,0,0,0,0,0,0
1.1389,407.01253490822273,-4.2416035322291705,-105.3905073982113,0,0,0,0,0,0,0,0
1.1389199999999999,406.89204902473227,-4.1959887981006778,-103.54914101120406,0,0,0,0,0,0,0,0
1.1389399999999998,406.77041464568742,-4.1577805208552219,-101.70368668141424,0,0,0,0,0,0,0,0
1.13896,406.64796205453581,-4.1268146000441632,-99.854217264202134,0,0,0,0,0,0,0,0
1.1389799999999999,406.52508803043321,-4.0351709239863123,-98.000805773487016,0,0,0,0,0,0,0,0
1.139,406.40133271379329,-3.8827399199815864,-96.143525378730573,0,0,0,0,0,0,0,0
1.1390199999999999,406.27521587769775,-3.8725472041667888,-94.282449402266721,0,0,0,0,0,0,0,0
1.1390400000000001,406.14853668751994,-3.868944388298754,-92.41765131608733,0,0,0,0,0,0,0,0
1.13906,406.02166339721038,-3.8041010166078366,-90.54920473931206,0,0,0,0,0,0,0,0
1.1390799999999999,405.89416896892368,-3.6779155578917981,-88.677183434978801,0,0,0,0,0,0,0,0
1.1391,405.76562583925295,-3.4902922433965289,-86.80166130726623,0,0,0,0,0,0,0,0
1.1391199999999999,405.63442845236113,-3.5115552826259386,-84.922712398610486,0,0,0,0,0,0,0,0
1.13914,405.5032158167495,-3.4710512810890348,-83.040410886663196,0,0,0,0,0,0,0,0
1.13916,405.3715946452088,-3.3686874840049703,-81.154831081499097,0,0,0,0,0,0,0,0
1.1391799999999999,405.2391712262019,-3.204376394009341,-79.266047422563247,0,0,0,0,0,0,0,0
1.1392,405.10456746815936,-3.1805799923151881,-77.374134475783265,0,0,0,0,0,0,0,0
1.1392199999999999,404.96958418862249,-3.1620545739911101,-75.479166930677053,0,0,0,0,0,0,0,0
1.13924,404.8343620774649,-3.0811825150707994,-73.581219597284289,0,0,0,0,0,0,0,0
1.1392599999999999,404.69854209313581,-2.9378852313622668,-71.680367403350232,0,0,0,0,0,0,0,0
1.1392799999999998,404.56136258228571,-2.7995115680035059,-69.776685391247554,0,0,0,0,0,0,0,0
1.1393,404.42282353194406,-2.733335482429339,-67.87024871506523,0,0,0,0,0,0,0,0
1.1393199999999999,404.28374379458563,-2.6717846003708852,-65.961132637693368,0,0,0,0,0,0,0,0
1.13934,404.14423381763226,-2.547367753866677,-64.049412527731221,0,0,0,0,0,0,0,0
1.1393599999999999,404.00341924563287,-2.4946835110174033,-62.135163856649946,0,0,0,0,0,0,0,0
1.1393800000000001,403.86224974143852,-2.3789252735557387,-60.218462195674725,0,0,0,0,0,0,0,0
1.1394,403.72015755122624,-2.3346069101656948,-58.299383212939894,0,0,0,0,0,0,0,0
1.1394199999999999,403.57743803172906,-2.2942726101801516,-56.378002670380361,0,0,0,0,0,0,0,0
1.13944,403.43426876483136,-2.2578042819309112,-54.454396420792619,0,0,0,0,0,0,0,0
1.1394599999999999,403.29086443286599,-2.1578678105695119,-52.52864040489245,0,0,0,0,0,0,0,0
1.13948,403.14676907219297,-2.0616031128302734,-50.600810648195107,0,0,0,0,0,0,0,0
1.1395,403.0021539176376,-1.9688991120675163,-48.670983258153278,0,0,0,0,0,0,0,0
1.1395199999999999,402.8566638940531,-1.9467813024855283,-46.739234421030503,0,0,0,0,0,0,0,0
1.13954,402.71103253398007,-1.8608389045539571,-44.805640398945691,0,0,0,0,0,0,0,0
1.1395599999999999,402.56502777100019,-1.711031441512497,-42.870277526914975,0,0,0,0,0,0,0,0
1.13958,402.41800127376092,-1.6985304715539853,-40.933222209698116,0,0,0,0,0,0,0,0
1.1395999999999999,402.27074346734031,-1.6890068598705588,-38.994550919009917,0,0,0,0,0,0,0,0
1.1396199999999999,402.12341540281602,-1.615338396164739,-37.054340190203277,0,0,0,0,0,0,0,0
1.13964,401.9758227187923,-1.4774948484630501,-35.11266661945799,0,0,0,0,0,0,0,0
1.1396599999999999,401.82757648945869,-1.342418401573128,-33.169606860792214,0,0,0,0,0,0,0,0
1.13968,401.67866357956746,-1.3439141846194655,-31.22523762282545,0,0,0,0,0,0,0,0
1.1396999999999999,401.52973260919356,-1.2809834070403785,-29.279635665961102,0,0,0,0,0,0,0,0
1.1397199999999998,401.38062740467353,-1.1536062752085163,-27.332877799215439,0,0,0,0,0,0,0,0
1.13974,401.23104326437129,-1.0286362502589625,-25.38504087723803,0,0,0,0,0,0,0,0
1.1397599999999999,401.08109360438885,-0.90599186896048922,-23.436201797330561,0,0,0,0,0,0,0,0
1.13978,400.93080352693278,-0.85241591248891502,-21.486437496287703,0,0,0,0,0,0,0,0
1.1397999999999999,400.78041418205862,-0.73416103878406802,-19.535824947500807,0,0,0,0,0,0,0,0
1.1398200000000001,400.62966867419351,-0.68476412662032271,-17.584441157778027,0,0,0,0,0,0,0,0
1.13984,400.47886103681031,-0.57058653453606056,-15.632363164445376,0,0,0,0,0,0,0,0
1.1398599999999999,400.32786214425471,-0.5250738017054879,-13.679668032181892,0,0,0,0,0,0,0,0
1.13988,400.17675852794986,-0.48138371987329553,-11.726432850030173,0,0,0,0,0,0,0,0
1.1398999999999999,400.0256010310909,-0.43945079150158339,-9.7727347284060748,0,0,0,0,0,0,0,0
1.13992,399.87443792934238,-0.33256321567409453,-7.818650795930826,0,0,0,0,0,0,0,0
1.13994,399.72319657454744,-0.22735232643206232,-5.8642581965275058,0,0,0,0,0,0,0,0
1.1399599999999999,399.57187734089655,-0.25695188472297958,-3.9096340862518089,0,0,0,0,0,0,0,0
1.13998,399.42061940416829,-0.22144597765609381,-1.9548556302990674,0,0,0,0,0,0,0,0
1.1399999999999999,399.26940301908525,-0.12085221138325784,-1.09757061235575e-11,0,0,0,0,0,0,0,0
1.14002,399.11817301436594,-0.15475398670304719,1.9548556302948017,0,0,0,0,0,0,0,0
1.1400399999999999,398.96696651829438,-0.18996648436828853,3.9096340862298589,0,0,0,0,0,0,0,0
1.1400599999999999,398.81581654687727,-0.15997078823410701,5.8642581965055589,0,0,0,0,0,0,0,0
1.14008,398.66474283079259,-0.064795300110720655,7.818650795926561,0,0,0,0,0,0,0,0
1.1400999999999999,398.51376473485465,0.09552964827112069,9.772734728384135,0,0,0,0,0,0,0,0
1.14012,398.36290265532966,0.32097059505681952,11.72643285002591,0,0,0,0,0,0,0,0
1.1401399999999999,398.21217592193409,0.61149243478067494,13.679668032159963,0,0,0,0,0,0,0,1
1.1401599999999998,398.06195888110756,0.70168032019407178,15.632363164423451,0,0,0,0,0,0,0,1
1.14018,397.91191048253444,0.85705840481528528,17.584441157791424,0,0,0,0,0,0,0,1
1.1401999999999999,397.7622993589145,0.94499543842308709,19.535824947478901,0,0,0,0,0,0,0,1
1.14022,397.61302684402216,1.0318586881477081,21.486437496301093,0,0,0,0,0,0,0,1
1.1402399999999999,397.46406607373547,1.1176689890918321,23.436201797326305,0,0,0,0,0,0,0,1
1.1402600000000001,397.31549522914537,1.2024484795974775,25.385040877251402,0,0,0,0,0,0,0,1
1.14028,397.16727632512601,1.2862123060781063,27.33287779921119,0,0,0,0,0,0,0,1
1.1402999999999999,397.01950338701187,1.3689773434331969,29.279635665956853,0,0,0,0,0,0,0,1
1.14032,396.87230111657811,1.3846087204147874,31.225237622838801,0,0,0,0,0,0,0,1
1.1403399999999999,396.72535816873778,1.399304069595636,33.169606860787972,0,0,0,0,0,0,0,1
1.14036,396.57858548368785,1.4791672609263813,35.11266661947132,0,0,0,0,0,0,0,1
1.1403799999999999,396.43214087087114,1.62413272498443,37.054340190181485,0,0,0,0,0,0,0,1
1.1403999999999999,396.28673205188039,1.6359912174053466,38.994550918988139,0,0,0,0,0,0,0,1
1.14042,396.14160657014736,1.6469201404909117,40.933222209711417,0,0,0,0,0,0,0,1
1.1404399999999999,395.99666775363676,1.7229151606814879,42.870277526893233,0,0,0,0,0,0,0,1
1.14046,395.85211255065843,1.8639006762095744,44.805640398941478,0,0,0,0,0,0,0,1
1.1404799999999999,395.70838108034707,2.0038483855860205,46.739234421008803,0,0,0,0,0,0,0,1
1.1404999999999998,395.56579596956817,2.0108878265940229,48.670983258131592,0,0,0,0,0,0,0,1
1.14052,395.4234084963955,2.0828455001952708,50.600810648190887,0,0,0,0,0,0,0,1
1.1405399999999999,395.28145445308002,2.2196357935438851,52.528640404870814,0,0,0,0,0,0,0,1
1.14056,395.14059343540168,2.289457991870401,54.45439642078842,0,0,0,0,0,0,0,1
1.1405799999999999,395.00048825063567,2.3581855412292412,56.378002670358775,0,0,0,0,0,0,0,1
1.1406000000000001,394.86101544303239,2.425786604667922,58.299383212935709,0,0,0,0,0,0,0,1
1.14062,394.72231486173786,2.4922321245492332,60.218462195670547,0,0,0,0,0,0,0,1
1.1406399999999999,394.58425101807791,2.5574843959657172,62.135163856628445,0,0,0,0,0,0,0,1
1.14066,394.44668191984243,2.6872475876593058,64.049412527727043,0,0,0,0,0,0,0,1
1.1406799999999999,394.31044809002947,2.7499841322401428,65.961132637671909,0,0,0,0,0,0,0,1
1.1407,394.17505716877406,2.8114072223175657,67.870248715061066,0,0,0,0,0,0,0,1
1.14072,394.04035118519892,2.8714670010512884,69.776685391226167,0,0,0,0,0,0,0,1
1.1407399999999999,393.90617023377911,2.9957654198484471,71.680367403328873,0,0,0,0,0,0,0,1
1.14076,393.77345229069039,3.0529344605440802,73.58121959729732,0,0,0,0,0,0,0,1
1.1407799999999999,393.64163417369002,3.1085837328111356,75.479166930655765,0,0,0,0,0,0,0,1
1.1408,393.51053484515774,3.1626512160637925,77.374134475796268,0,0,0,0,0,0,0,1
1.1408199999999999,393.37997954982524,3.2806390671392558,79.266047422559112,0,0,0,0,0,0,0,1
1.1408399999999999,393.25077252209223,3.3968848110297438,81.154831081494976,0,0,0,0,0,0,0,1
1.14086,393.12332037831465,3.3802779386423674,83.040410886676113,0,0,0,0,0,0,0,1
1.1408799999999999,392.99601252866216,3.4273571188096734,84.922712398606393,0,0,0,0,0,0,0,1
1.1409,392.8692537086655,3.5379926532997219,86.801661307279133,0,0,0,0,0,0,0,1
1.1409199999999999,392.74344765864669,3.7120495742464681,88.677183434974708,0,0,0,0,0,0,0,1
1.1409399999999998,392.62039817667022,3.6876524631877992,90.549204739307996,0,0,0,0,0,0,0,1
1.14096,392.497444789935,3.7265380536270745,92.417651316100148,0,0,0,0,0,0,0,1
1.1409799999999999,392.37502796089137,3.8285673054783826,94.282449402245817,0,0,0,0,0,0,0,1
1.141,392.253586996146,3.9935953862432867,96.143525378743348,0,0,0,0,0,0,0,1
1.1410199999999999,392.13426618811366,4.0907661071252601,98.000805773466169,0,0,0,0,0,0,0,1
1.1410400000000001,392.01674758846548,4.1200354250563542,99.854217264198113,0,0,0,0,0,0,0,1
1.14106,391.8997315091629,4.2119819545701151,101.70368668139351,0,0,0,0,0,0,0,1
1.1410799999999999,391.78369191907115,4.3664512603413401,103.54914101118337,0,0,0,0,0,0,0,1
1.1411,391.6704400432647,4.3874600686226914,105.39050739820729,0,0,0,0,0,0,0,1
1.1411199999999999,391.55795276189184,4.4055071948013582,107.22771314843996,0,0,0,0,0,0,0,1
1.1411320661092823,391.55795276189184,4.4055071948013582,107.22771314843996,0,0,0,0,0,0,0,1
