Time / s,Vo:Measured voltage,IL:Measured current,Vin:Measured voltage,short1:Output,short2:Output,short3:Output,short4:Output,open1:Output,open3:Output,open2:Output,open4:Output
1.1053016200789851,402.7158817014192,12.890935153093697,309.7461911553864,0,0,0,0,0,0,0,0
1.10532,402.86331170092353,12.873381688989983,309.55610886461074,0,0,0,0,0,0,0,0
1.10534,403.0101572189136,12.845513159495464,309.3538058287003,0,0,0,0,0,0,0,0
1.10536,403.1561733189024,12.806941271254988,309.13929003423607,0,0,0,0,0,0,0,0
1.10538,403.30110617642765,12.757284435790078,308.91256994992847,0,0,0,0,0,0,0,0
1.1054,403.4446932416576,12.69616801109126,308.6736545263064,0,0,0,0,0,0,0,0
1.1054199999999998,403.586663407524,12.623224538935702,308.42255319534,0,0,0,0,0,0,0,0
1.10544,403.725708041216,12.605365887163652,308.1592758700704,0,0,0,0,0,0,0,0
1.10546,403.8623290746039,12.64228276437806,307.88383294424744,0,0,0,0,0,0,0,0
1.10548,403.9996023170872,12.666343245099656,307.5962352918788,0,0,0,0,0,0,0,0
1.1055,404.1372267250544,12.677130677173412,307.2964942668327,0,0,0,0,0,0,0,0
1.10552,404.2748918685795,12.674236573641023,306.98462170236604,0,0,0,0,0,0,0,0
1.10554,404.41227812587806,12.657260863385542,306.66062991067923,0,0,0,0,0,0,0,0
1.10556,404.5490568834096,12.625812136742171,306.32453168241074,0,0,0,0,0,0,0,0
1.10558,404.6844368086007,12.646936086805876,305.97634028614,0,0,0,0,0,0,0,0
1.1056,404.8200759679037,12.652840177337264,305.6160694678733,0,0,0,0,0,0,0,0
1.10562,404.9543831401051,12.710597727209294,305.2437334504792,0,0,0,0,0,0,0,0
1.10564,405.09024691402703,12.684871415494786,304.8593469331529,0,0,0,0,0,0,0,0
1.10566,405.22481470458223,12.710243067753304,304.46292509081263,0,0,0,0,0,0,0,0
1.10568,405.36096116051664,12.651285620295104,304.05448357351014,0,0,0,0,0,0,0,0
1.1057,405.4942802663679,12.642678468873283,303.6340385058245,0,0,0,0,0,0,0,0
1.10572,405.627155574804,12.616529888713533,303.20160648619964,0,0,0,0,0,0,0,0
1.10574,405.7591843261797,12.572458188842484,302.7572045863189,0,0,0,0,0,0,0,0
1.10576,405.88995536228646,12.510092461069757,302.3008503504046,0,0,0,0,0,0,0,0
1.10578,406.0190493770786,12.42907280166054,301.83256179453616,0,0,0,0,0,0,0,0
1.1058,406.1432494496484,12.464397408865404,301.35235740595255,0,0,0,0,0,0,0,0
1.10582,406.2679809600628,12.480443662683433,300.860256142292,0,0,0,0,0,0,0,0
1.10584,406.39280699955947,12.476809274619676,300.35627743087866,0,0,0,0,0,0,0,0
1.1058599999999998,406.51728193479687,12.45310353116482,299.84044116792484,0,0,0,0,0,0,0,0
1.10588,406.6409516732171,12.408947520342686,299.31276771775805,0,0,0,0,0,0,0,0
1.1059,406.7633539333143,12.343974351605649,298.77327791203203,0,0,0,0,0,0,0,0
1.10592,406.8828153649132,12.32562799311058,298.22199304886595,0,0,0,0,0,0,0,0
1.10594,407.00113062618846,12.353608007980917,297.65893489206724,0,0,0,0,0,0,0,0
1.10596,407.1197800943504,12.359737984082594,297.0841256701773,0,0,0,0,0,0,0,0
1.10598,407.23827605301136,12.3436263661389,296.49758807570566,0,0,0,0,0,0,0,0
1.106,407.356122451221,12.30489436742294,295.8993452641422,0,0,0,0,0,0,0,0
1.10602,407.4728151913952,12.243176183331189,295.289420853083,0,0,0,0,0,0,0,0
1.10604,407.58784242179007,12.158119197845702,294.66783892131053,0,0,0,0,0,0,0,0
1.10606,407.6979712968303,12.185250377760308,294.03462400780404,0,0,0,0,0,0,0,0
1.10608,407.8083921469338,12.18843188834088,293.38980111081537,0,0,0,0,0,0,0,0
1.1061,407.91857824083087,12.167278771804586,292.73339568684264,0,0,0,0,0,0,0,0
1.10612,408.02799479744766,12.121419700585848,292.06543364964216,0,0,0,0,0,0,0,0
1.10614,408.1360992885223,12.050497180852046,291.38594136922336,0,0,0,0,0,0,0,0
1.10616,408.242341745452,11.95416774865228,290.69494567076566,0,0,0,0,0,0,0,0
1.10618,408.34455995625854,11.968185735977052,289.9924738336088,0,0,0,0,0,0,0,0
1.1062,408.44676303960006,11.956177007923086,289.2785535901316,0,0,0,0,0,0,0,0
1.10622,408.5483871363618,11.917769969831085,288.55321312467646,0,0,0,0,0,0,0,0
1.10624,408.6488607622516,11.852607444775424,287.816481072456,0,0,0,0,0,0,0,0
1.10626,408.7449710337129,11.896563159109649,287.0683865183767,0,0,0,0,0,0,0,0
1.10628,408.8416901704542,11.913139693883185,286.30895899594435,0,0,0,0,0,0,0,0
1.1062999999999998,408.9384332454593,11.901955142642732,285.5382284860504,0,0,0,0,0,0,0,0
1.10632,409.0346076100445,11.862642382189224,284.7562254158085,0,0,0,0,0,0,0,0
1.10634,409.12961321233433,11.794849262408292,283.9629806573751,0,0,0,0,0,0,0,0
1.10636,409.2228429195566,11.69823878856598,283.15852552668053,0,0,0,0,0,0,0,0
1.10638,409.312534260587,11.640693965875526,282.34289178225066,0,0,0,0,0,0,0,0
1.1064,409.40023862567807,11.621939450720578,281.5161116238942,0,0,0,0,0,0,0,0
1.10642,409.4872088192817,11.573433901406675,280.6782176914911,0,0,0,0,0,0,0,0
1.10644,409.5711893826274,11.563078890094674,279.8292430636518,0,0,0,0,0,0,0,0
1.10646,409.6536822409056,11.590592973842623,278.96922125643295,0,0,0,0,0,0,0,0
1.10648,409.736397826686,11.58738128008706,278.09818622203846,0,0,0,0,0,0,0,0
1.1065,409.8186993294732,11.553082726639582,277.2161723474165,0,0,0,0,0,0,0,0
1.10652,409.89994290224894,11.48735193718429,276.3232144530044,0,0,0,0,0,0,0,0
1.10654,409.979477989466,11.389859409801891,275.4193477912188,0,0,0,0,0,0,0,0
1.10656,410.05664765830153,11.260291677957824,274.50460804515933,0,0,0,0,0,0,0,0
1.10658,410.1292658305994,11.23503322738096,273.579031327218,0,0,0,0,0,0,0,0
1.1066,410.20012575437016,11.245487115408569,272.64265417755365,0,0,0,0,0,0,0,0
1.10662,410.2692536609157,11.2913405542809,271.69551356275,0,0,0,0,0,0,0,0
1.1066399999999998,410.33894333546687,11.3039123726889,270.73764687428826,0,0,0,0,0,0,0,0
1.10666,410.4085254871367,11.282844448429326,269.76909192709616,0,0,0,0,0,0,0,0
1.10668,410.4773240780679,11.227794765719116,268.7898869580823,0,0,0,0,0,0,0,0
1.1067,410.54465664964175,11.138437572251714,267.80007062456446,0,0,0,0,0,0,0,0
1.10672,410.60983465162207,11.014463528975886,266.7996820028145,0,0,0,0,0,0,0,0
1.10674,410.6710746979033,10.924012038855183,265.7887605864442,0,0,0,0,0,0,0,0
1.10676,410.728211604468,10.935265575737722,264.76734628491835,0,0,0,0,0,0,0,0
1.10678,410.7843365385335,10.979522040877312,263.7354794219156,0,0,0,0,0,0,0,0
1.1068,410.8409554505316,10.988002441543712,262.6932007337634,0,0,0,0,0,0,0,0
1.10682,410.8973711065056,10.960361604536573,261.6405513678584,0,0,0,0,0,0,0,0
1.10684,410.95288000180966,10.896270717281388,260.5775728809762,0,0,0,0,0,0,0,0
1.10686,411.00677268211246,10.795417469832836,259.50430723770666,0,0,0,0,0,0,0,0
1.10688,411.05833406695376,10.657506189930954,258.4207968087299,0,0,0,0,0,0,0,0
1.1069,411.10578694195937,10.550763163294352,257.32708436917267,0,0,0,0,0,0,0,0
1.10692,411.1481177089536,10.61196347867386,256.22321309694894,0,0,0,0,0,0,0,0
1.10694,411.1912305583396,10.635310026887334,255.1092265709865,0,0,0,0,0,0,0,0
1.10696,411.2344109452968,10.620462392650325,253.9851687695862,0,0,0,0,0,0,0,0
1.10698,411.27693835431097,10.567096504824924,252.8510840686152,0,0,0,0,0,0,0,0
1.107,411.31808660969256,10.474904767755088,251.7070172397852,0,0,0,0,0,0,0,0
1.10702,411.3571241883818,10.343596186085396,250.55301344891643,0,0,0,0,0,0,0,0
1.10704,411.3918971321263,10.241446645330672,249.3891182540817,0,0,0,0,0,0,0,0
1.10706,411.4225772041469,10.236779536754032,248.21537760389143,0,0,0,0,0,0,0,0
1.1070799999999998,411.45238607694006,10.260775993521351,247.03183783560613,0,0,0,0,0,0,0,0
1.1071,411.4822584831947,10.244560060794372,245.8385456733279,0,0,0,0,0,0,0,0
1.10712,411.5114605639751,10.18781888576933,244.63554822624192,0,0,0,0,0,0,0,0
1.10714,411.53925319939367,10.090255963246996,243.4228929865624,0,0,0,0,0,0,0,0
1.10716,411.5648923088036,9.95159124840612,242.2006278278964,0,0,0,0,0,0,0,0
1.10718,411.5852685194627,9.908730602355911,240.96880100314647,0,0,0,0,0,0,0,0
1.1072,411.6037492501733,9.892858636280064,239.7274611427489,0,0,0,0,0,0,0,0
1.10722,411.6211712602433,9.903693493258691,238.4766572526647,0,0,0,0,0,0,0,0
1.10724,411.6384105575514,9.872343182790251,237.21643871247807,0,0,0,0,0,0,0,0
1.10726,411.65472331538825,9.798511354297249,235.94685527348224,0,0,0,0,0,0,0,0
1.10728,411.66936092259454,9.681917789462211,234.6679570566344,0,0,0,0,0,0,0,0
1.1073,411.68025494802686,9.590897869737908,233.3797945506694,0,0,0,0,0,0,0,0
1.10732,411.687488202076,9.593818821100458,232.08241861002583,0,0,0,0,0,0,0,0
1.10734,411.694402869112,9.55320958662216,230.77588045287257,0,0,0,0,0,0,0,0
1.10736,411.6998543657254,9.537391568884672,229.46023165912243,0,0,0,0,0,0,0,0
1.10738,411.70466548159055,9.477476239835008,228.13552416831328,0,0,0,0,0,0,0,0
1.1074,411.7080859475826,9.373187952167129,226.8018102776526,0,0,0,0,0,0,0,0
1.1074199999999998,411.7093612360065,9.224266892201772,225.4591426398691,0,0,0,0,0,0,0,0
1.10744,411.70485934106216,9.2362890256996,224.10757426116987,0,0,0,0,0,0,0,0
1.10746,411.6997990850056,9.271802475719252,222.7471584991848,0,0,0,0,0,0,0,0
1.10748,411.6949544473565,9.261908254053903,221.37794906077391,0,0,0,0,0,0,0,0
1.1075,411.68958014520086,9.20632394345634,220.0000000000063,0,0,0,0,0,0,0,0
1.10752,411.68292668230407,9.104782429755824,218.61336571592656,0,0,0,0,0,0,0,0
1.10754,411.6742406017558,8.957031984538032,217.21810095050697,0,0,0,0,0,0,0,0
1.10756,411.660901998611,8.900035218538628,215.81426078639885,0,0,0,0,0,0,0,0
1.10758,411.6453666156432,8.864957748817046,214.4019006447953,0,0,0,0,0,0,0,0
1.1076,411.628534247639,8.851544894085299,212.98107628328208,0,0,0,0,0,0,0,0
1.10762,411.6111292350119,8.790932675424747,211.55184379354623,0,0,0,0,0,0,0,0
1.10764,411.59240617858086,8.682865715476035,210.1142595992652,0,0,0,0,0,0,0,0
1.10766,411.5716160550557,8.527103514838947,208.66838045378847,0,0,0,0,0,0,0,0
1.10768,411.54536879901167,8.529163940360366,207.21426343792257,0,0,0,0,0,0,0,0
1.1077,411.5184307926842,8.551643158570227,205.75196595778337,0,0,0,0,0,0,0,0
1.10772,411.4914807349039,8.525692091232832,204.2815457422922,0,0,0,0,0,0,0,0
1.10774,411.46378304500746,8.451055366958693,202.8030608411877,0,0,0,0,0,0,0,0
1.10776,411.4345986602431,8.32749188502711,201.3165696224957,0,0,0,0,0,0,0,0
1.10778,411.4020782777104,8.223330221316598,199.8221307703308,0,0,0,0,0,0,0,0
1.1078,411.36705184759927,8.138349130120474,198.3198032826068,0,0,0,0,0,0,0,0
1.10782,411.3292194908837,8.140856637319958,196.8096464686135,0,0,0,0,0,0,0,0
1.10784,411.2910793732136,8.093506786819185,195.29171994678345,0,0,0,0,0,0,0,0
1.1078599999999998,411.2519048176604,7.9960609832761245,193.76608364224285,0,0,0,0,0,0,0,0
1.10788,411.2109660520493,7.848294325959386,192.23279778448693,0,0,0,0,0,0,0,0
1.1079,411.16511376050255,7.855552035343192,190.6919229050437,0,0,0,0,0,0,0,0
1.10792,411.1186777855872,7.8805498522299455,189.14351983498696,0,0,0,0,0,0,0,0
1.10794,411.072256102365,7.854520865823357,187.58764970264687,0,0,0,0,0,0,0,0
1.10796,411.02513593276046,7.777231645453794,186.02437393108383,0,0,0,0,0,0,0,0
1.10798,410.9766016060726,7.648461805281959,184.45375423577696,0,0,0,0,0,0,0,0
1.108,410.9249297384808,7.536481015221764,182.8758526220883,0,0,0,0,0,0,0,0
1.10802,410.8700549114278,7.50954731810043,181.29073138285744,0,0,0,0,0,0,0,0
1.10804,410.8141523446818,7.498948139010678,179.6984530959854,0,0,0,0,0,0,0,0
1.10806,410.7577844162016,7.43598409275872,178.0990806218637,0,0,0,0,0,0,0,0
1.10808,410.7002518137398,7.320441504072341,176.492677101008,0,0,0,0,0,0,0,0
1.1081,410.6408527240454,7.152119120842577,174.87930595146432,0,0,0,0,0,0,0,0
1.10812,410.57670117493615,7.136093508341585,173.25903086634835,0,0,0,0,0,0,0,0
1.10814,410.5117064212262,7.135277962423407,171.63191581137545,0,0,0,0,0,0,0,0
1.10816,410.44638962428286,7.081029002962918,169.99802502223247,0,0,0,0,0,0,0,0
1.10818,410.3800696696287,6.973141471262383,168.35742300215963,0,0,0,0,0,0,0,0
1.1082,410.312063164669,6.811421953404209,166.71017451930086,0,0,0,0,0,0,0,0
1.10822,410.2396114198556,6.800787092869969,165.05634460419066,0,0,0,0,0,0,0,0
1.10824,410.1664152546092,6.804260091148679,163.39599854723215,0,0,0,0,0,0,0,0
1.10826,410.09296240192816,6.753262353763861,161.72920189599964,0,0,0,0,0,0,0,0
1.10828,410.0185916516744,6.647598699557864,160.05602045284633,0,0,0,0,0,0,0,0
1.1082999999999998,409.94263974562506,6.487085012855888,158.3765202720503,0,0,0,0,0,0,0,0
1.10832,409.78739557003166,1.1239582200517078,156.69076765738745,0,0,0,0,1,0,0,0
1.10834,409.6322056237312,1.1377289921570548,154.99882915954552,0,0,0,0,1,0,0,0
1.10836,409.4770747491235,1.176504360015215,153.30077157331357,0,0,0,0,1,0,0,0
1.10838,409.3220029081707,1.1887740629492305,151.59666193512822,0,0,0,0,1,0,0,0
1.1084,409.16699005456616,1.2004333590066734,149.88656752028933,0,0,0,0,1,0,0,0
1.10842,409.01203616354655,1.2132998210680437,148.1705558404271,0,0,0,0,1,0,0,0
1.10844,408.85714092892965,1.1988300484751129,146.448694640729,0,0,0,0,1,0,0,0
1.10846,408.70230430387016,1.1839355224274155,144.72105189731118,0,0,0,0,1,0,0,0
1.10848,408.5475262923394,1.2077305887938388,142.98769581458225,0,0,0,0,1,0,0,0
1.1085,408.3928069414755,1.193690747054232,141.248694822441,0,0,0,0,1,0,0,0
1.10852,408.2381461332236,1.1789734244365844,139.5041175737004,0,0,0,0,1,0,0,0
1.10854,408.0835438446712,1.1642093753937384,137.75403294126738,0,0,0,0,1,0,0,0
1.10856,407.9290000534898,1.1493993491451693,135.99851001547063,0,0,0,0,1,0,0,0
1.10858,407.7745147373608,1.1345439304153533,134.23761810138112,0,0,0,0,1,0,0,0
1.1086,407.62008787397696,1.1196437056769457,132.47142671596464,0,0,0,0,1,0,0,0
1.10862,407.46571944104113,1.1046992631714083,130.7000055854648,0,0,0,0,1,0,0,0
1.1086399999999998,407.31140941626734,1.0897111928858614,128.92342464253875,0,0,0,0,1,0,0,0
1.10866,407.1571577773785,1.0746800865298014,127.14175402354398,0,0,0,0,1,0,0,0
1.10868,407.0029645021105,1.0596065375116226,125.35506406581808,0,0,0,0,1,0,0,0
1.1087,406.84882956820775,1.04449114091539,123.56342530478888,0,0,0,0,1,0,0,0
1.10872,406.6947529534263,1.0293344934771678,121.76690847131935,0,0,0,0,1,0,0,0
1.10874,406.5407346355325,1.014137193561542,119.96558448878544,0,0,0,0,1,0,0,0
1.10876,406.3867745923038,0.9988998411380252,118.1595244704062,0,0,0,0,1,0,0,0
1.10878,406.23287280152687,0.9836230377572522,116.34879971632245,0,0,0,0,1,0,0,0
1.1088,406.07902924100006,0.9683073865274046,114.53348171083051,0,0,0,0,1,0,0,0
1.10882,405.92524388853127,0.9529534920902318,112.71364211960982,0,0,0,0,1,0,0,0
1.10884,405.77151672194105,0.937561960597324,110.88935278676188,0,0,0,0,1,0,0,0
1.10886,405.6178477190583,0.9221333996860486,109.06068573217192,0,0,0,0,1,0,0,0
1.10888,405.4642368577237,0.906668418455678,107.22771314846771,0,0,0,0,1,0,0,0
1.1089,405.31068411578826,0.8911676274432752,105.39050739820183,0,0,0,0,1,0,0,0
1.10892,405.1571894711132,0.8756316385995929,103.54914101119458,0,0,0,0,1,0,0,0
1.10894,405.00375290157046,0.8600610652649968,101.70368668138804,0,0,0,0,1,0,0,0
1.10896,404.8503743850438,0.8444565221450868,99.85421726419264,0,0,0,0,1,0,0,0
1.10898,404.6970538994252,0.8288186252866242,98.00080577347744,0,0,0,0,1,0,0,0
1.109,404.5437914226189,0.8131479920530565,96.14352537873783,0,0,0,0,1,0,0,0
1.10902,404.39058693253975,0.7974452411002173,94.28244940225714,0,0,0,0,1,0,0,0
1.10904,404.2374404071125,0.7817109923519266,92.4176513160946,0,0,0,0,1,0,0,0
1.10906,404.08435182427263,0.7659458669754154,90.54920473931936,0,0,0,0,1,0,0,0
1.1090799999999998,403.9313211619669,0.7501504873569284,88.67718343498609,0,0,0,0,1,0,0,0
1.1091,403.7783483981521,0.7343254770770618,86.80166130727353,0,0,0,0,1,0,0,0
1.10912,403.6254335107947,0.7184714608861866,84.92271239861782,0,0,0,0,1,0,0,0
1.10914,403.4725764778733,0.7025890646797907,83.04041088667054,0,0,0,0,1,0,0,0
1.10916,403.3197772773764,0.6866789154737061,81.15483108150643,0,0,0,0,1,0,0,0
1.10918,403.1670358873036,0.6707416413794617,79.2660474225535,0,0,0,0,1,0,0,0
1.1092,403.0143522856636,0.6547778715793826,77.37413447579065,0,0,0,0,1,0,0,0
1.10922,402.861726450478,0.6387882363018405,75.47916693068444,0,0,0,0,1,0,0,0
1.10924,402.7091583597767,0.622773366796282,73.58121959729169,0,0,0,0,1,0,0,0
1.10926,402.5566479916016,0.606733895308388,71.68036740335765,0,0,0,0,1,0,0,0
1.10928,402.40419532400455,0.5906704550550737,69.77668539123775,0,0,0,0,1,0,0,0
