"Time / s","Vo:Measured voltage","IL:Measured current","Vin:Measured voltage","open1:Output","open3:Output","open2:Output","open4:Output","short1:Output","short2:Output","short3:Output","short4:Output"
1.1318544040820142,388.46244110297653,-6.976182599084761,-169.99802502222533,0,0,0,0,0,0,0,0
1.1318599999999999,388.4087207721596,-6.9716909965618115,-171.63191581135359,0,0,0,0,0,0,0,0
1.13188,388.35533326591235,-7.0223318268224189,-173.25903086634125,0,0,0,0,0,0,0,0
1.1318999999999999,388.30301176352549,-7.1278576293177753,-174.87930595144263,0,0,0,0,0,0,0,0
1.13192,388.25248578208931,-7.2880081275431898,-176.49267710100096,0,0,0,0,0,0,0,0
1.1319399999999999,388.20683517216776,-7.3084341410876936,-178.0990806218567,0,0,0,0,0,0,0,0
1.1319599999999999,388.16217120576351,-7.3182823690952361,-179.69845309596397,0,0,0,0,0,0,0,0
1.13198,388.11804143430066,-7.3820001488977907,-181.29073138285048,0,0,0,0,0,0,0,0
1.1319999999999999,388.07519459861771,-7.4993263490717732,-182.87585262206707,0,0,0,0,0,0,0,0
1.13202,388.03437542238856,-7.669986345633272,-184.45375423577008,0,0,0,0,0,0,0,0
1.1320399999999999,387.99913762534408,-7.6350623899847703,-186.02437393107698,0,0,0,0,0,0,0,0
1.1320599999999998,387.96379362211206,-7.6529374599524109,-187.58764970262592,0,0,0,0,0,0,0,0
1.13208,387.92910940492607,-7.7233521645478609,-189.14351983499427,0,0,0,0,0,0,0,0
1.1320999999999999,387.89584679995437,-7.8460328838399995,-190.69192290502295,0,0,0,0,0,0,0,0
1.13212,387.86584989192818,-7.9560594728161869,-192.23279778449412,0,0,0,0,0,0,0,0
1.1321399999999999,387.83966702986601,-7.9238747351586074,-193.76608364223617,0,0,0,0,0,0,0,0
1.1321600000000001,387.81340020075544,-7.9431115483045422,-195.29171994679052,0,0,0,0,0,0,0,0
1.13218,387.78782636031212,-8.0135002926759906,-196.8096464686206,0,0,0,0,0,0,0,0
1.1321999999999999,387.76371797274561,-8.1347564801430732,-198.31980328260019,0,0,0,0,0,0,0,0
1.13222,387.74184278789608,-8.3065808433975459,-199.82213077033774,0,0,0,0,0,0,0,0
1.1322399999999999,387.72600539499126,-8.2702161171846988,-201.3165696224892,0,0,0,0,0,0,0,0
1.13226,387.70999861188091,-8.2838127671231963,-202.80306084119462,0,0,0,0,0,0,0,0
1.13228,387.69460743673926,-8.3470930468047744,-204.28154574229907,0,0,0,0,0,0,0,0
1.1322999999999999,387.68061207252259,-8.4597637391962213,-205.7519659577637,0,0,0,0,0,0,0,0
1.13232,387.668787685827,-8.6215162548903379,-207.21426343792942,0,0,0,0,0,0,0,0
1.1323399999999999,387.66305465765231,-8.5736275039254117,-208.66838045376898,0,0,0,0,0,0,0,0
1.13236,387.65694034630951,-8.5741837266295331,-210.11425959925887,0,0,0,0,0,0,0,0
1.1323799999999999,387.6512351677589,-8.6229017097060741,-211.55184379353997,0,0,0,0,0,0,0,0
1.1323999999999999,387.6467244736433,-8.7194822049717526,-212.98107628326298,0,0,0,0,0,0,0,0
1.13242,387.64418829173559,-8.8636100362567571,-214.40190064478918,0,0,0,0,0,0,0,0
1.1324399999999999,387.64657006660093,-8.9257633099792297,-215.81426078637995,0,0,0,0,0,0,0,0
1.13246,387.65145016883895,-8.9055877165059592,-217.21810095050085,0,0,0,0,0,0,0,0
1.1324799999999999,387.65638462301547,-8.931973294221045,-218.61336571592048,0,0,0,0,0,0,0,0
1.1324999999999998,387.66216083037631,-9.0046180977807726,-219.99999999998775,0,0,0,0,0,0,0,0
1.13252,387.66956063132221,-9.1232037502297789,-221.37794906076789,0,0,0,0,0,0,0,0
1.1325399999999999,387.67936002974466,-9.287395563174023,-222.7471584991664,0,0,0,0,0,0,0,0
1.13256,387.69572446628104,-9.238426321090035,-224.10757426116396,0,0,0,0,0,0,0,0
1.1325799999999999,387.71161993508036,-9.2343501971848685,-225.45914263985105,0,0,0,0,0,0,0,0
1.1326000000000001,387.72783285939266,-9.2748665792080836,-226.80181027765886,0,0,0,0,0,0,0,0
1.13262,387.74514393354707,-9.3596579761626515,-228.13552416830748,0,0,0,0,0,0,0,0
1.1326399999999999,387.76432782963167,-9.4883901460050808,-229.46023165910472,0,0,0,0,0,0,0,0
1.13266,387.78719548758392,-9.596093179407994,-230.77588045287868,0,0,0,0,0,0,0,0
1.1326799999999999,387.81410338169678,-9.6177691127798948,-232.08241861002017,0,0,0,0,0,0,0,0
1.1327,387.84247662893375,-9.6176685958319936,-233.37979455067546,0,0,0,0,0,0,0,0
1.1327199999999999,387.87122686335385,-9.66008785023622,-234.66795705664038,0,0,0,0,0,0,0,0
1.1327399999999999,387.90112390037399,-9.744698016333972,-235.9468552734767,0,0,0,0,0,0,0,0
1.13276,387.93293113110474,-9.8711532578126135,-237.21643871248406,0,0,0,0,0,0,0,0
1.1327799999999999,387.96897917363958,-9.9097926892628827,-238.47665725265918,0,0,0,0,0,0,0,0
1.1328,388.00742726323216,-9.924879061515993,-239.72746114275478,0,0,0,0,0,0,0,0
1.1328199999999999,388.04723382026913,-9.9160403325632913,-240.96880100315232,0,0,0,0,0,0,0,0
1.1328399999999998,388.08724154306782,-9.947596390131503,-242.20062782789105,0,0,0,0,0,0,0,0
1.13286,388.1282060061867,-10.019212248795727,-243.42289298656806,0,0,0,0,0,0,0,0
1.1328799999999999,388.1708760444493,-10.13053580580606,-244.63554822622572,0,0,0,0,0,0,0,0
1.1329,388.21711518440071,-10.216508326456463,-245.83854567333353,0,0,0,0,0,0,0,0
1.1329199999999999,388.26719359393127,-10.21202893583204,-247.03183783559027,0,0,0,0,0,0,0,0
1.1329400000000001,388.3182596962651,-10.181392695730967,-248.21537760388628,0,0,0,0,0,0,0,0
1.13296,388.36908546939475,-10.188960527518649,-249.38911825407658,0,0,0,0,0,0,0,0
1.1329799999999999,388.42040855597139,-10.234397702081026,-250.55301344890088,0,0,0,0,0,0,0,0
1.133,388.47295966207537,-10.317352330425168,-251.70701723978019,0,0,0,0,0,0,0,0
1.1330199999999999,388.52746222871554,-10.437455530205186,-252.85108406859987,0,0,0,0,0,0,0,0
1.13304,388.58579337851415,-10.529570995810133,-253.98516876958126,0,0,0,0,0,0,0,0
1.13306,388.64678774694352,-10.593272505539407,-255.10922657098166,0,0,0,0,0,0,0,0
1.1330799999999999,388.7115105673326,-10.563386025870798,-256.22321309693405,0,0,0,0,0,0,0,0
1.1331,388.77596910829214,-10.569045720892188,-257.32708436916789,0,0,0,0,0,0,0,0
1.1331199999999999,388.8408708310975,-10.609907697071932,-258.42079680871535,0,0,0,0,0,0,0,0
1.13314,388.9069158832794,-10.685611170547224,-259.50430723770194,0,0,0,0,0,0,0,0
1.1331599999999999,388.97479676543907,-10.795778646999381,-260.57757288097156,0,0,0,0,0,0,0,0
1.1331799999999999,389.04640497964812,-10.875189313443121,-261.64055136784418,0,0,0,0,0,0,0,0
1.1332,389.12047899859721,-10.923403421581675,-262.69320073375877,0,0,0,0,0,0,0,0
1.1332199999999999,389.19661047751606,-10.940005953862673,-263.73547942190169,0,0,0,0,0,0,0,0
1.13324,389.27481865098008,-10.924592044598132,-264.76734628492318,0,0,0,0,0,0,0,0
1.1332599999999999,389.35301617008707,-10.941628247436393,-265.78876058644892,0,0,0,0,0,0,0,0
1.1332799999999998,389.43186788535417,-10.990754719472399,-266.79968200280103,0,0,0,0,0,0,0,0
1.1333,389.51203081385898,-11.07159533803563,-267.80007062456912,0,0,0,0,0,0,0,0
1.1333199999999999,389.5953922815695,-11.118840016223565,-268.789886958078,0,0,0,0,0,0,0,0
1.13334,389.68058543262339,-11.13204662794397,-269.76909192710076,0,0,0,0,0,0,0,0
1.1333599999999999,389.76634255674099,-11.175748420339835,-270.737646874284,0,0,0,0,0,0,0,0
1.1333800000000001,389.85329700297092,-11.249566351326301,-271.69551356275451,0,0,0,0,0,0,0,0
1.1334,389.94431828612892,-11.223155055969698,-272.64265417755814,0,0,0,0,0,0,0,0
1.1334199999999999,390.03505743093245,-11.22601773439701,-273.5790313272139,0,0,0,0,0,0,0,0
1.13344,390.12613155200268,-11.257791445166417,-274.50460804516365,0,0,0,0,0,0,0,0
1.1334599999999999,390.21814966822717,-11.318097753264853,-275.41934779120658,0,0,0,0,0,0,0,0
1.13348,390.31171237943755,-11.406542938565392,-276.32321445300045,0,0,0,0,0,0,0,0
1.1335,390.40869418287474,-11.457665337511628,-277.21617234742064,0,0,0,0,0,0,0,0
1.1335199999999999,390.50760767820208,-11.471001604867075,-278.09818622202681,0,0,0,0,0,0,0,0
1.13354,390.60706089324589,-11.511206711314903,-278.96922125642914,0,0,0,0,0,0,0,0
1.1335599999999999,390.70762743860632,-11.577891963877594,-279.82924306364032,0,0,0,0,0,0,0,0
1.13358,390.81137688803619,-11.60553579009509,-280.67821769148742,0,0,0,0,0,0,0,0
1.1335999999999999,390.91675831316718,-11.593670960286358,-281.51611162389054,0,0,0,0,0,0,0,0
1.1336199999999999,391.02211789083225,-11.607022981093129,-282.34289178223963,0,0,0,0,0,0,0,0
1.13364,391.12800158267135,-11.645212467279045,-283.15852552667707,0,0,0,0,0,0,0,0
1.1336599999999999,391.23494671398481,-11.707845988958436,-283.96298065736437,0,0,0,0,0,0,0,0
1.13368,391.34348167309776,-11.794516298475942,-284.75622541580509,0,0,0,0,0,0,0,0
1.1336999999999999,391.45606371329376,-11.774349528816897,-285.53822848604,0,0,0,0,0,0,0,0
1.1337199999999998,391.56841423000918,-11.777326911705819,-286.30895899593406,0,0,0,0,0,0,0,0
1.13374,391.68104101728875,-11.80306955829054,-287.06838651837342,0,0,0,0,0,0,0,0
1.1337599999999999,391.79444315029946,-11.851185356782116,-287.81648107244598,0,0,0,0,0,0,0,0
1.13378,391.90911069872806,-11.921269204185538,-288.55321312467987,0,0,0,0,0,0,0,0
1.1337999999999999,392.02552444549445,-12.012903244957815,-289.27855359012199,0,0,0,0,0,0,0,0
1.1338200000000001,392.14652963209676,-11.994975096306655,-289.99247383361211,0,0,0,0,0,0,0,0
1.13384,392.2673198838794,-11.99767306983181,-290.69494567076902,0,0,0,0,0,0,0,0
1.1338599999999999,392.38835342017273,-12.020612949041814,-291.38594136922035,0,0,0,0,0,0,0,0
1.13388,392.51007953677885,-12.063398441166926,-292.06543364964534,0,0,0,0,0,0,0,0
1.1338999999999999,392.63293834127319,-12.125621416704799,-292.73339568683974,0,0,0,0,0,0,0,0
1.13392,392.75799486779255,-12.141419564481916,-293.38980111081838,0,0,0,0,0,0,0,0
1.1339399999999999,392.88493929731766,-12.110327157670726,-294.03462400780705,0,0,0,0,0,0,0,0
1.1339599999999999,393.01133629623331,-12.097371410906124,-294.66783892130786,0,0,0,0,0,0,0,0
1.13398,393.13759388325201,-12.102172044425096,-295.28942085308591,0,0,0,0,0,0,0,0
1.1339999999999999,393.26411115735658,-12.124337895505965,-295.89934526413958,0,0,0,0,0,0,0,0
1.13402,393.39127805662434,-12.163467160709457,-296.49758807570845,0,0,0,0,0,0,0,0
1.1340399999999999,393.51947512271812,-12.2191476440901,-297.08412567017996,0,0,0,0,0,0,0,0
1.1340599999999998,393.64907327117299,-12.290957011233557,-297.65893489205962,0,0,0,0,0,0,0,0
1.13408,393.78043356760531,-12.378463048972574,-298.22199304886857,0,0,0,0,0,0,0,0
1.1340999999999999,393.91390700997056,-12.481223930630529,-298.77327791202475,0,0,0,0,0,0,0,0
1.13412,394.05229509903359,-12.467472857405394,-299.31276771775566,0,0,0,0,0,0,0,0
1.1341399999999999,394.19047997672209,-12.468005893081161,-299.84044116791785,0,0,0,0,0,0,0,0
1.1341600000000001,394.32878608747075,-12.482428701863112,-300.35627743087645,0,0,0,0,0,0,0,0
1.13418,394.46894435962889,-12.444610248320622,-300.86025614228981,0,0,0,0,0,0,0,0
1.1341999999999999,394.60691466874215,-12.48558339698342,-301.35235740594601,0,0,0,0,0,0,0,0
1.13422,394.74658086434346,-12.47347691437353,-301.83256179453406,0,0,0,0,0,0,0,0
1.1342399999999999,394.88605610069914,-12.473620737336725,-302.30085035039838,0,0,0,0,0,0,0,0
1.13426,395.02561979702733,-12.485617704445435,-302.75720458631696,0,0,0,0,0,0,0,0
1.13428,395.16695384933018,-12.443218765151654,-303.20160648619776,0,0,0,0,0,0,0,0
1.1342999999999999,395.30673418624707,-12.477688000361463,-303.63403850581881,0,0,0,0,0,0,0,0
1.13432,395.44803092608379,-12.456903781748053,-304.05448357350832,0,0,0,0,0,0,0,0
1.1343399999999999,395.58826703237253,-12.512228419045174,-304.46292509080729,0,0,0,0,0,0,0,0
1.13436,395.73049814188164,-12.51143307608244,-304.85934693315477,0,0,0,0,0,0,0,0
1.1343799999999999,395.8727670309836,-12.520000352985525,-305.24373345047758,0,0,0,0,0,0,0,0
1.1343999999999999,396.01528737517322,-12.537524382811394,-305.61606946786839,0,0,0,0,0,0,0,0
1.13442,396.15826323208501,-12.56359347086279,-305.97634028614164,0,0,0,0,0,0,0,0
1.1344399999999999,396.30188891226601,-12.597790359522696,-306.32453168240926,0,0,0,0,0,0,0,0
1.13446,396.44634885620889,-12.639692496323818,-306.66062991068077,0,0,0,0,0,0,0,0
1.1344799999999999,396.59181751772678,-12.688872305090838,-306.98462170236752,0,0,0,0,0,0,0,0
1.1344999999999998,396.73845925372711,-12.744897459990916,-307.29649426683136,0,0,0,0,0,0,0,0
1.13452,396.88642822045762,-12.807331162326379,-307.59623529188025,0,0,0,0,0,0,0,0
1.1345399999999999,397.03586827627447,-12.875732419902182,-307.88383294424625,0,0,0,0,0,0,0,0
1.13456,397.18691289099581,-12.949656328798696,-308.15927587007167,0,0,0,0,0,0,0,0
1.1345799999999999,397.34221929172003,-12.89624360204413,-308.42255319533655,0,0,0,0,0,0,0,0
1.1346000000000001,397.49461575189315,-12.91361711295173,-308.67365452630753,0,0,0,0,0,0,0,0
1.13462,397.64905944659444,-12.868958101205534,-308.91256994992955,0,0,0,0,0,0,0,0
1.1346399999999999,397.80079439661353,-12.894343208134138,-309.13929003423311,0,0,0,0,0,0,0,0
1.13466,397.9547533143085,-12.856845966318614,-309.35380582869931,0,0,0,0,0,0,0,0
1.1346799999999999,398.10780371683961,-12.822307410181969,-309.55610886460806,0,0,0,0,0,0,0,0
1.1347,398.25915925641453,-12.856702042716057,-309.74619115538559,0,0,0,0,0,0,0,0
1.13472,398.41214917406182,-12.826921884903378,-309.92404519690507,0,0,0,0,0,0,0,0
1.1347399999999999,398.56276415037451,-12.865309249912301,-310.08966396779522,0,0,0,0,0,0,0,0
1.13476,398.71588158666168,-12.838674314739492,-310.24304092971192,0,0,0,0,0,0,0,0
1.1347799999999999,398.86832359316804,-12.812977530961199,-310.38417002759246,0,0,0,0,0,0,0,0
1.1348,399.01925905414066,-12.85431367808151,-310.5130456899044,0,0,0,0,0,0,0,0
1.1348199999999999,399.17196587271411,-12.829316165010052,-310.62966282885492,0,0,0,0,0,0,0,0
1.1348399999999998,399.32238662090123,-12.870576894279768,-310.73401684060019,0,0,0,0,0,0,0,0
1.13486,217.88180321167752,-15.507783177729484,-310.82610360542333,0,0,0,0,1,0,0,0
1.1348799999999999,10.846863089421726,-25.86978925284879,-310.90591948789489,0,0,0,0,1,0,0,0
1.1349,0.54002261387834816,-36.234467326406403,-310.97346133702189,0,0,0,0,1,0,0,0
1.1349199999999999,0.026925534942916211,-46.601202616239426,-311.02872648636662,0,0,0,0,1,0,0,0
1.1349399999999998,0.001391799516716926,-56.969575625744326,-311.07171275415624,0,0,0,0,1,0,0,0
1.13496,0.00013050170603372496,-67.339176519635089,-311.1024184433669,0,0,0,0,1,0,0,0
1.1349799999999999,7.7709252709875023e-05,-77.709595899440203,-311.12084234178951,0,0,0,0,1,0,0,0
1.135,8.8080081014604866e-05,-88.080424355186821,-311.12698372208092,0,0,0,0,1,0,0,0
1.1350199999999999,9.8450909001787274e-05,-98.451252465238085,-311.12084234178963,0,0,0,0,1,0,0,0
1.13504,0.00010882132723413819,-108.82167080694198,-311.10241844336673,0,0,0,0,1,0,0,0
1.13506,0.00011919092630518702,-119.19126997382358,-311.07171275415658,0,0,0,0,1,0,0,0
1.1350799999999999,0.00012955929684080206,-129.55964059174738,-311.02872648636708,0,0,0,0,1,0,0,0
1.1351,0.00013992602951535253,-139.9263733350794,-310.97346133702194,0,0,0,0,1,0,0,0
1.1351199999999999,0.00015029071506786625,-150.2910589428447,-310.90591948789557,0,0,0,0,1,0,0,0
1.13514,0.00016065294431818957,-160.65328823488747,-310.82610360542338,0,0,0,0,1,0,0,0
1.1351599999999999,0.00017101230818313898,-171.01265212802255,-310.7340168406011,0,0,0,0,1,0,0,0
1.1351799999999999,0.00018136839769265114,-181.36874165218549,-310.62966282885594,0,0,0,0,1,0,0,0
1.1352,0.00019172080400592858,-191.72114796657817,-310.51304568990452,0,0,0,0,1,0,0,0
1.1352199999999999,0.00020206911842758,-202.06946237580934,-310.38417002759377,0,0,0,0,1,0,0,0
1.13524,0.00021241293242375562,-212.41327634602968,-310.24304092971198,0,0,0,0,1,0,0,0
1.1352599999999999,0.00022275183763827478,-222.75218152105958,-310.08966396779675,0,0,0,0,1,0,0,0
1.1352799999999998,0.00023308542590874611,-233.08576973850921,-309.92404519690672,0,0,0,0,1,0,0,0
1.1353,0.00024341328928268333,-243.41363304589439,-309.7461911553857,0,0,0,0,1,0,0,0
1.1353199999999999,0.00025373502003360839,-253.73536371673964,-309.55610886461,0,0,0,0,1,0,0,0
1.13534,0.00026405021067714917,-264.05055426667604,-309.35380582869942,0,0,0,0,1,0,0,0
1.1353599999999999,0.00027435845398712555,-274.35879746952719,-309.13929003423516,0,0,0,0,1,0,0,0
1.1353800000000001,0.00028465934301162538,-284.65968637338523,-308.91256994992966,0,0,0,0,1,0,0,0
1.1354,0.00029495247108907348,-294.95281431667956,-308.67365452630764,0,0,0,0,1,0,0,0
1.1354199999999999,0.0003052374318642814,-305.23777494422723,-308.42255319533899,0,0,0,0,1,0,0,0
1.13544,0.00031551381930449226,-315.51416222327691,-308.15927587007184,0,0,0,0,1,0,0,0
1.1354599999999999,0.00032578122771541101,-325.78157045954026,-307.88383294424892,0,0,0,0,1,0,0,0
1.13548,0.00033603925175721707,-336.03959431320322,-307.59623529188036,0,0,0,0,1,0,0,0
1.1355,0.0003462874864605701,-346.28782881493328,-307.29649426683426,0,0,0,0,1,0,0,0
1.1355199999999999,0.00035652552724259708,-356.52586938186522,-306.98462170237053,0,0,0,0,1,0,0,0
1.13554,0.0003667529699228607,-366.75331183357002,-306.66062991067793,0,0,0,0,1,0,0,0
1.1355599999999999,0.00037696941073932146,-376.96975240801748,-306.3245316824125,0,0,0,0,1,0,0,0
1.13558,0.00038717444636427318,-387.17478777751086,-305.97634028613857,0,0,0,0,1,0,0,0
1.1355999999999999,0.00039736767392026733,-397.36801506461171,-305.61606946787185,0,0,0,0,1,0,0,0
1.1356199999999999,0.00040754869099601776,-407.54903185804443,-305.24373345048122,0,0,0,0,1,0,0,0
1.13564,0.00041771709566228637,-417.71743622858219,-304.85934693315141,0,0,0,0,1,0,0,0
1.1356599999999999,0.00042787248648775192,-427.87282674491541,-304.46292509081104,0,0,0,0,1,0,0,0
1.13568,0.00043801446255485902,-438.01480248950077,-304.05448357350849,0,0,0,0,1,0,0,0
1.1356999999999999,0.00044814262347564178,-448.14296307438531,-303.6340385058229,0,0,0,0,1,0,0,0
1.1357199999999998,0.0004582565694075338,-458.25690865701574,-303.20160648620185,0,0,0,0,1,0,0,0
1.13574,0.00046835590106915034,-468.35623995602117,-302.75720458631713,0,0,0,0,1,0,0,0
1.1357599999999999,0.00047844021975605592,-478.44055826698042,-302.30085035040275,0,0,0,0,1,0,0,0
1.13578,0.00048850912735649832,-488.50946547815607,-301.83256179453434,0,0,0,0,1,0,0,0
1.1357999999999999,0.00049856222636713123,-498.56256408621732,-301.35235740595061,0,0,0,0,1,0,0,0
1.1358200000000001,0.00050859911990870383,-508.59945721192906,-300.86025614228998,0,0,0,0,1,0,0,0
1.13584,0.00051861941174173023,-518.61974861582189,-300.35627743087667,0,0,0,0,1,0,0,0
1.135854404082014,0.00051861941174173023,-518.61974861582189,-300.35627743087667,0,0,0,0,1,0,0,0
