"Time / s","Vo:Measured voltage","IL:Measured current","Vin:Measured voltage","open1:Output","open3:Output","open2:Output","open4:Output","short1:Output","short2:Output","short3:Output","short4:Output"
1.15972553287057,401.40895409205569,-1.118498918954258,-27.332877799222121,0,0,0,0,0,0,0,0
1.15974,401.25919145250282,-1.0603461331715691,-25.385040877244712,0,0,0,0,0,0,0,0
1.1597599999999999,401.10929830278241,-0.93762618835020251,-23.436201797337251,0,0,0,0,0,0,0,0
1.15978,400.95905498949719,-0.88398387400214673,-21.486437496294396,0,0,0,0,0,0,0,0
1.1597999999999999,400.80871227038955,-0.76566256983436731,-19.535824947507503,0,0,0,0,0,0,0,0
1.1598199999999999,400.65800372273929,-0.71620849683857468,-17.584441157802381,0,0,0,0,0,0,0,0
1.15984,400.50723294495026,-0.60197370051340948,-15.632363164452075,0,0,0,0,0,0,0,0
1.1598599999999999,400.35626131632495,-0.5564130840561855,-13.679668032188594,0,0,0,0,0,0,0,0
1.15988,400.20518015411216,-0.51267978279538562,-11.726432850036876,0,0,0,0,0,0,0,0
1.1598999999999999,400.0540403214813,-0.47070831102816596,-9.7727347284127806,0,0,0,0,0,0,0,0
1.1599199999999998,399.90289484223592,-0.36378218662495343,-7.818650795955211,0,0,0,0,0,0,0,0
1.15994,399.75168468522685,-0.1919108706382644,-5.8642581965165315,0,0,0,0,0,0,0,0
1.1599599999999999,399.60034392532208,-0.22151263169060506,-3.9096340862585164,0,0,0,0,0,0,0,0
1.15998,399.44906447116034,-0.18600893383118763,-1.9548556302880902,0,0,0,0,0,0,0,0
1.1599999999999999,399.29782657746273,-0.085417383206806113,1.540652627552874e-15,0,0,0,0,0,0,0,0
1.1600200000000001,399.14656311836256,-0.18586289997477495,1.9548556303057785,0,0,0,0,0,0,0,0
1.16004,398.99533644549393,-0.22107438448014213,3.9096340862408354,0,0,0,0,0,0,0,0
1.1600599999999999,398.84416630522907,-0.19107766880400837,5.8642581965165341,0,0,0,0,0,0,0,0
1.16008,398.69307242824488,-0.095901154761344642,7.8186507959375344,0,0,0,0,0,0,0,0
1.1600999999999999,398.54207291610641,0.06442514096419201,9.7727347283951058,0,0,0,0,0,0,0,0
1.16012,398.39119069211711,0.28986691939855974,11.726432850036879,0,0,0,0,0,0,0,0
1.1601399999999999,398.24044382214032,0.58038960442328458,13.679668032170927,0,0,0,0,0,0,0,0
1.1601599999999999,398.09013707065986,0.73690934617092285,15.632363164434416,0,0,0,0,0,0,0,0
1.16018,397.94011000290436,0.89224788344278338,17.584441157784724,0,0,0,0,0,0,0,0
1.1601999999999999,397.79053081591201,0.98013607342524545,19.535824947489854,0,0,0,0,0,0,0,0
1.16022,397.64129548286814,1.0669458035516459,21.4864374962944,0,0,0,0,0,0,0,0
1.1602399999999999,397.49237711493578,1.1526978887489776,23.436201797319615,0,0,0,0,0,0,0,0
1.1602599999999998,397.34394144485901,1.1711891966552388,25.385040877227087,0,0,0,0,0,0,0,0
1.16028,397.1956549007744,1.2549060415711011,27.332877799204507,0,0,0,0,0,0,0,0
1.1602999999999999,397.0478095121652,1.3376194803712873,29.279635665950174,0,0,0,0,0,0,0,0
1.16032,396.9005251980351,1.3531899190066101,31.225237622832125,0,0,0,0,0,0,0,0
1.1603399999999999,396.75349532953197,1.3678198111966131,33.1696068607813,0,0,0,0,0,0,0,0
1.1603600000000001,396.60663559839008,1.4476177991031607,35.112666619464662,0,0,0,0,0,0,0,0
1.16038,396.46010381471814,1.5925183157302822,37.05434019017482,0,0,0,0,0,0,0,0
1.1603999999999999,396.31448589394319,1.6703512967512135,38.994550918981481,0,0,0,0,0,0,0,0
1.16042,396.16945384729229,1.6811773131473389,40.933222209704766,0,0,0,0,0,0,0,0
1.1604399999999999,396.02460811827643,1.7570691481400851,42.870277526886589,0,0,0,0,0,0,0,0
1.16046,395.88014565449805,1.8979512033724795,44.805640398952328,0,0,0,0,0,0,0,0
1.16048,395.73676319547155,1.9718365415202497,46.739234421002166,0,0,0,0,0,0,0,0
1.1604999999999999,395.59405076240108,1.9787721807136494,48.67098325812497,0,0,0,0,0,0,0,0
1.16052,395.45153563874999,2.0506265941325661,50.600810648201723,0,0,0,0,0,0,0,0
1.1605399999999999,395.30945361886825,2.1873141722428038,52.528640404881635,0,0,0,0,0,0,0,0
1.16056,395.16831972582725,2.322886735106767,54.45439642079922,0,0,0,0,0,0,0,0
1.1605799999999999,395.02834049368909,2.3914796911143466,56.378002670369575,0,0,0,0,0,0,0,0
1.1605999999999999,394.8889980630077,2.4589410281993995,58.299383212929122,0,0,0,0,0,0,0,0
1.16062,394.75043221711769,2.5252416267870035,60.218462195681319,0,0,0,0,0,0,0,0
1.1606399999999999,394.61250739869695,2.590343715926291,62.135163856639196,0,0,0,0,0,0,0,0
1.16066,394.47541520052766,2.6542132932328997,64.049412527737786,0,0,0,0,0,0,0,0
1.1606799999999999,394.33901000497713,2.716806410492711,65.961132637682638,0,0,0,0,0,0,0,0
1.1606999999999998,394.20344204111791,2.778082244592825,67.870248715054515,0,0,0,0,0,0,0,0
1.16072,394.06855327680421,2.8379910284169969,69.776685391236867,0,0,0,0,0,0,0,0
1.1607399999999999,393.93418883894822,2.9621395347631769,71.680367403339545,0,0,0,0,0,0,0,0
1.16076,393.80107456307093,3.0847832753078732,73.581219597290797,0,0,0,0,0,0,0,0
1.1607799999999999,393.66959387229883,3.0746417759900497,75.479166930666409,0,0,0,0,0,0,0,0
1.1608000000000001,393.53828808689951,3.1285421255039441,77.374134475789774,0,0,0,0,0,0,0,0
1.16082,393.4075254546903,3.2463642010028626,79.266047422552631,0,0,0,0,0,0,0,0
1.1608399999999999,393.27810499986742,3.3624409210526798,81.15483108148851,0,0,0,0,0,0,0,0
1.16086,393.1502443798247,3.4111773462559842,83.040410886669662,0,0,0,0,0,0,0,0
1.1608799999999999,393.02312230251681,3.4580594095502142,84.922712398599927,0,0,0,0,0,0,0,0
1.1609,392.89654792641272,3.56849658610603,86.801661307272695,0,0,0,0,0,0,0,0
1.16092,392.77092498447877,3.7423539198238962,88.677183434968285,0,0,0,0,0,0,0,0
1.1609399999999999,392.64807550607946,3.7177377544031902,90.549204739301587,0,0,0,0,0,0,0,0
1.16096,392.52532051559058,3.7564028199297193,92.417651316093739,0,0,0,0,0,0,0,0
1.1609799999999999,392.40310046587524,3.8582100911599064,94.282449402239422,0,0,0,0,0,0,0,0
1.161,392.28185465406062,4.0230147505021945,96.143525378736953,0,0,0,0,0,0,0,0
1.1610199999999999,392.16326038576511,4.0545959244806209,98.000805773459803,0,0,0,0,0,0,0,0
1.1610399999999998,392.04545596368422,4.0836340217586962,99.854217264175006,0,0,0,0,0,0,0,0
1.16106,391.92815242811758,4.1753517788144769,101.70368668138717,0,0,0,0,0,0,0,0
1.1610799999999999,391.81182376714969,4.3295947753308006,103.54914101117703,0,0,0,0,0,0,0,0
1.1611,391.69769991601362,4.4156429919223976,105.39050739821762,0,0,0,0,0,0,0,0
1.1611199999999999,391.58543182116847,4.4334371102433607,107.22771314845025,0,0,0,0,0,0,0,0
1.1611399999999998,391.47360495878962,4.5133978985549241,109.06068573215452,0,0,0,0,0,0,0,0
1.16116,391.36272704012305,4.655361680590115,110.88935278677758,0,0,0,0,0,0,0,0
1.1611799999999999,391.2541087438687,4.7287472285868564,112.71364211959249,0,0,0,0,0,0,0,0
1.1612,391.14736958194908,4.7334800312386065,114.53348171082968,0,0,0,0,0,0,0,0
1.1612199999999999,391.04098189973206,4.7998210380021797,116.34879971630519,0,0,0,0,0,0,0,0
1.16124,390.93548611823826,4.9275977632428374,118.15952447040537,0,0,0,0,0,0,0,0
1.16126,390.83225549771419,4.9863607730683697,119.9655844887846,0,0,0,0,0,0,0,0
1.1612799999999999,390.73053305241694,5.0411396489178752,121.76690847130223,0,0,0,0,0,0,0,0
1.1613,390.62999313546419,5.091791653447701,123.56342530478803,0,0,0,0,0,0,0,0
1.1613199999999999,390.53025141015348,5.2032629817993179,125.35506406580105,0,0,0,0,0,0,0,0
1.16134,390.43274267197739,5.2452291157979483,127.14175402354316,0,0,0,0,0,0,0,0
1.1613599999999999,390.33596827510775,5.3476883293739617,128.92342464252184,0,0,0,0,0,0,0,0
1.1613799999999999,390.2416080210121,5.3803781673751647,130.70000558544794,0,0,0,0,0,0,0,0
1.1614,390.14790976966054,5.4732223124430517,132.47142671596379,0,0,0,0,0,0,0,0
1.1614199999999999,390.056365933265,5.4960141319436282,134.23761810136432,0,0,0,0,0,0,0,0
1.16144,389.96539676529375,5.5786139646507538,135.9985100154698,0,0,0,0,0,0,0,0
1.1614599999999999,389.87561711733724,5.7208208676252754,137.7540329412507,0,0,0,0,0,0,0,0
1.1614799999999998,389.78882827028656,5.7925075398172376,139.50411757368377,0,0,0,0,0,0,0,0
1.1615,389.70407878752081,5.7935321770878723,141.24869482244017,0,0,0,0,0,0,0,0
1.1615199999999999,389.61969176326272,5.8536254474034237,142.98769581456574,0,0,0,0,0,0,0,0
1.16154,389.53631020928077,5.9725795417426859,144.72105189731039,0,0,0,0,0,0,0,0
1.1615599999999999,389.4553814222084,6.0852759437751525,146.44869464071257,0,0,0,0,0,0,0,0
1.1615800000000001,389.37717554269045,6.126629182363633,148.17055584042629,0,0,0,0,0,0,0,0
1.1616,389.30010005649234,6.1613595031583639,149.88656752028851,0,0,0,0,0,0,0,0
1.1616199999999999,389.22378479806247,6.254150635889518,151.596661935112,0,0,0,0,0,0,0,0
1.16164,389.1488966629646,6.4047783805661984,153.30077157332815,0,0,0,0,0,0,0,0
1.1616599999999999,389.07814990885129,6.4184909875632137,154.99882915952938,0,0,0,0,0,0,0,0
1.16168,389.0082443582221,6.424793596809887,156.69076765740192,0,0,0,0,0,0,0,0
1.1617,388.93878522829078,6.4883139745899259,158.37652027203427,0,0,0,0,0,0,0,0
1.1617199999999999,388.8704644020296,6.6088228264613615,160.05602045283035,0,0,0,0,0,0,0,0
1.16174,388.80486946906467,6.721288187311373,161.72920189601396,0,0,0,0,0,0,0,0
1.1617599999999999,388.74226312502668,6.7606994335330874,163.39599854721632,0,0,0,0,0,0,0,0
1.16178,388.68085196718687,6.7916357625333887,165.05634460418986,0,0,0,0,0,0,0,0
1.1617999999999999,388.62021131646759,6.8786521713886737,166.71017451928515,0,0,0,0,0,0,0,0
1.1618199999999999,388.56105296100401,7.0215037748514266,168.35742300214403,0,0,0,0,0,0,0,0
1.16184,388.50557273242333,7.0904484199619855,169.9980250222317,0,0,0,0,0,0,0,0
1.1618599999999999,388.45247920652025,7.0852663172427244,171.63191581135996,0,0,0,0,0,0,0,0
1.16188,388.3997008167787,7.1352074382836932,173.25903086634762,0,0,0,0,0,0,0,0
1.1618999999999999,388.34797066268504,7.2400245853869514,174.87930595144894,0,0,0,0,0,0,0,0
1.1619199999999998,388.29801818539363,7.3994577459969566,176.49267710099269,0,0,0,0,0,0,0,0
1.16194,388.25329308168034,7.3544317792827014,178.09908062186295,0,0,0,0,0,0,0,0
1.1619599999999999,388.20833114402689,7.3635272141755026,179.69845309597019,0,0,0,0,0,0,0,0
1.16198,388.1638850477982,7.4264967664446662,181.29073138285668,0,0,0,0,0,0,0,0
1.1619999999999999,388.12070364249166,7.5430795856443762,182.87585262207327,0,0,0,0,0,0,0,0
1.1620200000000001,388.07953176461632,7.7130013270253377,184.45375423577622,0,0,0,0,0,0,0,0
1.16204,388.04394882358633,7.6773135362661185,186.02437393108309,0,0,0,0,0,0,0,0
1.1620599999999999,388.00824088077491,7.6944302925154489,187.58764970263201,0,0,0,0,0,0,0,0
1.16208,387.97317405539184,7.7640925048448111,189.14351983498628,0,0,0,0,0,0,0,0
1.1620999999999999,387.93951030519383,7.8860268512679328,190.69192290502897,0,0,0,0,0,0,0,0
1.16212,387.90800722167813,8.0599458592099325,192.23279778448622,0,0,0,0,0,0,0,0
1.16214,387.88238940788142,8.0269973730720441,193.7660836422283,0,0,0,0,0,0,0,0
1.1621599999999999,387.85666810564862,8.0454610259123562,195.29171994676889,0,0,0,0,0,0,0,0
1.16218,387.83162017691899,8.1150675272591073,196.80964646861278,0,0,0,0,0,0,0,0
1.1621999999999999,387.80801799746177,8.2355327195576926,198.31980328259246,0,0,0,0,0,0,0,0
1.16222,387.78776944382486,8.3419386353111786,199.82213077034359,0,0,0,0,0,0,0,0
1.1622399999999999,387.77144023299314,8.3047349268494806,201.31656962248152,0,0,0,0,0,0,0,0
1.1622599999999998,387.75492120071397,8.3175011450100804,202.80306084117359,0,0,0,0,0,0,0,0
1.16228,387.73899753080519,8.3799598960453245,204.28154574230484,0,0,0,0,0,0,0,0
1.1622999999999999,387.72444961762307,8.4918183122638808,205.75196595776944,0,0,0,0,0,0,0,0
1.16232,387.71205282486022,8.6527681501832738,207.21426343793507,0,0,0,0,0,0,0,0
1.1623399999999999,387.70537010488232,8.6686659401699604,208.66838045377466,0,0,0,0,0,0,0,0
1.1623599999999998,387.69971894921264,8.6683975658168695,210.11425959925148,0,0,0,0,0,0,0,0
1.16238,387.69445597349898,8.7162826479800124,211.55184379354557,0,0,0,0,0,0,0,0
1.1623999999999999,387.6903664467348,8.8120223192408975,212.98107628326852,0,0,0,0,0,0,0,0
1.16242,387.68823032060311,8.9553017855700343,214.40190064479469,0,0,0,0,0,0,0,0
1.1624399999999999,387.69077412922076,9.0165834109710907,215.81426078638546,0,0,0,0,0,0,0,0
1.16246,387.69606633799572,8.9955190550075752,217.21810095050631,0,0,0,0,0,0,0,0
1.16248,387.70139059494744,9.0210082365165771,218.61336571592594,0,0,0,0,0,0,0,0
1.1624999999999999,387.7075342273742,9.0927494299903611,219.99999999999315,0,0,0,0,0,0,0,0
1.16252,387.71527900917096,9.2104246795638431,221.37794906077326,0,0,0,0,0,0,0,0
1.1625399999999999,387.72668972676661,9.3090925583204882,222.74715849917172,0,0,0,0,0,0,0,0
1.16256,387.74187532361589,9.3237776185862717,224.10757426116925,0,0,0,0,0,0,0,0
1.1625799999999999,387.75809901159789,9.3187452314355426,225.45914263985628,0,0,0,0,0,0,0,0
1.1625999999999999,387.77461643471923,9.3582990938961075,226.80181027763985,0,0,0,0,0,0,0,0
1.16262,387.79220823560354,9.4421221767245136,228.13552416831266,0,0,0,0,0,0,0,0
1.1626399999999999,387.81164904304262,9.5698807004895468,229.46023165910987,0,0,0,0,0,0,0,0
1.16266,387.83505296732801,9.6765996932781029,230.77588045287195,0,0,0,0,0,0,0,0
1.1626799999999999,387.8629070763219,9.6326293810215198,232.08241861001349,0,0,0,0,0,0,0,0
1.1626999999999998,387.89033737391253,9.6315090626227313,233.3797945506571,0,0,0,0,0,0,0,0
1.16272,387.91812018859002,9.6729274876941567,234.66795705663378,0,0,0,0,0,0,0,0
1.1627399999999999,387.94702574110039,9.7565562812713331,235.94685527347013,0,1,0,0,0,0,0,0
1.16276,387.97781783672048,9.8820500834812446,237.21643871247753,0,1,0,0,0,0,0,0
1.1627799999999999,388.01264782018927,9.9843930725182961,238.4766572526527,0,1,0,0,0,0,0,0
1.1628000000000001,388.05195885324787,9.9338563234307138,239.72746114275964,0,1,0,0,0,0,0,0
1.16282,388.09068492778448,9.9240540230518626,240.96880100315715,0,1,0,0,0,0,0,0
1.1628399999999999,388.12958851157538,9.9546689469680469,242.20062782788472,0,1,0,0,0,0,0,0
1.16286,388.16942566242773,10.025366592781918,243.42289298657283,0,1,0,0,0,0,0,0
1.1628799999999999,388.21094570745396,10.135795330634235,244.63554822623047,0,1,0,0,0,0,0,0
1.1629,388.25632341405594,10.220892763120824,245.83854567333819,0,1,0,0,0,0,0,0
1.16292,388.30448165630247,10.280245155131654,247.0318378355949,0,1,0,0,0,0,0,0
1.1629399999999999,388.355172394612,10.313462781067232,248.2153776038802,0,1,0,0,0,0,0,0
1.16296,388.4072714960808,10.320158295203647,249.38911825408113,0,1,0,0,0,0,0,0
1.1629799999999999,388.45984441865625,10.364696098096477,250.5530134489054,0,1,0,0,0,0,0,0
1.163,388.51362140759517,10.446724812131615,251.70701723978468,0,1,0,0,0,0,0,0
1.1630199999999999,388.5693254534973,10.565876076004486,252.85108406860434,0,1,0,0,0,0,0,0
1.1630399999999999,388.63002370514357,10.592250283483821,253.98516876957547,0,1,0,0,0,0,0,0
1.16306,388.6915746625362,10.654931911780888,255.10922657098604,0,1,0,0,0,0,0,0
1.1630799999999999,388.75620383310184,10.623997128665494,256.22321309693842,0,1,0,0,0,0,0,0
1.1631,388.82054228939796,10.628610756223702,257.32708436917216,0,1,0,0,0,0,0,0
1.1631199999999999,388.88529760451468,10.668429483124932,258.42079680871962,0,1,0,0,0,0,0,0
1.1631399999999998,388.95117004959121,10.743093105055703,259.50430723769637,0,1,0,0,0,0,0,0
1.16316,389.01885226056424,10.85222470433663,260.57757288097571,0,1,0,0,0,0,0,0
1.1631799999999999,389.09145019855362,10.865763614512128,261.64055136784827,0,1,0,0,0,0,0,0
1.1632,389.16463568933165,10.912932988711043,262.69320073376281,0,1,0,0,0,0,0,0
1.1632199999999999,389.23908747751676,10.99336343546169,263.73547942190572,0,1,0,0,0,0,0,0
1.1632400000000001,389.317026583038,10.976925259663963,264.76734628491789,0,1,0,0,0,0,0,0
1.16326,389.3949289839486,10.992943482806975,265.78876058644374,0,1,0,0,0,0,0,0
1.1632799999999999,389.47345972918572,11.041058851728426,266.79968200280496,0,1,0,0,0,0,0,0
1.1633,389.55327604648051,11.120895828805171,267.800070624564,0,1,0,0,0,0,0,0
1.1633199999999999,389.63661193793456,11.167140675989968,268.789886958073,0,1,0,0,0,0,0,0
1.16334,389.72210198566211,11.179339994416187,269.7690919270957,0,1,0,0,0,0,0,0
1.1633599999999999,389.80813237784031,11.222027863042818,270.73764687427905,0,1,0,0,0,0,0,0
1.1633799999999999,389.89533636667812,11.294825786975579,271.69551356274098,0,1,0,0,0,0,0,0
1.1634,389.98547260049821,11.332356066010483,272.64265417756178,0,1,0,0,0,0,0,0
1.1634199999999999,390.07711554606828,11.334176603439138,273.57903132720912,0,1,0,0,0,0,0,0
1.16344,390.16906617058402,11.36488731198836,274.50460804516723,0,1,0,0,0,0,0,0
1.1634599999999999,390.26193312236433,11.424110402246031,275.41934779121016,0,1,0,0,0,0,0,0
1.1634799999999998,390.35631664477398,11.511452808106654,276.32321445299584,0,1,0,0,0,0,0,0
1.1635,390.45539543374548,11.496386875500125,277.21617234742411,0,1,0,0,0,0,0,0
1.1635199999999999,390.55440472087889,11.508561045255483,278.09818622203022,0,1,0,0,0,0,0,0
1.16354,390.65392652805548,11.547602062559351,278.96922125643255,0,1,0,0,0,0,0,0
1.1635599999999999,390.75453446819256,11.61312188030605,279.82924306364362,0,1,0,0,0,0,0,0
1.1635799999999998,390.85679343256174,11.704717877708747,280.6782176914831,0,1,0,0,0,0,0,0
1.1636,390.96288350968138,11.691683745234885,281.51611162389378,0,1,0,0,0,0,0,0
1.1636199999999999,391.06892164683211,11.703849752857101,282.34289178224282,0,1,0,0,0,0,0,0
1.16364,391.17545351672356,11.740837244891331,283.15852552668019,0,1,0,0,0,0,0,0
1.1636599999999999,391.2830161719865,11.80225352767814,283.9629806573675,0,1,0,0,0,0,0,0
1.16368,391.39479335993144,11.757260439684009,284.75622541580816,0,1,0,0,0,0,0,0
1.1637,391.50483463719792,11.801051503752824,285.53822848604301,0,1,0,0,0,0,0,0
1.1637199999999999,391.61701664358901,11.802789009050077,286.30895899593708,0,1,0,0,0,0,0,0
1.1637255328705698,391.61701664358901,11.802789009050077,286.30895899593708,0,1,0,0,0,0,0,0
