"Time / s","Vo:Measured voltage","IL:Measured current","Vin:Measured voltage","open1:Output","open3:Output","open2:Output","open4:Output","short1:Output","short2:Output","short3:Output","short4:Output"
1.1150039943531183,400.49442638855328,-12.858096783716155,-311.12698372208092,0,0,0,0,0,0,0,0
1.1150199999999999,400.6455863685058,-12.879929004925332,-311.12084234178968,0,0,0,0,0,0,0,0
1.11504,400.79636616098492,-12.897438847811097,-311.10241844336684,0,0,0,0,0,0,0,0
1.1150599999999999,400.9474453797086,-12.91022947020136,-311.07171275415681,0,0,0,0,0,0,0,0
1.1150799999999998,401.09870822560549,-12.917885606614359,-311.02872648636736,0,0,0,0,0,0,0,0
1.1151,401.25002922986062,-12.919995187628885,-310.97346133702229,0,0,0,0,0,0,0,0
1.1151199999999999,401.40127333574139,-12.916149604552208,-310.90591948789597,0,0,0,0,0,0,0,0
1.11514,401.55229598656871,-12.905943971872453,-310.82610360542384,0,0,0,0,0,0,0,0
1.1151599999999999,401.70294321979407,-12.888977387336404,-310.73401684060167,0,0,0,0,0,0,0,0
1.1151800000000001,401.85383627090516,-12.864854249402857,-310.62966282885458,0,0,0,0,0,0,0,0
1.1152,402.00237764183822,-12.900143150650504,-310.5130456899052,0,0,0,0,0,0,0,0
1.1152199999999999,402.1532384084723,-12.860509554109754,-310.38417002759451,0,0,0,0,0,0,0,0
1.11524,402.3013765893856,-12.879527446068616,-310.24304092971147,0,0,0,0,0,0,0,0
1.1152599999999999,402.44980135501351,-12.889829426427895,-310.08966396779618,0,0,0,0,0,0,0,0
1.11528,402.59830443791776,-12.891003312708047,-309.92404519690456,0,0,0,0,0,0,0,0
1.1153,402.74666809986195,-12.88264263106938,-309.74619115538508,0,0,0,0,0,0,0,0
1.1153199999999999,402.89466527157253,-12.86434687327257,-309.55610886460931,0,0,0,0,0,0,0,0
1.11534,403.04205969840899,-12.835721749947789,-309.35380582869868,0,0,0,0,0,0,0,0
1.1153599999999999,403.18860609184009,-12.796379440021186,-309.13929003423448,0,0,0,0,0,0,0,0
1.11538,403.33405028663537,-12.745938836150996,-308.91256994992887,0,0,0,0,0,0,0,0
1.1153999999999999,403.47812940367055,-12.684025786027057,-308.67365452630679,0,0,0,0,0,0,0,0
1.1154199999999999,403.62057201825758,-12.610273329390921,-308.42255319533808,0,0,0,0,0,0,0,0
1.11544,403.76109833388625,-12.524321930635729,-308.15927587007087,0,0,0,0,0,0,0,0
1.1154599999999999,403.89738440788096,-12.560418026879143,-307.88383294424796,0,0,0,0,0,0,0,0
1.11548,404.03430252684757,-12.583666476926604,-307.5962352918794,0,0,0,0,0,0,0,0
1.1154999999999999,404.17155180074229,-12.593651134360037,-307.29649426683324,0,0,0,0,0,0,0,0
1.1155199999999998,404.30882196480502,-12.589964013880255,-306.98462170236945,0,0,0,0,0,0,0,0
1.11554,404.44579357391564,-12.572205541659386,-306.66062991067975,0,0,0,0,0,0,0,0
1.1155599999999999,404.58053096101685,-12.607396977758658,-306.32453168241136,0,0,0,0,0,0,0,0
1.11558,404.71585383636921,-12.627782292629655,-305.97634028614061,0,0,0,0,0,0,0,0
1.1155999999999999,404.85141856962946,-12.632949403704764,-305.6160694678739,0,0,0,0,0,0,0,0
1.1156200000000001,404.98764354308463,-12.622496896399912,-305.24373345047985,0,0,0,0,0,0,0,0
1.11564,405.12177716422087,-12.663512934262004,-304.85934693315363,0,0,0,0,0,0,0,0
1.1156599999999999,405.25745841799068,-12.620623768531718,-304.46292509081337,0,0,0,0,0,0,0,0
1.11568,405.39107137215314,-12.628472911494107,-304.05448357351088,0,0,0,0,0,0,0,0
1.1156999999999999,405.52461762154275,-12.619166964746993,-303.63403850582529,0,0,0,0,0,0,0,0
1.11572,405.65770289758905,-12.592314108317282,-303.20160648620038,0,0,0,0,0,0,0,0
1.11574,405.78992429726571,-12.54753308076817,-302.75720458631969,0,0,0,0,0,0,0,0
1.1157599999999999,405.92087052888525,-12.484453406872055,-302.30085035040537,0,0,0,0,0,0,0,0
1.11578,406.05012216289197,-12.402715619034726,-301.83256179453701,0,0,0,0,0,0,0,0
1.1157999999999999,406.17586619626229,-12.369651154111683,-301.35235740595334,0,0,0,0,0,0,0,0
1.11582,406.29997072085354,-12.384973653023893,-300.86025614228834,0,0,0,0,0,0,0,0
1.1158399999999999,406.42415137263083,-12.380631163265516,-300.35627743087497,0,0,0,0,0,0,0,0
1.1158599999999999,406.54796282122845,-12.356233417704788,-299.84044116792569,0,0,0,0,0,0,0,0
1.11588,406.67095128697645,-12.311401943109269,-299.31276771775413,0,0,0,0,0,0,0,0
1.1158999999999999,406.79107724897335,-12.313551264379738,-298.77327791202811,0,0,0,0,0,0,0,0
1.11592,406.91097123803684,-12.294580458418062,-298.22199304886692,0,0,0,0,0,0,0,0
1.1159399999999999,407.02933115911702,-12.321932477869039,-297.65893489206303,0,0,0,0,0,0,0,0
1.1159599999999998,407.14800985951575,-12.327433513741036,-297.08412567018354,0,0,0,0,0,0,0,0
1.11598,407.26651958233793,-12.310692384629121,-296.49758807570669,0,0,0,0,0,0,0,0
1.1159999999999999,407.3843642444761,-12.271330678530665,-295.89934526414322,0,0,0,0,0,0,0,0
1.11602,407.50103972455958,-12.208982966215556,-295.2894208530841,0,0,0,0,0,0,0,0
1.1160399999999999,407.61603415543698,-12.12329700748454,-294.66783892131167,0,0,0,0,0,0,0,0
1.1160600000000001,407.72748188656141,-12.081872721655538,-294.03462400780512,0,0,0,0,0,0,0,0
1.11608,407.83710890865046,-12.084429340149846,-293.38980111081645,0,0,0,0,0,0,0,0
1.1160999999999999,407.94648469241378,-12.062670503943949,-292.73339568684383,0,0,0,0,0,0,0,0
1.11612,408.05507482704695,-12.016225272388466,-292.0654336496433,0,0,0,0,0,0,0,0
1.1161399999999999,408.16233716288912,-11.944736529545684,-291.3859413692245,0,0,0,0,0,0,0,0
1.11616,408.26538207172274,-11.983917734277144,-290.69494567076691,0,0,0,0,0,0,0,0
1.1161799999999999,408.36895480029591,-11.997425747141829,-289.99247383361001,0,0,0,0,0,0,0,0
1.1161999999999999,408.47249871051361,-11.984875070146598,-289.27855359013284,0,0,0,0,0,0,0,0
1.11622,408.5754492354065,-11.945894442029569,-288.55321312467771,0,0,0,0,0,0,0,0
1.1162399999999999,408.67723419051987,-11.880127035894661,-287.81648107245724,0,0,0,0,0,0,0,0
1.11626,408.77727408935607,-11.787230649372148,-287.06838651837802,0,0,0,0,0,0,0,0
1.1162799999999999,408.87309802814661,-11.803138104962033,-286.30895899594566,0,0,0,0,0,0,0,0
1.1162999999999998,408.96892833721273,-11.791305473252734,-285.53822848605171,0,0,0,0,0,0,0,0
1.11632,409.06417276713,-11.751366031820156,-284.75622541580987,0,0,0,0,0,0,0,0
1.1163399999999999,409.15823167368569,-11.682968021872494,-283.96298065737648,0,0,0,0,0,0,0,0
1.11636,409.25049833997161,-11.585774830353351,-283.15852552667462,0,0,0,0,0,0,0,0
1.1163799999999999,409.33808628973514,-11.595880624677864,-282.34289178225208,0,0,0,0,0,0,0,0
1.1164000000000001,409.42554509844615,-11.576598969647243,-281.51611162388809,0,0,0,0,0,0,0,0
1.11642,409.51225669008755,-11.527571979783268,-280.67821769148492,0,0,0,0,0,0,0,0
1.1164399999999999,409.59703411325501,-11.516708297247732,-279.82924306364549,0,0,0,0,0,0,0,0
1.11646,409.67996170655493,-11.543698615065434,-278.96922125642658,0,0,0,0,0,0,0,0
1.1164799999999999,409.76309652322652,-11.539953350103387,-278.0981862220321,0,0,0,0,0,0,0,0
1.1165,409.84580150474386,-11.505111773119715,-277.21617234741802,0,0,0,0,0,0,0,0
1.11652,409.92743256365941,-11.438828866245574,-276.32321445299777,0,0,0,0,0,0,0,0
1.1165399999999999,410.00733891170256,-11.340775491335142,-275.41934779121215,0,0,0,0,0,0,0,0
1.11656,410.0833988668698,-11.278969644264711,-274.50460804516092,0,0,0,0,0,0,0,0
1.1165799999999999,410.15706610730859,-11.253151791355043,-273.57903132721958,0,0,0,0,0,0,0,0
1.1166,410.22984957282387,-11.194669248280531,-272.64265417755536,0,0,0,0,0,0,0,0
1.1166199999999999,410.29931209593775,-11.239931380649438,-271.69551356275167,0,0,0,0,0,0,0,0
1.1166399999999999,410.36931947596293,-11.251904582585933,-270.73764687428985,0,0,0,0,0,0,0,0
1.11666,410.43920223192004,-11.230231104571805,-269.76909192709786,0,0,0,0,0,0,0,0
1.1166799999999999,410.508284143617,-11.174569307566282,-268.78988695808403,0,0,0,0,0,0,0,0
1.1167,410.57588257793651,-11.084593819890186,-267.80007062456616,0,0,0,0,0,0,0,0
1.1167199999999999,410.64130881805801,-10.95999568683143,-266.79968200281621,0,0,0,0,0,0,0,0
1.1167399999999998,410.70245170514403,-10.868917349182727,-265.78876058645511,0,0,0,0,0,0,0,0
1.11676,410.75949136355445,-10.879560196268837,-264.76734628492011,0,0,0,0,0,0,0,0
1.1167799999999999,410.81703894524878,-10.854756840884404,-263.73547942191738,0,0,0,0,0,0,0,0
1.1168,410.87254212573993,-10.8626249281866,-262.69320073376514,0,0,0,0,0,0,0,0
1.1168199999999999,410.92782546410785,-10.83439560884341,-261.64055136786016,0,0,0,0,0,0,0,0
1.1168400000000001,410.98218587520557,-10.769740414578285,-260.57757288097804,0,0,0,0,0,0,0,0
1.11686,411.03491433083877,-10.668347370686,-259.50430723770847,0,0,0,0,0,0,0,0
1.1168799999999999,411.08529618315168,-10.529921130950227,-258.42079680873178,0,0,0,0,0,0,0,0
1.1169,411.12938379010683,-10.559708053867855,-257.32708436917454,0,0,0,0,0,0,0,0
1.1169199999999999,411.1736635168017,-10.55194529164285,-256.22321309695087,0,0,0,0,0,0,0,0
1.11694,411.21691797497715,-10.57482652576892,-255.10922657097834,0,0,0,0,0,0,0,0
1.11696,411.26022542115072,-10.559510625695372,-253.98516876958814,0,0,0,0,0,0,0,0
1.1169799999999999,411.3028652419917,-10.505673820235305,-252.85108406861713,0,0,0,0,0,0,0,0
1.117,411.3441111699093,-10.413008815609723,-251.7070172397768,0,0,0,0,0,0,0,0
1.1170199999999999,411.38323159589413,-10.281224920143581,-250.55301344890793,0,0,0,0,0,0,0,0
1.11704,411.41815132746723,-10.178603211626816,-249.38911825407311,0,0,0,0,0,0,0,0
1.1170599999999999,411.44985556238913,-10.173471525630534,-248.21537760388279,0,0,0,0,0,0,0,0
1.1170799999999999,411.47974063859243,-10.196984361781249,-247.03183783559749,0,0,0,0,0,0,0,0
1.1171,411.50967433661634,-10.180283251485866,-245.83854567332997,0,0,0,0,0,0,0,0
1.1171199999999999,411.53892272850453,-10.12305563903276,-244.63554822623308,0,0,0,0,0,0,0,0
1.11714,411.56674663102626,-10.025005317602838,-243.42289298656448,0,0,0,0,0,0,0,0
1.1171599999999999,411.59240190589117,-9.8858525419292338,-242.2006278278985,0,0,0,0,0,0,0,0
1.1171799999999998,411.6127991387923,-9.8425124217475268,-240.96880100315985,0,0,0,0,0,0,0,0
1.1172,411.63220651010727,-9.8261679949020238,-239.72746114275108,0,0,0,0,0,0,0,0
1.1172199999999999,411.64963961712192,-9.8365137244688512,-238.4766572526668,0,0,0,0,0,0,0,0
1.11724,411.66687499496703,-9.8046740287854153,-237.21643871248028,0,0,0,0,0,0,0,0
1.1172599999999999,411.68316877328363,-9.7303528461047115,-235.94685527348443,0,0,0,0,0,0,0,0
1.1172800000000001,411.69777230261849,-9.6132702476956737,-234.66795705663657,0,0,0,0,0,0,0,0
1.1173,411.70993244061435,-9.4531625375003543,-233.37979455067162,0,0,0,0,0,0,0,0
1.1173199999999999,411.71557474694936,-9.5242147733305771,-232.0824186100281,0,0,0,0,0,0,0,0
1.11734,411.72204872331463,-9.5517467351427339,-230.77588045287482,0,0,0,0,0,0,0,0
1.1173599999999999,411.72861302397388,-9.5354516664358488,-229.46023165912467,0,0,0,0,0,0,0,0
1.11738,411.73452151213712,-9.4750384634706286,-228.13552416831556,0,0,0,0,0,0,0,0
1.1173999999999999,411.73902352818249,-9.3702317718536108,-226.80181027765488,0,0,0,0,0,0,0,0
1.1174199999999999,411.74136415936016,-9.2207720780178537,-225.45914263987143,0,0,0,0,0,0,0,0
1.11744,411.73982810502707,-9.0950281896195921,-224.10757426117223,0,0,0,0,0,0,0,0
1.1174599999999999,411.7335568712254,-9.1299916922997042,-222.74715849918709,0,0,0,0,0,0,0,0
1.11748,411.72748593150368,-9.1195692729664959,-221.37794906077625,0,0,0,0,0,0,0,0
1.1174999999999999,411.72087032261283,-9.0634787822479428,-220.0000000000087,0,0,0,0,0,0,0,0
1.1175199999999998,411.71296087247094,-8.961453368018395,-218.61336571594154,0,0,0,0,0,0,0,0
1.11754,411.70300445271346,-8.8132415579993459,-217.21810095050935,0,0,0,0,0,0,0,0
1.1175599999999999,411.68897191908746,-8.7558178845772776,-215.81426078640126,0,0,0,0,0,0,0,0
1.11758,411.67184140850418,-8.7889305950325305,-214.401900644785,0,0,0,0,0,0,0,0
1.1175999999999999,411.65486627736129,-8.7751162724582219,-212.98107628327165,0,0,0,0,0,0,0,0
1.1176200000000001,411.63730498417868,-8.7141049673443067,-211.55184379353574,0,0,0,0,0,0,0,0
1.11764,411.61841213202888,-8.6056415345915127,-210.11425959925464,0,0,0,0,0,0,0,0
1.1176599999999999,411.59743870382027,-8.4494857069543858,-208.66838045377781,0,0,0,0,0,0,0,0
1.11768,411.57129308423117,-8.4511681336636251,-207.21426343792507,0,0,0,0,0,0,0,0
1.1176999999999999,411.54419233953661,-8.4732712324089867,-205.75196595777263,0,0,0,0,0,0,0,0
1.11772,411.51706645535774,-8.4469466545207084,-204.2815457422947,0,0,0,0,0,0,0,0
1.11774,411.48917985638315,-8.3719392447226646,-202.80306084119022,0,0,0,0,0,0,0,0
1.1177599999999999,411.45979348877876,-8.2480081182578306,-201.31656962249829,0,0,0,0,0,0,0,0
1.11778,411.42732295274487,-8.1434885541722206,-199.8221307703333,0,0,0,0,0,0,0,0
1.1177999999999999,411.39149706051495,-8.1267063522892204,-198.31980328260937,0,0,0,0,0,0,0,0
1.11782,411.35446961646403,-8.128857158240292,-196.80964646861611,0,0,0,0,0,0,0,0
1.1178399999999999,411.31712111487997,-8.0811376212999573,-195.291719946786,0,0,0,0,0,0,0,0
1.1178599999999999,411.27872465762084,-7.9833093614567581,-193.76608364224546,0,0,0,0,0,0,0,0
1.11788,411.23855025484357,-7.8351476967886393,-192.23279778448958,0,0,0,0,0,0,0,0
1.1178999999999999,411.19402202314575,-7.773486470414487,-190.69192290504631,0,0,0,0,0,0,0,0
1.11792,411.14737585376139,-7.7980937580557192,-189.14351983498969,0,0,0,0,0,0,0,0
1.1179399999999999,411.10073073512876,-7.7716773634340166,-187.58764970264951,0,0,0,0,0,0,0,0
1.1179599999999998,411.05337390164601,-7.694004056916194,-186.02437393110071,0,0,0,0,0,0,0,0
1.11798,411.00458969819482,-7.5648536534534925,-184.45375423577966,0,0,0,0,0,0,0,0
1.1179999999999999,410.9536597633932,-7.3840190628356623,-182.87585262209103,0,0,0,0,0,0,0,0
1.11802,36.380711151855159,-13.452233595600809,-181.29073138286017,0,0,0,0,0,0,0,1
1.1180399999999999,1.7555855028188825,-19.472086787982334,-179.69845309598813,0,0,0,0,0,0,0,1
1.1180600000000001,0.083212500793824237,-25.435496953531533,-178.09908062186642,0,0,0,0,0,0,0,1
1.11808,0.0039270410508226074,-31.345377991585302,-176.4926771010108,0,0,0,0,0,0,0,1
1.1180999999999999,0.0002176070915439758,-37.201595828204226,-174.87930595146707,0,0,0,0,0,0,0,1
1.11812,4.9292593451079682e-05,-43.003919193161884,-173.25903086633645,0,0,0,0,0,0,0,1
1.1181399999999999,4.8751929499101522e-05,-48.75211890361124,-171.63191581137826,0,0,0,0,0,0,0,1
1.11816,5.4445780583893074e-05,-54.445968262290059,-169.99802502222045,0,0,0,0,0,0,0,1
1.11818,6.0085056428169251e-05,-60.085242372389018,-168.35742300214764,0,0,0,0,0,0,0,1
1.1181999999999999,6.5669534404723393e-05,-65.669718606769948,-166.71017451928876,0,0,0,0,0,0,0,1
1.11822,7.1198994049674583e-05,-71.199176501620627,-165.05634460417849,0,0,0,0,0,0,0,1
1.1182399999999999,7.6673217071171384e-05,-76.673397765158811,-163.39599854721996,0,0,0,0,0,0,0,1
1.11826,8.2091987358009978e-05,-82.092166286249991,-161.72920189600251,0,0,0,0,0,0,0,1
1.1182799999999999,8.7455090988165416e-05,-87.455268142939005,-160.05602045283402,0,0,0,0,0,0,0,1
1.1182999999999998,9.2762316237236976e-05,-92.762491610895097,-158.37652027203796,0,0,0,0,0,0,0,1
1.11832,9.8013453586806974e-05,-98.013627171770892,-156.69076765739032,0,0,0,0,0,0,0,1
1.1183399999999999,0.0001032082957327111,-103.20846752147271,-154.99882915954842,0,0,0,0,0,0,0,1
1.11836,0.00010834663759322424,-108.3468075783464,-153.30077157331647,0,0,0,0,0,0,0,1
1.1183799999999999,0.00011342827631715581,-113.4284444912725,-151.59666193513115,0,0,0,0,0,0,0,1
1.1183999999999998,0.00011845301129185768,-118.45317764767442,-149.88656752030775,0,0,0,0,0,0,0,1
1.11842,0.00012342064415114384,-123.42080868143789,-148.17055584043007,0,0,0,0,0,0,0,1
1.1184399999999999,0.00012833097878312284,-128.33114148074361,-146.44869464073196,0,0,0,0,0,0,0,1
1.11846,0.00013318382133793854,-133.18398219580777,-144.72105189731414,0,0,0,0,0,0,0,1
1.1184799999999999,0.00013797898023542403,-137.97913924653596,-142.98769581458524,0,0,0,0,0,0,0,1
1.1185,0.00014271626617266383,-142.71642333008575,-141.24869482244398,0,0,0,0,0,0,0,1
1.11852,0.00014739549213146897,-147.39564742834133,-139.50411757370341,0,0,0,0,0,0,0,1
1.1185399999999999,0.00015201647338575742,-152.0166268152941,-137.75403294127037,0,0,0,0,0,0,0,1
1.11856,0.00015657902750884953,-156.57917906433809,-135.99851001547364,0,0,0,0,0,0,0,1
1.1185799999999999,0.00016108297438066865,-161.08312405547073,-134.23761810138413,0,0,0,0,0,0,0,1
1.1186,0.00016552813619485131,-165.52828398240274,-132.47142671596768,0,0,0,0,0,0,0,1
1.1186199999999999,0.00016991433746576804,-169.91448335957909,-130.70000558546784,0,0,0,0,0,0,0,1
1.1186399999999999,0.00017424140503545055,-174.24154902910638,-128.92342464254182,0,0,0,0,0,0,0,1
1.11866,0.00017850916808042789,-178.50931016758858,-127.14175402354705,0,0,0,0,0,0,0,1
1.1186799999999999,0.00018271745811847061,-182.71759829287154,-125.35506406582113,0,0,0,0,0,0,0,1
1.1187,0.0001868661090152409,-186.86624727069295,-123.56342530477572,0,0,0,0,0,0,0,1
1.1187199999999999,0.000190954956990852,-190.95509332124186,-121.76690847132244,0,0,0,0,0,0,0,1
1.1187399999999998,0.00019498384062633531,-194.98397502562554,-119.96558448880485,0,0,0,0,0,0,0,1
1.11876,0.00019895260087001072,-198.95273333224031,-118.15952447039295,0,0,0,0,0,0,0,1
1.1187799999999999,0.00020286108104376689,-202.86121156305117,-116.34879971630914,0,0,0,0,0,0,0,1
1.1188,0.00020670912684924689,-206.70925541977792,-114.53348171081718,0,0,0,0,0,0,0,1
1.1188199999999999,0.00021049658637393811,-210.49671298998481,-112.71364211959646,0,0,0,0,0,0,0,1
1.1188400000000001,0.00021422331009717161,-214.22343475308017,-110.88935278676504,0,0,0,0,0,0,0,1
1.11886,0.00021788915089602322,-217.88927358621717,-109.06068573217507,0,0,0,0,0,0,0,1
1.1188799999999999,0.00022149396405112245,-221.49408477010294,-107.22771314845426,0,0,0,0,0,0,0,1
1.1189,0.00022503760725236683,-225.03772599471284,-105.390507398205,0,0,0,0,0,0,0,1
1.1189199999999999,0.00022851994060453767,-228.52005736490614,-103.54914101119773,0,0,0,0,0,0,0,1
1.11894,0.00023194082663282377,-231.94094140595001,-101.7036866813912,0,0,0,0,0,0,0,1
1.11896,0.00023530013028825048,-235.30024306894813,-99.854217264195796,0,0,0,0,0,0,0,1
1.1189799999999999,0.00023859771895300843,-238.59782973616981,-98.000805773480636,0,0,0,0,0,0,0,1
1.119,0.00024183346244569136,-241.83357122628772,-96.143525378741003,0,0,0,0,0,0,0,1
1.119003994353118,0.00024183346244569136,-241.83357122628772,-96.143525378741003,0,0,0,0,0,0,0,1
