"Time / s","Vo:Measured voltage","IL:Measured current","Vin:Measured voltage","open1:Output","open3:Output","open2:Output","open4:Output","short1:Output","short2:Output","short3:Output","short4:Output"
1.1904728186404705,395.90527220838771,-1.8296585991119403,-44.805640398924879,0,0,0,0,0,0,0,0
1.19048,395.76147557039911,-1.969432648448399,-46.739234421009705,0,0,0,0,0,0,0,0
1.1904999999999999,395.61875134613246,-1.9762708883531743,-48.670983258132502,0,0,0,0,0,0,0,0
1.19052,395.47622407789771,-2.0480280046063726,-50.600810648191796,0,0,0,0,0,0,0,0
1.1905399999999999,395.33412956029713,-2.1846183890301218,-52.528640404871716,0,0,0,0,0,0,0,0
1.1905599999999998,395.19325223692169,-2.2542265076059325,-54.454396420771907,0,0,0,0,0,0,0,0
1.19058,395.05305904246404,-2.3227299855538623,-56.378002670359685,0,0,0,0,0,0,0,0
1.1905999999999999,394.91342280473447,-2.3900974744471482,-58.299383212919231,0,0,0,0,0,0,0,0
1.19062,394.77426230417859,-2.522094898292774,-60.218462195671449,0,0,0,0,0,0,0,0
1.1906399999999999,394.63647614544942,-2.5870829048596451,-62.135163856629333,0,0,0,0,0,0,0,0
1.1906600000000001,394.49918825274312,-2.7165806037533304,-64.049412527745247,0,0,0,0,0,0,0,0
1.19068,394.36308422322651,-2.7790302459463283,-65.961132637690085,0,0,0,0,0,0,0,0
1.1906999999999999,394.22815211377724,-2.7744554343521513,-67.870248715044696,0,0,0,0,0,0,0,0
1.19072,394.09341730923165,-2.834230011535821,-69.7766853912443,0,0,0,0,0,0,0,0
1.1907399999999999,393.95921088073464,-2.9582435647785261,-71.680367403346963,0,0,0,0,0,0,0,0
1.19076,393.82616593380681,-3.0807458685036533,-73.581219597298215,0,0,0,0,0,0,0,0
1.1907799999999999,393.69484955452589,-3.0704519998092281,-75.479166930673799,0,0,0,0,0,0,0,0
1.1907999999999999,393.56371191578688,-3.124199078655836,-77.374134475780025,0,0,0,0,0,0,0,0
1.19082,393.43312125093013,-3.2418669580259887,-79.266047422560007,0,0,0,0,0,0,0,0
1.1908399999999999,393.30377417813116,-3.3577826649134459,-81.154831081495857,0,0,0,0,0,0,0,0
1.19086,393.1762693221097,-3.3408223046584822,-83.040410886677009,0,0,0,0,0,0,0,0
1.1908799999999999,393.04891127591543,-3.3875485712482227,-84.922712398607274,0,0,0,0,0,0,0,0
1.1908999999999998,392.92210476918348,-3.4978317506228631,-86.801661307263018,0,0,0,0,0,0,0,0
1.19092,392.79625353605502,-3.671536859127241,-88.677183434975589,0,0,0,0,0,0,0,0
1.1909399999999999,392.67300879500579,-3.7121989758963037,-90.549204739308877,0,0,0,0,0,0,0,0
1.19096,392.55044668885915,-3.7506816513797352,-92.417651316101029,0,0,0,0,0,0,0,0
1.1909799999999999,392.42842287123113,-3.8523052189748932,-94.282449402246669,0,0,0,0,0,0,0,0
1.1909999999999998,392.30794995935253,-3.9515463774843491,-96.143525378727389,0,0,0,0,0,0,0,0
1.19102,392.1888023250454,-4.0483052668456851,-98.00080577346705,0,0,0,0,0,0,0,0
1.1910399999999999,392.07120070818667,-4.0771404960143283,-99.854217264182225,0,0,0,0,0,0,0,0
1.19106,391.95410301387426,-4.1686538750937068,-101.70368668139437,0,0,0,0,0,0,0,0
1.1910799999999999,391.83859793157825,-4.2573911780299758,-103.54914101118422,0,0,0,0,0,0,0,0
1.1911,391.72443325796468,-4.343239730345049,-105.39050739820816,0,0,0,0,0,0,0,0
1.19112,391.61184190190221,-4.3608228573523604,-107.22771314844081,0,0,0,0,0,0,0,0
1.1911399999999999,391.49969479834755,-4.4405757539981634,-109.06068573216166,0,0,0,0,0,0,0,0
1.19116,391.38914844176651,-4.5171102154012051,-110.88935278676817,0,0,0,0,0,0,0,0
1.1911799999999999,391.27992282611729,-4.5903011178501529,-112.71364211958311,0,0,0,0,0,0,0,0
1.1912,391.17162804096517,-4.7252183356941648,-114.53348171082031,0,0,0,0,0,0,0,0
1.1912199999999999,391.06546106061001,-4.7913378243068196,-116.34879971629586,0,0,0,0,0,0,0,0
1.1912399999999999,390.96088262041798,-4.8537384780348711,-118.15952447037971,0,0,0,0,0,0,0,0
1.19126,390.85758344669847,-4.9122826963009949,-119.96558448879162,0,0,0,0,0,0,0,0
1.1912799999999999,390.75513984748409,-5.031958668628624,-121.76690847129298,0,0,0,0,0,0,0,0
1.1913,390.65482529219668,-5.082370951252007,-123.56342530479502,0,0,0,0,0,0,0,0
1.1913199999999999,390.55604085743096,-5.1285156897715192,-125.35506406580802,0,0,0,0,0,0,0,0
1.1913399999999998,390.45844649177246,-5.1702434900069809,-127.14175402353398,0,0,0,0,0,0,0,0
1.19136,390.36159317419128,-5.2724655295502556,-128.92342464252877,0,0,0,0,0,0,0,0
1.1913799999999999,390.26660663713392,-5.3699496209079935,-130.70000558545485,0,0,0,0,0,0,0,0
1.1914,390.17313816856057,-5.4625352405973659,-132.47142671597069,0,0,0,0,0,0,0,0
1.1914199999999999,390.08215944183047,-5.4850614925800292,-134.23761810137123,0,0,0,0,0,0,0,0
1.1914400000000001,389.99176127422623,-5.5673896168289225,-135.99851001547665,0,0,0,0,0,0,0,0
1.19146,389.90255842448255,-5.7093186048183018,-137.75403294125752,0,0,0,0,0,0,0,0
1.1914799999999999,389.81680444663999,-5.7157485143207403,-139.50411757369059,0,0,0,0,0,0,0,0
1.1915,389.73192730488506,-5.7164777210125202,-141.24869482244696,0,0,0,0,0,0,0,0
1.1915199999999999,389.64741821652979,-5.7762773691723455,-142.9876958145725,0,0,0,0,0,0,0,0
1.19154,389.56392018213938,-5.8949395815417978,-144.72105189731712,0,0,0,0,0,0,0,0
1.19156,389.4826843930187,-6.0073391648767931,-146.44869464071931,0,0,0,0,0,0,0,0
1.1915799999999999,389.40415240723632,-6.0483920811949883,-148.17055584041745,0,0,0,0,0,0,0,0
1.1916,389.32692977833506,-6.0828232026784557,-149.88656752029519,0,0,0,0,0,0,0,0
1.1916199999999999,389.2504726111838,-6.1753172834411831,-151.59666193511865,0,0,0,0,0,0,0,0
1.19164,389.17544779353256,-6.3256500559346671,-153.30077157331939,0,0,0,0,0,0,0,0
1.1916599999999999,389.10433958033991,-6.3390561289861651,-154.998829159536,0,0,0,0,0,0,0,0
1.1916799999999999,389.03425962160514,-6.345054078624047,-156.69076765737796,0,0,0,0,0,0,0,0
1.1917,388.96463095854324,-6.4082724133949576,-158.3765202720256,0,0,0,0,0,0,0,0
1.1917199999999999,388.89614547205986,-6.5284817723971571,-160.05602045282174,0,0,0,0,0,0,0,0
1.19174,388.82949193226483,-6.7054414229983079,-161.72920189600538,0,0,0,0,0,0,0,0
1.1917599999999999,388.76782149606811,-6.6797508700490633,-163.39599854720777,0,0,0,0,0,0,0,0
1.1917799999999998,388.70621092481844,-6.7103763128771501,-165.05634460416633,0,0,0,0,0,0,0,0
1.1918,388.64537532156294,-6.7970849250151906,-166.71017451927665,0,0,0,0,0,0,0,0
1.1918199999999999,388.58602647845345,-6.9396317570950599,-168.35742300213556,0,0,0,0,0,0,0,0
1.19184,388.53057888141535,-7.0082684296798012,-169.9980250222381,0,0,0,0,0,0,0,0
1.1918599999999999,388.47725376188106,-7.0027686631907748,-171.63191581135155,0,0,0,0,0,0,0,0
1.1918800000000001,388.42424784066276,-7.0523958216049127,-173.25903086635392,0,0,0,0,0,0,0,0
1.1919,388.37229423012667,-7.1569026457285245,-174.87930595145522,0,0,0,0,0,0,0,0
1.1919199999999999,388.32212238315554,-7.31602906133599,-176.49267710099897,0,0,0,0,0,0,0,0
1.19194,388.27657870786368,-7.3353905684573677,-178.09908062186921,0,0,0,0,0,0,0,0
1.1919599999999999,388.23225651552013,-7.3441620009394697,-179.69845309597642,0,0,0,0,0,0,0,0
1.19198,388.18845334701649,-7.4067980551839483,-181.2907313828629,0,0,0,0,0,0,0,0
1.1919999999999999,388.14591788185743,-7.5230378337314603,-182.87585262207941,0,0,0,0,0,0,0,0
1.1920199999999999,388.10539478567233,-7.6926069474354666,-184.45375423576812,0,0,0,0,0,0,0,0
1.19204,388.07045075453192,-7.6565404878715437,-186.0243739310892,0,0,0,0,0,0,0,0
1.1920599999999999,388.03538375876701,-7.6732686860780044,-187.58764970263809,0,0,0,0,0,0,0,0
1.19208,388.00095973539385,-7.7425324203821599,-189.14351983499233,0,0,0,0,0,0,0,0
1.1920999999999999,387.96794045930801,-7.8640583409737665,-190.69192290503497,0,0,0,0,0,0,0,0
1.1921199999999998,387.93817252261692,-7.9729145481760053,-192.23279778447829,0,0,0,0,0,0,0,0
1.19214,387.91220844176064,-7.9395198764637644,-193.76608364223424,0,0,0,0,0,0,0,0
1.1921599999999999,387.88614195681754,-7.9575434647189267,-195.29171994677483,0,0,0,0,0,0,0,0
1.19218,387.86074998296738,-8.0267160015144263,-196.80964646861869,0,0,0,0,0,0,0,0
1.1921999999999999,387.83680494857106,-8.146753307456537,-198.31980328259831,0,0,0,0,0,0,0,0
1.1922199999999998,387.81507457231481,-8.3173564244800513,-199.8221307703223,0,0,0,0,0,0,0,0
1.19224,387.79936919128937,-8.2797195521253713,-201.31656962248732,0,0,0,0,0,0,0,0
1.1922599999999999,387.78347431240883,-8.2920421456510454,-202.80306084117936,0,0,0,0,0,0,0,0
1.19228,387.7681749141164,-8.3540468076381273,-204.28154574229723,0,0,0,0,0,0,0,0
1.1922999999999999,387.75425118514482,-8.4654406702809073,-205.75196595776188,0,0,0,0,0,0,0,0
1.19232,387.74247828337343,-8.625915493542772,-207.21426343792757,0,0,0,0,0,0,0,0
1.19234,387.7367784631881,-8.5766994078156955,-208.66838045376718,0,0,0,0,0,0,0,0
1.1923599999999999,387.73067562918595,-8.5759280971419418,-210.11425959924406,0,0,0,0,0,0,0,0
1.19238,387.72496020550636,-8.6233187393129622,-211.55184379353821,0,0,0,0,0,0,0,0
1.1923999999999999,387.72041755836614,-8.718572476968804,-212.98107628326122,0,0,0,0,0,0,0,0
1.19242,387.71782773649716,-8.8613745243832209,-214.40190064480024,0,0,0,0,0,0,0,0
1.1924399999999999,387.72013312932626,-8.9221788445303325,-215.81426078639095,0,0,0,0,0,0,0,0
1.1924599999999999,387.72491291653944,-8.9006316005898203,-217.21810095048642,0,0,0,0,0,0,0,0
1.19248,387.72972384041134,-8.9256478181470662,-218.61336571593134,0,0,0,0,0,0,0,0
1.1924999999999999,387.73535335350829,-8.9969259843749594,-219.99999999999858,0,0,0,0,0,0,0,0
1.19252,387.7425833548624,-9.1141481537450133,-221.3779490607786,0,0,0,0,0,0,0,0
1.1925399999999999,387.75218991428579,-9.2769800680645069,-222.74715849917709,0,0,0,0,0,0,0,0
1.1925599999999998,387.76833139688301,-9.2266064538941759,-224.10757426116228,0,0,0,0,0,0,0,0
1.19258,387.78397935893759,-9.221130702123169,-225.45914263986154,0,0,0,0,0,0,0,0
1.1925999999999999,387.79992032052661,-9.2602526735686137,-226.80181027764507,0,0,0,0,0,0,0,0
1.19262,387.81693508106264,-9.3436553482829687,-228.13552416831786,0,0,0,0,0,0,0,0
1.1926399999999999,387.83579842593713,-9.4710049530954272,-229.46023165911501,0,0,0,0,0,0,0,0
1.1926600000000001,387.85727883556621,-9.6419510948529332,-230.77588045287706,0,0,0,0,0,0,0,0
1.19268,387.88566990081574,-9.5975864743844816,-232.08241861001855,0,0,0,0,0,0,0,0
1.1926999999999999,387.91363619587668,-9.5960614399575341,-233.37979455066215,0,0,0,0,0,0,0,0
1.19272,387.94195381408559,-9.6370647622105281,-234.66795705663878,0,0,0,0,0,0,0,0
1.1927399999999999,387.97139274129142,-9.7202680918976689,-235.94685527347511,0,0,0,0,0,0,0,0
1.19276,388.00271654821773,-9.8453260995508973,-237.21643871248247,0,0,0,0,0,0,0,0
1.19278,388.03776995806084,-9.9472163903424935,-238.47665725265762,0,0,0,0,0,0,0,0
1.1927999999999999,388.07758571144603,-9.8962130087790356,-239.72746114274196,0,0,0,0,0,0,0,0
1.19282,388.11681367866811,-9.8859339936751915,-240.96880100315079,0,0,0,0,0,0,0,0
1.1928399999999999,388.15621609172882,-9.9160621807939471,-242.20062782788949,0,0,0,0,0,0,0,0
1.19286,388.19654877368146,-9.986263132764515,-243.42289298656655,0,0,0,0,0,0,0,0
1.1928799999999999,388.23856081799659,-10.096185289581248,-244.63554822622424,0,0,0,0,0,0,0,0
1.1928999999999998,388.28299427093737,-10.245460125742616,-245.83854567332116,0,0,0,0,0,0,0,0
1.19292,388.33359124487981,-10.23957732139408,-247.03183783558879,0,0,0,0,0,0,0,0
1.1929399999999999,388.38515257196838,-10.2075160459864,-248.21537760387412,0,0,0,0,0,0,0,0
1.19296,388.43644565163549,-10.213648746754801,-249.38911825407513,0,0,0,0,0,0,0,0
1.1929799999999999,388.48820794714482,-10.257641293283569,-250.55301344889943,0,0,0,0,0,0,0,0
1.1929999999999998,388.54116999690251,-10.339142398908283,-251.70701723976836,0,0,0,0,0,0,0,0
1.19302,388.59605508601936,-10.457783786990497,-252.85108406860877,0,0,0,0,0,0,0,0
1.1930399999999999,388.65474304952858,-10.54841830062297,-253.98516876956961,0,0,0,0,0,0,0,0
1.19306,388.71606771412263,-10.610620157699017,-255.10922657099039,0,0,0,0,0,0,0,0
1.1930799999999999,388.78109590273806,-10.579204224130631,-256.22321309694274,0,0,0,0,0,0,0,0
1.1931,388.84582904980238,-10.583328259025137,-257.32708436917642,0,0,0,0,0,0,0,0
1.19312,388.91097451092361,-10.622649047469695,-258.42079680872382,0,0,0,0,0,0,0,0
1.1931399999999999,388.97723234159417,-10.696806486318126,-259.50430723770057,0,0,0,0,0,0,0,0
1.19316,389.0452949640416,-10.805423763765742,-260.57757288097991,0,0,0,0,0,0,0,0
1.1931799999999999,389.11759434625532,-10.818430119604646,-261.64055136785242,0,0,0,0,0,0,0,0
1.1932,389.1904732550218,-10.865073948996171,-262.69320073376696,0,0,0,0,0,0,0,0
1.1932199999999999,389.26461055575049,-10.944986035712017,-263.73547942190976,0,0,0,0,0,0,0,0
1.1932399999999999,389.34287968823503,-10.928029591602877,-264.76734628491261,0,0,0,0,0,0,0,0
1.19326,389.42110635366271,-10.94352240298111,-265.78876058644767,0,0,0,0,0,0,0,0
1.1932799999999999,389.49995540437976,-10.991105348089729,-266.79968200280888,0,0,0,0,0,0,0,0
1.1933,389.58008387414753,-11.070403025119512,-267.80007062456787,0,0,0,0,0,0,0,0
1.1933199999999999,389.66337870536751,-11.116094731563404,-268.78988695807681,0,0,0,0,0,0,0,0
1.1933399999999998,389.74847238358177,-11.127739101433345,-269.7690919270907,0,0,0,0,0,0,0,0
1.19336,389.83409744187492,-11.169881476102036,-270.7376468742828,0,0,0,0,0,0,0,0
1.1933799999999999,389.92088730850372,-11.24214356191183,-271.69551356274468,0,0,0,0,0,0,0,0
1.1934,390.01093663079905,-11.279146026579928,-272.64265417755695,0,0,0,0,0,0,0,0
1.1934199999999999,390.10282137032004,-11.280435325464467,-273.57903132721276,0,0,0,0,0,0,0,0
1.1934400000000001,390.19500700485918,-11.310609481363439,-274.50460804516251,0,0,0,0,0,0,0,0
1.19346,390.28810201958817,-11.369290863330539,-275.41934779120544,0,0,0,0,0,0,0,0
1.1934799999999999,288.38981960965242,-10.465545197507984,-276.32321445299118,0,0,0,0,0,1,0,0
1.1935,263.53986090300117,-10.639350278884999,-277.21617234741956,0,0,0,0,0,1,0,0
1.1935199999999999,255.90321278543357,-11.237131143986119,-278.09818622202567,0,0,0,0,0,1,0,0
1.19354,248.5193487481697,-12.114497376781411,-278.9692212564359,0,0,0,0,0,1,0,0
1.19356,241.38884245578973,-13.262645329438016,-279.82924306363924,0,0,0,0,0,1,0,0
1.1935799999999999,234.51198727227697,-14.672755780557672,-280.67821769147878,0,0,0,0,0,1,0,0
1.1936,227.88880440416435,-16.336003158265459,-281.51611162389707,0,0,0,0,0,1,0,0
1.1936199999999999,221.51905106879803,-18.243564491441099,-282.34289178224606,0,0,0,0,0,1,0,0
1.19364,215.40222867884208,-20.386628088403363,-283.15852552668338,0,0,0,0,0,1,0,0
1.1936599999999999,209.53759103438256,-22.756401942650101,-283.96298065737062,0,0,0,0,0,1,0,0
1.1936799999999999,203.92415251426937,-25.344121865540227,-284.75622541580407,0,0,0,0,0,1,0,0
1.1937,198.56069625855676,-28.141059346078023,-285.53822848604602,0,0,0,0,0,1,0,0
1.1937199999999999,193.445782334184,-31.138529138228265,-286.30895899594003,0,0,0,0,0,1,0,0
1.19374,188.57775587627702,-34.327896576447067,-287.06838651837927,0,0,0,0,0,1,0,0
1.1937599999999999,183.95475519771233,-37.700584620364246,-287.81648107245178,0,0,0,0,0,1,0,0
1.1937799999999998,179.57471985983784,-41.248080629793854,-288.55321312467231,0,0,0,0,0,1,0,0
1.1938,175.43539869749054,-44.961942871481341,-289.27855359012756,0,0,0,0,0,1,0,0
1.1938199999999999,171.53435779172025,-48.833806759221012,-289.99247383360483,0,0,0,0,0,1,0,0
1.19384,167.8689883838656,-52.855390829193247,-290.69494567076811,0,0,0,0,0,1,0,0
1.1938599999999999,164.43651472488062,-57.018502452578396,-291.38594136921949,0,0,0,0,0,1,0,0
1.1938800000000001,161.23400185406476,-61.31504328770194,-292.06543364964443,0,0,0,0,0,1,0,0
1.1939,158.25836330159348,-65.737014474159452,-292.73339568683895,0,0,0,0,0,1,0,0
1.1939199999999999,155.50636870948856,-70.276521571549765,-293.38980111081167,0,0,0,0,0,1,0,0
1.19394,152.9746513659162,-74.925779245620333,-294.03462400780626,0,0,0,0,0,1,0,0
1.1939599999999999,150.65971564793074,-79.677115704796691,-294.66783892130707,0,0,0,0,0,1,0,0
1.19398,148.55794436804061,-84.522976890223134,-295.28942085308512,0,0,0,0,0,1,0,0
1.194,146.66560602018086,-89.455930422595259,-295.89934526413879,0,0,0,0,0,1,0,0
1.1940199999999999,144.97886192093932,-94.468669309208579,-296.49758807570237,0,0,0,0,0,1,0,0
1.19404,143.49377324208544,-99.554015414777425,-297.08412567017922,0,0,0,0,0,1,0,0
1.1940599999999999,142.20630793070205,-104.70492269971261,-297.65893489205888,0,0,0,0,0,1,0,0
1.19408,141.11234751342641,-109.91448022965962,-298.22199304886789,0,0,0,0,0,1,0,0
1.1940999999999999,140.20769378154043,-115.17591496021866,-298.77327791202407,0,0,0,0,0,1,0,0
1.1941199999999998,139.48807535385555,-120.48259430086539,-299.31276771775021,0,0,0,0,0,1,0,0
1.19414,138.94915411456077,-125.82802846219799,-299.84044116791716,0,0,0,0,0,1,0,0
1.1941599999999999,138.58653152340892,-131.20587259071655,-300.35627743087122,0,0,0,0,0,1,0,0
1.19418,138.3957547958203,-136.60992869543563,-300.86025614229368,0,0,0,0,0,1,0,0
1.1941999999999999,138.37232295068782,-142.0341473707029,-301.35235740594982,0,0,0,0,0,1,0,0
1.1942199999999998,138.51169272386878,-147.47262931966335,-301.83256179452923,0,0,0,0,0,1,0,0
1.19424,138.80928434553348,-152.91962668288087,-302.30085035040196,0,0,0,0,0,1,0,0
1.1942599999999999,139.26048717974646,-158.36954417668392,-302.75720458631639,0,0,0,0,0,1,0,0
1.19428,139.86066522482707,-163.81694004584517,-303.20160648620117,0,0,0,0,0,1,0,0
1.1942999999999999,140.60516247322633,-169.25652683526604,-303.63403850582216,0,0,0,0,0,1,0,0
1.19432,141.48930812983753,-174.68317198535908,-304.05448357351156,0,0,0,0,0,1,0,0
1.19434,142.50842168782393,-180.0918982558681,-304.46292509081036,0,0,0,0,0,1,0,0
1.1943599999999999,143.65781786122324,-185.47788398288526,-304.85934693315079,0,0,0,0,0,1,0,0
1.19438,144.9328113737418,-190.83646317384932,-305.24373345048053,0,0,0,0,0,1,0,0
1.1943999999999999,146.32872160333756,-196.16312544532892,-305.61606946787123,0,0,0,0,0,1,0,0
1.19442,147.84087708231095,-201.45351580839392,-305.97634028614118,0,0,0,0,0,1,0,0
1.1944399999999999,149.46461985280519,-206.70343430640759,-306.32453168240886,0,0,0,0,0,1,0,0
1.1944599999999999,151.19530967774935,-211.90883551004333,-306.66062991067736,0,0,0,0,0,1,0,0
1.1944728186404703,151.19530967774935,-211.90883551004333,-306.66062991067736,0,0,0,0,0,1,0,0
