"Time / s","Vo:Measured voltage","IL:Measured current","Vin:Measured voltage","open1:Output","open3:Output","open2:Output","open4:Output","short1:Output","short2:Output","short3:Output","short4:Output"
1.1192151216026391,405.06424715810039,-3.1292201449350876,-77.374134475793895,0,0,0,0,0,0,0,0
1.1192199999999999,404.92898427274741,-3.1109648054805259,-75.479166930687697,0,0,0,0,0,0,0,0
1.11924,404.79348422124815,-3.0303645178465164,-73.581219597294947,0,0,0,0,0,0,0,0
1.1192599999999999,404.65738797113016,-2.8873406868087987,-71.680367403360918,0,0,0,0,0,0,0,0
1.1192800000000001,404.51971421770077,-2.8166541445763942,-69.776685391223779,0,0,0,0,0,0,0,0
1.1193,404.38128246164496,-2.7507159485271444,-67.870248715058679,0,0,0,0,0,0,0,0
1.1193199999999999,404.24230856869349,-2.6893953259222716,-65.961132637704083,0,0,0,0,0,0,0,0
1.11934,404.10290558030857,-2.5652080722303672,-64.049412527724655,0,0,0,0,0,0,0,0
1.1193599999999999,403.96219366379233,-2.5127389479255857,-62.135163856643373,0,0,0,0,0,0,0,0
1.11938,403.8211278175296,-2.3971952186899714,-60.218462195668145,0,0,0,0,0,0,0,0
1.1194,403.67913468544191,-2.3530770126526028,-58.299383212933307,0,0,0,0,0,0,0,0
1.1194199999999999,403.53684693140502,-2.2456829240104907,-56.378002670373768,0,0,0,0,0,0,0,0
1.11944,403.39348736987728,-2.2094183651366031,-54.454396420786011,0,0,0,0,0,0,0,0
1.1194599999999999,403.24989368141837,-2.1096864904717934,-52.528640404885842,0,0,0,0,0,0,0,0
1.11948,403.10561717496677,-2.0136204326933522,-50.600810648188478,0,0,0,0,0,0,0,0
1.1194999999999999,402.96054082715932,-1.9882660582389462,-48.670983258146656,0,0,0,0,0,0,0,0
1.1195199999999998,402.81513726708454,-1.9663088237443191,-46.739234421023866,0,0,0,0,0,0,0,0
1.11954,402.66959292085852,-1.8805266069005617,-44.805640398939055,0,0,0,0,0,0,0,0
1.1195599999999999,402.52367572041959,-1.7308789288651616,-42.870277526908332,0,0,0,0,0,0,0,0
1.11958,402.37672824364296,-1.7185166110693202,-40.933222209709001,0,0,0,0,0,0,0,0
1.1195999999999999,402.22954681976699,-1.7091244333871736,-38.99455091900326,0,0,0,0,0,0,0,0
1.1196200000000001,402.08229550662378,-1.6355871090731202,-37.054340190179055,0,0,0,0,0,0,0,0
1.11964,401.93477994178249,-1.4978744050144754,-35.112666619468897,0,0,0,0,0,0,0,0
1.1196599999999999,401.78660809132901,-1.362921642891282,-33.169606860803128,0,0,0,0,0,0,0,0
1.11968,401.63780335928698,-1.2975783609062894,-31.225237622836371,0,0,0,0,0,0,0,0
1.1196999999999999,401.48877570470785,-1.2347708636564245,-29.27963566597203,0,0,0,0,0,0,0,0
1.11972,401.33957415167009,-1.1075172316911968,-27.332877799208756,0,0,0,0,0,0,0,0
1.11974,401.18981467264524,-1.0495297077670334,-25.385040877248965,0,0,0,0,0,0,0,0
1.1197599999999999,401.03992503268171,-0.92697496580007133,-23.436201797341507,0,0,0,0,0,0,0,0
1.11978,400.88968875911604,-0.87347470612136513,-21.486437496298652,0,0,0,0,0,0,0,0
1.1197999999999999,400.73935333524048,-0.75529539778670252,-19.535824947511763,0,0,0,0,0,0,0,0
1.11982,400.58865544014765,-0.70596017853087267,-17.584441157788984,0,0,0,0,0,0,0,0
1.1198399999999999,400.43789549088592,-0.59184418041646625,-15.63236316445634,0,0,0,0,0,0,0,0
1.1198599999999999,400.28693790357067,-0.54637923068785066,-13.679668032192859,0,0,0,0,0,0,0,0
1.11988,400.13587239992472,-0.50273001190615418,-11.726432850023469,0,0,0,0,0,0,0,0
1.1198999999999999,399.98474980471497,-0.460831044903876,-9.7727347284170474,0,0,0,0,0,0,0,0
1.11992,399.83362162224483,-0.3539773845618025,-7.8186507959241194,0,0,0,0,0,0,0,0
1.1199399999999999,399.68242882130545,-0.18217849188628699,-5.8642581965207992,0,0,0,0,0,0,0,0
1.1199599999999998,399.53111134508362,-0.21180654195247464,-3.9096340862451004,0,0,0,0,0,0,0,0
1.11998,399.37985517374835,-0.17632911667306911,-1.9548556302923592,0,0,0,0,0,0,0,0
1.1199999999999999,399.22864056201769,-0.075763822200579922,-4.267431445128511e-12,0,0,0,0,0,0,0,0
1.12002,399.07743282450599,-0.1096739090066511,1.9548556303015097,0,0,0,0,0,0,0,0
1.1200399999999999,398.92625541520397,-0.14488800814842345,3.9096340862365664,0,0,0,0,0,0,0,0
1.1200600000000001,398.77513451905423,-0.11489392264375931,5.8642581965299492,0,0,0,0,0,0,0,0
1.12008,398.6240898667362,-0.019720054295933875,7.8186507959332676,0,0,0,0,0,0,0,0
1.1200999999999999,398.47313923040355,0.14060377577338742,9.7727347283908408,0,0,0,0,0,0,0,0
1.12012,398.32230619245189,0.36604338531011582,11.726432850032612,0,0,0,0,0,0,0,0
1.1201399999999999,398.1716858104308,0.59020203337682886,13.679668032166663,0,0,0,0,0,0,0,0
1.12016,398.02146477415522,0.68043730887169163,15.632363164447813,0,0,0,0,0,0,0,0
1.12018,397.87141242471648,0.83586277631884198,17.584441157780464,0,0,0,0,0,0,0,0
1.1201999999999999,397.72179098840792,0.9238606169458774,19.535824947485597,0,0,0,0,0,0,0,0
1.12022,397.57250504593236,1.0107913897457963,21.486437496290137,0,0,0,0,0,0,0,0
1.1202399999999999,397.42352776403544,1.0966759360440321,23.436201797315359,0,0,0,0,0,0,0,0
1.12026,397.27501647066367,1.1153225475445596,25.38504087724046,0,0,0,0,0,0,0,0
1.1202799999999999,397.12665461433414,1.199194798312385,27.332877799200254,0,0,0,0,0,0,0,0
1.1202999999999999,396.97872580801493,1.2820751653558058,29.279635665945925,0,0,0,0,0,0,0,0
1.12032,396.83118184168802,1.3639731211940804,31.22523762282788,0,0,0,0,0,0,0,0
1.1203399999999999,396.68420459080335,1.3787845242520724,33.169606860777051,0,0,0,0,0,0,0,0
1.12036,396.5373978970581,1.4587638265198772,35.112666619460413,0,0,0,0,0,0,0,0
1.1203799999999999,396.39091956992445,1.6038454599433853,37.054340190170585,0,0,0,0,0,0,0,0
1.1203999999999998,396.24546816719771,1.6158407080527823,38.994550918977247,0,0,0,0,0,0,0,0
1.12042,396.10029747985317,1.6269133310242994,40.933222209700538,0,0,0,0,0,0,0,0
1.1204399999999999,395.95531391038674,1.7030521593545382,42.870277526882354,0,0,0,0,0,0,0,0
1.12046,395.81071440726566,1.8441815919019819,44.805640398948107,0,0,0,0,0,0,0,0
1.1204799999999999,395.66693612442111,1.9842802019033117,46.739234421015432,0,0,0,0,0,0,0,0
1.1205000000000001,395.5242958780031,1.9914913147798803,48.670983258155687,0,0,0,0,0,0,0,0
1.12052,395.38185391452515,2.0636208304364909,50.600810648197516,0,0,0,0,0,0,0,0
1.1205399999999999,395.23984602661108,2.2005831355578538,52.528640404877429,0,0,0,0,0,0,0,0
1.12056,395.09878928846365,2.3364416577412741,54.454396420795028,0,0,0,0,0,0,0,0
1.1205799999999999,394.95905013193482,2.3395167605136034,56.378002670365376,0,0,0,0,0,0,0,0
1.1206,394.81951425356232,2.4073167521058743,58.299383212942296,0,0,0,0,0,0,0,0
1.1206199999999999,394.68045591351836,2.5397460482205427,60.218462195677127,0,0,0,0,0,0,0,0
1.1206399999999999,394.54262429826679,2.6051936280048227,62.135163856635018,0,0,0,0,0,0,0,0
1.12066,394.40562913990578,2.6694197849454127,64.049412527733608,0,0,0,0,0,0,0,0
1.1206799999999999,394.26932497927584,2.7323805165779378,65.96113263767846,0,0,0,0,0,0,0,0
1.1207,394.13386220870854,2.7940349422809518,67.870248715067603,0,0,0,0,0,0,0,0
1.1207199999999999,393.99908296385587,2.8543332350103872,69.776685391232704,0,0,0,0,0,0,0,0
1.1207399999999998,393.86483000827945,2.9788705164251255,71.680367403335396,0,0,0,0,0,0,0,0
1.12076,393.73203627445201,3.0362925105633849,73.581219597286662,0,0,0,0,0,0,0,0
1.1207799999999999,393.60014129337878,3.0922020079787615,75.479166930662259,0,0,0,0,0,0,0,0
1.1208,393.46896414758112,3.1465370178483436,77.374134475785638,0,0,0,0,0,0,0,0
1.1208199999999999,393.33833260567388,3.2647928139896716,79.26604742254851,0,0,0,0,0,0,0,0
1.1208400000000001,393.20904854410452,3.3813138409222105,81.154831081501456,0,0,0,0,0,0,0,0
1.12086,393.08151407578868,3.3650034995392848,83.040410886665541,0,0,0,0,0,0,0,0
1.1208799999999999,392.95412582100448,3.4123797026231331,84.92271239859582,0,0,0,0,0,0,0,0
1.1209,392.82728851764898,3.523312740490296,86.801661307268574,0,0,0,0,0,0,0,0
1.1209199999999999,392.70140590833648,3.6976676338055592,88.677183434964192,0,0,0,0,0,0,0,0
1.12094,392.57802837236915,3.7390252354499394,90.549204739314419,0,0,0,0,0,0,0,0
1.12096,392.45545009949711,3.7782211220234543,92.41765131608966,0,0,0,0,0,0,0,0
1.1209799999999999,392.33341039420634,3.8805577095035115,94.282449402235343,0,0,0,0,0,0,0,0
1.121,392.21234854166931,4.0458901529284379,96.143525378732889,0,0,0,0,0,0,0,0
1.1210199999999999,392.09395248015988,4.0780323259540383,98.000805773455753,0,0,0,0,0,0,0,0
1.12104,391.97635398389667,4.1076412036132881,99.854217264204451,0,0,0,0,0,0,0,0
1.1210599999999999,391.85926061235028,4.1999278648700908,101.70368668139984,0,0,0,0,0,0,0,0
1.1210799999999999,391.74314633765795,4.354737854628544,103.54914101117301,0,0,0,0,0,0,0,0
1.1211,391.62924887246226,4.4413740235025676,105.3905073982136,0,0,0,0,0,0,0,0
1.1211199999999999,391.51721967905161,4.4597767945762481,107.22771314844624,0,0,0,0,0,0,0,0
1.12114,391.40563659711398,4.5403439157320236,109.06068573218364,0,0,0,0,0,0,0,0
1.1211599999999999,391.29553177213495,4.6177007778068457,110.88935278677359,0,0,0,0,0,0,0,0
1.1211799999999998,391.18662213965098,4.691723807816973,112.7136421195885,0,0,0,0,0,0,0,0
1.1212,391.0792621668873,4.7622962733106213,114.5334817108257,0,0,0,0,0,0,0,0
1.1212199999999999,390.97315632202123,4.8292873972955555,116.34879971630123,0,0,0,0,0,0,0,0
1.12124,390.86849925203563,4.8925719405640979,118.15952447040142,0,0,0,0,0,0,0,0
1.1212599999999999,390.76497873010521,4.9520143674339323,119.96558448878066,0,0,0,0,0,0,0,0
1.1212800000000001,390.66231295757729,5.0725903380524722,121.76690847131458,0,0,0,0,0,0,0,0
1.1213,390.56209753777495,5.1239382988326199,123.56342530478413,0,0,0,0,0,0,0,0
1.1213199999999999,390.46326511605594,5.1710305145062927,125.35506406579714,0,0,0,0,0,0,0,0
1.12134,390.36547275264149,5.2137199122499327,127.14175402353925,0,0,0,0,0,0,0,0
1.1213599999999999,390.26842186383124,5.3169052126239054,128.92342464251794,0,0,0,0,0,0,0,0
1.12138,390.17340946350373,5.4153716850740263,130.7000055854601,0,0,0,0,0,0,0,0
1.1214,390.08009061308667,5.5089560363468104,132.47142671595995,0,0,0,0,0,0,0,0
1.1214199999999999,389.98894446728917,5.5325062818498951,134.23761810136048,0,0,0,0,0,0,0,0
1.12144,389.898380627687,5.6158598237325306,135.99851001546594,0,0,0,0,0,0,0,0
1.1214599999999999,389.80976510792738,5.6938551709328955,137.75403294124686,0,0,0,0,0,0,0,0
1.12148,389.72271936415075,5.7663173819172018,139.50411757369579,0,0,0,0,0,0,0,0
1.1214999999999999,389.63743260692866,5.8330784972142435,141.24869482243639,0,0,0,0,0,0,0,0
1.1215199999999999,389.55350646066921,5.8939602442768395,142.98769581456193,0,0,0,0,0,0,0,0
1.12154,389.4705941788161,6.0136970667981577,144.72105189730661,0,0,0,0,0,0,0,0
1.1215599999999999,389.39058469963516,6.0622875920617236,146.44869464070882,0,0,0,0,0,0,0,0
1.12158,389.31214681176829,6.1044569537809874,148.17055584043811,0,0,0,0,0,0,0,0
1.1215999999999999,389.23484545832605,6.1400169092702095,149.88656752028479,0,0,0,0,0,0,0,0
1.1216199999999998,389.15831398499648,6.2336403048464781,151.59666193510824,0,0,0,0,0,0,0,0
1.12164,389.08321931323809,6.3851028175599245,153.30077157332443,0,0,0,0,0,0,0,0
1.1216599999999999,389.01226716987588,6.3996854202359179,154.99882915952568,0,0,0,0,0,0,0,0
1.12168,388.94216401805403,6.4068714683387071,156.69076765739823,0,0,0,0,0,0,0,0
1.1216999999999999,388.87251808268792,6.4712776707849144,158.3765202720306,0,0,0,0,0,0,0,0
1.1217200000000001,388.8040212706988,6.5926745885648561,160.05602045284186,0,0,0,0,0,0,0,0
1.12174,388.73825888292521,6.7060411879471022,161.72920189601032,0,0,0,0,0,0,0,0
1.1217599999999999,388.67549187539692,6.7463778883534626,163.39599854721271,0,0,0,0,0,0,0,0
1.12178,388.61392973500716,6.7782527640815209,165.05634460418625,0,0,0,0,0,0,0,0
1.1217999999999999,388.55315011373085,6.866209567724999,166.71017451928157,0,0,0,0,0,0,0,0
1.12182,388.4938648175974,7.0100032453996617,168.35742300215529,0,0,0,0,0,0,0,0
1.1218399999999999,388.43826649835398,7.0799138754377768,169.99802502222812,0,0,0,0,0,0,0,0
1.1218599999999999,388.38506462499191,7.0757216158585505,171.63191581135641,0,0,0,0,0,0,0,0
1.12188,388.33219113315869,7.1266538871224947,173.25903086634406,0,0,0,0,0,0,0,0
1.1218999999999999,388.28037913345298,7.2324632969557099,174.87930595144539,0,0,0,0,0,0,0,0
1.12192,388.23035807554157,7.3928896381192013,176.49267710100375,0,0,0,0,0,0,0,0
1.1219399999999999,388.18557429756294,7.3489026837895812,178.09908062185946,0,0,0,0,0,0,0,0
1.1219599999999998,388.14056819277135,7.3590377324417391,179.6984530959667,0,0,0,0,0,0,0,0
1.12198,388.09609243786753,7.4230472772998812,181.29073138285321,0,0,0,0,0,0,0,0
1.1219999999999999,388.05289588058378,7.5406702454164343,182.8758526220698,0,0,0,0,0,0,0,0
1.12202,388.01172335256416,7.7116320696312561,184.45375423577278,0,0,0,0,0,0,0,0
1.1220399999999999,387.97615406929441,7.6770292687844499,186.02437393107968,0,0,0,0,0,0,0,0
1.1220600000000001,387.940475554182,7.6952304822215387,187.58764970264272,0,0,0,0,0,0,0,0
1.12208,387.90545391088375,7.7659763669285873,189.14351983498287,0,0,0,0,0,0,0,0
1.1220999999999999,387.87185107794494,7.8889933491558528,190.69192290502562,0,0,0,0,0,0,0,0
1.12212,387.84042462400026,8.063993704945025,192.23279778448287,0,0,0,0,0,0,0,0
1.1221399999999999,387.81490224683375,8.032170055603121,193.76608364222494,0,0,0,0,0,0,0,0
1.12216,387.78929337065568,8.0517566256835895,195.29171994679311,0,0,0,0,0,0,0,0
1.12218,387.76437481975131,8.1224838422089061,196.80964646860946,0,0,0,0,0,0,0,0
1.1221999999999999,387.74091892797571,8.2440672658287877,198.31980328258916,0,0,0,0,0,0,0,0
1.12222,387.69338227883225,0.00019982208381971779,199.82213077034029,0,0,0,1,0,0,0,0
1.1222399999999999,387.5465556015742,0.00020131652289446589,201.31656962249176,0,0,0,1,0,0,0,0
1.12226,387.3997847066554,0.00020280301433761271,202.80306084119718,0,0,0,1,0,0,0,0
1.1222799999999999,387.2530695977369,0.00020428149946499441,204.28154574230163,0,0,0,1,0,0,0,0
1.1222999999999999,387.10641027786522,0.00020575191990856331,205.75196595776623,0,0,0,1,0,0,0,0
1.12232,386.95980672182463,0.00020721421761865102,207.21426343793189,0,0,0,1,0,0,0,0
1.1223399999999999,386.81325874206232,0.00020866833486622174,208.66838045377148,0,0,0,1,0,0,0,0
1.12236,386.66676626286329,0.00021011421424524228,210.11425959926137,0,0,0,1,0,0,0,0
1.1223799999999999,386.5203292632047,0.00021155179867484461,211.55184379354247,0,0,0,1,0,0,0,0
1.1223999999999998,386.37394772207318,0.00021298103140167005,212.98107628326542,0,0,0,1,0,0,0,0
1.12242,386.22762161846339,0.00021440185600207049,214.40190064479162,0,0,0,1,0,0,0,0
1.1224399999999999,386.08135093137673,0.00021581421638429806,215.81426078638239,0,0,0,1,0,0,0,0
1.12246,385.93513563982418,0.00021721805679080844,217.21810095050324,0,0,0,1,0,0,0,0
1.1224799999999999,385.78897572282403,0.00021861332180036109,218.6133657159229,0,0,0,1,0,0,0,0
1.1225000000000001,385.64287115940147,0.00021999995633030753,220.00000000000264,0,0,0,1,0,0,0,0
1.12252,385.49682192859103,0.00022137790563866584,221.37794906077025,0,0,0,1,0,0,0,0
1.1225399999999999,385.35082800943474,0.00022274711532636941,222.74715849916876,0,0,0,1,0,0,0,0
1.12256,385.20488938098185,0.00022410753133937612,224.10757426116629,0,0,0,1,0,0,0,0
1.1225799999999999,385.05900602229053,0.00022545909997076697,225.45914263985335,0,0,0,1,0,0,0,0
1.1226,384.91317791242682,0.00022680176786295101,226.80181027764905,0,0,0,1,0,0,0,0
1.12262,384.76740503046369,0.00022813548200967447,228.13552416830976,0,0,0,1,0,0,0,0
1.1226399999999999,384.62168735548283,0.00022946018975819892,229.460231659107,0,0,0,1,0,0,0,0
1.12266,384.47602486657365,0.0002307758388113422,230.77588045286907,0,0,0,1,0,0,0,0
1.1226799999999999,384.33041754283425,0.00023208237722950899,232.08241861001065,0,0,0,1,0,0,0,0
1.1227,384.18486536336894,0.00023337975343282316,233.37979455066599,0,0,0,1,0,0,0,0
1.1227199999999999,384.03936830729117,0.00023466791620307023,234.66795705663097,0,0,0,1,0,0,0,0
1.1227399999999998,383.89392635372207,0.0002359468146858016,235.94685527346732,0,0,0,1,0,0,0,0
1.12276,383.74853948179032,0.00023721639839230626,237.21643871247477,0,0,0,1,0,0,0,0
1.1227799999999999,383.60320767063217,0.00023847661720157056,238.47665725264997,0,0,0,1,0,0,0,0
1.1228,383.45793089939377,0.00023972742136234756,239.72746114275691,0,0,0,1,0,0,0,0
1.1228199999999999,383.31270914722705,0.00024096876149498579,240.96880100315445,0,0,0,1,0,0,0,0
1.1228399999999998,383.16754239329191,0.00024220058859351386,242.20062782788204,0,0,0,1,0,0,0,0
1.12286,383.02243061675813,0.00024342285402755113,243.42289298657016,0,0,0,1,0,0,0,0
1.1228799999999999,382.87737379680073,0.00024463550954409609,244.6355482262278,0,0,0,1,0,0,0,0
1.1229,382.73237191260466,0.00024583850726961825,245.83854567333557,0,0,0,1,0,0,0,0
1.1229199999999999,382.58742494336144,0.0002470317997118055,247.03183783559231,0,0,0,1,0,0,0,0
1.12294,382.44253286827092,0.00024821533976153708,248.21537760388827,0,0,0,1,0,0,0,0
1.12296,382.29769566654107,0.00024938908069465694,249.38911825407862,0,0,0,1,0,0,0,0
1.1229799999999999,382.152913317387,0.00025055297617389359,250.5530134489029,0,0,0,1,0,0,0,0
1.123,382.00818580003272,0.00025170698025065667,251.70701723978215,0,0,0,1,0,0,0,0
1.1230199999999999,381.86351309370946,0.00025285104736682054,252.85108406860186,0,0,0,1,0,0,0,0
1.12304,381.71889517765618,0.0002539851323565949,253.9851687695832,0,0,0,1,0,0,0,0
1.1230599999999999,381.57433203112015,0.00025510919044822587,255.10922657098359,0,0,0,1,0,0,0,0
1.1230799999999999,381.42982363335591,0.00025622317726583502,256.22321309693598,0,0,0,1,0,0,0,0
1.1231,381.28536996362698,0.00025732704883113988,257.32708436916971,0,0,0,1,0,0,0,0
1.1231199999999999,381.14097100120301,0.00025842076156516166,258.42079680871723,0,0,0,1,0,0,0,0
1.12314,380.99662672536277,0.00025950427229001364,259.50430723770376,0,0,0,1,0,0,0,0
1.1231599999999999,380.85233711539257,0.00026057753823052846,260.57757288097338,0,0,0,1,0,0,0,0
1.1231799999999998,380.7081021505868,0.00026164051701601436,261.640551367846,0,0,0,1,0,0,0,0
1.1232,380.56392181024671,0.00026269316668189814,262.69320073376053,0,0,0,1,0,0,0,0
1.1232151216026389,380.56392181024671,0.00026269316668189814,262.69320073376053,0,0,0,1,0,0,0,0
