"Time / s","Vo:Measured voltage","IL:Measured current","Vin:Measured voltage","open1:Output","open3:Output","open2:Output","open4:Output","short1:Output","short2:Output","short3:Output","short4:Output"
1.1509859010650034,392.38874917104334,-3.7981008805706051,-94.282449402242619,0,0,0,0,0,0,0,0
1.151,392.26734133914505,-3.963039921176716,-96.143525378740151,0,0,0,0,0,0,0,0
1.1510199999999999,392.14829382716118,-4.0601203278691109,-98.000805773462986,0,0,0,0,0,0,0,0
1.1510399999999998,392.03079830875828,-4.0892896918398716,-99.854217264178189,0,0,0,0,0,0,0,0
1.15106,391.91380919987552,-4.1811362277878299,-101.70368668139034,0,0,0,0,0,0,0,0
1.1510799999999999,391.79841712365243,-4.2702124075632533,-103.5491410111802,0,0,0,0,0,0,0,0
1.1511,391.68437002160289,-4.3564054806906327,-105.39050739820414,0,0,0,0,0,0,0,0
1.1511199999999999,391.57190299767683,-4.3743453722778733,-107.22771314843681,0,0,0,0,0,0,0,0
1.1511400000000001,391.45988309263521,-4.4544538149427728,-109.06068573217424,0,0,0,0,0,0,0,0
1.15116,391.34946894670173,-4.5313492155332629,-110.88935278676418,0,0,0,0,0,0,0,0
1.1511799999999999,391.24038070579621,-4.6049063596787745,-112.71364211957912,0,0,0,0,0,0,0,0
1.1512,391.13222634442963,-4.7401884350845052,-114.53348171083277,0,0,0,0,0,0,0,0
1.1512199999999999,391.02620747226257,-4.8066845059074828,-116.34879971629191,0,0,0,0,0,0,0,0
1.15124,390.92178276874057,-4.8694667485618961,-118.15952447040846,0,0,0,0,0,0,0,0
1.15126,390.8186431178666,-4.9283974553493257,-119.96558448878768,0,0,0,0,0,0,0,0
1.1512799999999999,390.71636248624134,-5.0484582137502629,-121.76690847130533,0,0,0,0,0,0,0,0
1.1513,390.61621944409467,-5.099266472200787,-123.56342530479112,0,0,0,0,0,0,0,0
1.1513199999999999,390.51761278789132,-5.1458117382782644,-125.35506406580411,0,0,0,0,0,0,0,0
1.15134,390.42020262797092,-5.1879444923524547,-127.14175402354621,0,0,0,0,0,0,0,0
1.1513599999999999,390.3235373624139,-5.2905694087866175,-128.92342464252488,0,0,0,0,0,0,0,0
1.1513799999999998,390.2287455060378,-5.3884606010415874,-130.70000558545098,0,0,0,0,0,0,0,0
1.1514,390.13624559588715,-5.4164430294757722,-132.47142671596683,0,0,0,0,0,0,0,0
1.1514199999999999,390.04480825591884,-5.4394000932483806,-134.23761810136736,0,0,0,0,0,0,0,0
1.15144,389.95395611278121,-5.5221641053311412,-135.99851001547282,0,0,0,0,0,0,0,0
1.1514599999999999,389.86430397546383,-5.6645340032415312,-137.75403294125368,0,0,0,0,0,0,0,0
1.1514799999999998,389.77728620895016,-5.7363832540402608,-139.50411757368678,0,0,0,0,0,0,0,0
1.1515,389.69265165397371,-5.7375807768062757,-141.24869482244316,0,0,0,0,0,0,0,0
1.1515199999999999,389.60839015193346,-5.7978457003837747,-142.9876958145687,0,0,0,0,0,0,0,0
1.15154,389.52514466801301,-5.9169700883866208,-144.72105189731334,0,0,0,0,0,0,0,0
1.1515599999999999,389.44416976543755,-6.0298351458810533,-146.44869464071556,0,0,0,0,0,0,0,0
1.15158,389.36591065544661,-6.0713630586762779,-148.17055584042924,0,0,0,0,0,0,0,0
1.1516,389.28896972786816,-6.1062720003190529,-149.88656752029146,0,0,0,0,0,0,0,0
1.1516199999999999,389.21279963524694,-6.1992402005800189,-151.59666193511492,0,0,0,0,0,0,0,0
1.15164,389.13806722030557,-6.3500433249061858,-153.30077157331567,0,0,0,0,0,0,0,0
1.1516599999999999,389.06726799613165,-6.3639345790737476,-154.99882915953231,0,0,0,0,0,0,0,0
1.15168,388.99750653339265,-6.3704196749788036,-156.69076765738953,0,0,0,0,0,0,0,0
1.1516999999999999,388.92820212291588,-6.434120773974084,-158.37652027202193,0,0,0,0,0,0,0,0
1.1517199999999999,388.86004658986434,-6.554808439657978,-160.05602045281807,0,0,0,0,0,0,0,0
1.15174,388.79441568616454,-6.6674502229269166,-161.72920189600171,0,0,0,0,0,0,0,0
1.1517599999999999,388.73227828598641,-6.642261310244348,-163.39599854720413,0,0,0,0,0,0,0,0
1.15178,388.67020735168933,-6.6733947871149999,-165.05634460419273,0,0,0,0,0,0,0,0
1.1517999999999999,388.60891806458119,-6.7606177328821202,-166.71017451927307,0,0,0,0,0,0,0,0
1.1518199999999998,388.54912229384189,-6.9036851029195274,-168.35742300213198,0,0,0,0,0,0,0,0
1.15184,388.49322386983323,-6.9728607534605516,-169.99802502223451,0,0,0,0,0,0,0,0
1.1518599999999999,388.43944459488335,-6.9679187575609323,-171.63191581136275,0,0,0,0,0,0,0,0
1.15188,388.38599216923569,-7.0181101867782631,-173.25903086635037,0,0,0,0,0,0,0,0
1.1518999999999999,388.33359978825274,-7.1231876678911128,-174.8793059514517,0,0,0,0,0,0,0,0
1.1519200000000001,388.28299698625551,-7.2828910114616807,-176.49267710101003,0,0,0,0,0,0,0,0
1.15194,388.23726110012359,-7.3028558821577674,-178.09908062186571,0,0,0,0,0,0,0,0
1.1519599999999999,388.1925046273418,-7.3122393263151446,-179.69845309597292,0,0,0,0,0,0,0,0
1.15198,388.14827591765254,-7.3754938735627347,-181.29073138285941,0,0,0,0,0,0,0,0
1.1519999999999999,388.10532373663352,-7.4923584906226122,-182.87585262207597,0,0,0,0,0,0,0,0
1.15202,388.06439283405359,-7.662558651249169,-184.45375423577892,0,0,0,0,0,0,0,0
1.15204,388.02903217193614,-7.6271567197650656,-186.02437393108579,0,0,0,0,0,0,0,0
1.1520599999999999,387.99355841426552,-7.6445559175653708,-187.58764970263471,0,0,0,0,0,0,0,0
1.15208,387.95873758727504,-7.7144969632474991,-189.14351983498895,0,0,0,0,0,0,0,0
1.1520999999999999,387.92533155270951,-7.8367063458905672,-190.69192290503162,0,0,0,0,0,0,0,0
1.15212,387.89409780304732,-8.0108964055724332,-192.23279778448887,0,0,0,0,0,0,0,0
1.1521399999999999,387.86873127884087,-7.9782249569065957,-193.76608364223094,0,0,0,0,0,0,0,0
1.1521599999999999,387.84327300329659,-7.9969616002482589,-195.29171994677154,0,0,0,0,0,0,0,0
1.15218,387.81849973220415,-8.0668368496584968,-196.80964646861537,0,0,0,0,0,0,0,0
1.1521999999999999,387.79518373197203,-8.1875663539385002,-198.31980328259505,0,0,0,0,0,0,0,0
1.15222,387.77522049331577,-8.294234189647149,-199.82213077033259,0,0,0,0,0,0,0,0
1.1522399999999999,387.75917141086649,-8.2572947598284951,-201.31656962248408,0,0,0,0,0,0,0,0
1.1522599999999998,387.74294399419557,-8.2703205447003771,-202.80306084117615,0,0,0,0,0,0,0,0
1.15228,387.72732330655253,-8.3330339516971517,-204.28154574229401,0,0,0,0,0,0,0,0
1.1522999999999999,387.71308961835911,-8.4451419164548849,-205.7519659577587,0,0,0,0,0,0,0,0
1.15232,387.70101816604614,-8.6063360010214165,-207.21426343792442,0,0,0,0,0,0,0,0
1.1523399999999999,387.6943886715942,-8.6224785238266204,-208.668380453764,0,0,0,0,0,0,0,0
1.1523600000000001,387.68905700901485,-8.6224562295973275,-210.114259599267,0,0,0,0,0,0,0,0
1.15238,387.68412460394035,-8.6705817863817209,-211.55184379354807,0,0,0,0,0,0,0,0
1.1523999999999999,387.68037658567329,-8.7665561278762034,-212.98107628325809,0,0,0,0,0,0,0,0
1.15242,387.6785927627356,-8.9100642637368583,-214.40190064479714,0,0,0,0,0,0,0,0
1.1524399999999999,387.68238585179176,-8.9069689631524067,-215.81426078638788,0,0,0,0,0,0,0,0
1.15246,387.68692788541415,-8.886130751661188,-217.2181009505087,0,0,0,0,0,0,0,0
1.1524799999999999,387.69151321165259,-8.9118602220790102,-218.6133657159283,0,0,0,0,0,0,0,0
1.1524999999999999,387.69692934814111,-8.9838556334519488,-219.99999999999554,0,0,0,0,0,0,0,0
1.15252,387.7039582550766,-9.1017988109800996,-221.37794906077559,0,0,0,0,0,0,0,0
1.1525399999999999,387.71337605950947,-9.2653552661278837,-222.74715849917408,0,0,0,0,0,0,0,0
1.15256,387.72866479742038,-9.2803466649834441,-224.10757426117161,0,0,0,0,0,0,0,0
1.1525799999999999,387.74527874560198,-9.2756209071183502,-225.45914263985861,0,0,0,0,0,0,0,0
1.1525999999999998,387.76219834096463,-9.3154739702587648,-226.80181027764218,0,0,0,0,0,0,0,0
1.15262,387.78020404386814,-9.3995885958700818,-228.13552416831493,0,0,0,0,0,0,0,0
1.1526399999999999,387.80007029664387,-9.5276307788212584,-229.46023165911214,0,0,0,0,0,0,0,0
1.15266,387.82489087094928,-9.5700015234390001,-230.77588045287419,0,0,0,0,0,0,0,0
1.1526799999999999,387.85130745976232,-9.5909382546309327,-232.08241861001568,0,0,0,0,0,0,0,0
1.1527000000000001,387.87917217564183,-9.5901023461677255,-233.37979455067102,0,0,0,0,0,0,0,0
1.15272,387.90740079720041,-9.6317966081824338,-234.66795705663597,0,0,0,0,0,0,0,0
1.1527399999999999,387.9367633362013,-9.7156924392868405,-235.94685527347229,0,0,0,0,0,0,0,0
1.15276,387.96802338468586,-9.8414442574317889,-237.21643871247969,0,0,0,0,0,0,0,0
1.1527799999999999,388.00302520013889,-9.9440352004005401,-238.47665725265489,0,0,0,0,0,0,0,0
1.1528,388.04280110627133,-9.8937506695391413,-239.72746114275049,0,0,0,0,0,0,0,0
1.15282,388.08200275045948,-9.8841910978124563,-240.96880100314806,0,0,0,0,0,0,0,0
1.1528399999999999,388.12139236809071,-9.9150390413815721,-242.20062782788685,0,0,0,0,0,0,0,0
1.15286,388.16172578034951,-9.9859597832935378,-243.42289298656388,0,0,0,0,0,0,0,0
1.1528799999999999,388.20375207358853,-10.096601484088874,-244.6355482262216,0,0,0,0,0,0,0,0
1.1529,388.24932978752599,-10.181900239772363,-245.83854567332943,0,0,0,0,0,0,0,0
1.1529199999999999,388.29737954608288,-10.241451932366818,-247.0318378355862,0,0,0,0,0,0,0,0
1.1529399999999999,388.34899842027238,-10.210162314566819,-248.21537760387156,0,0,0,0,0,0,0,0
1.15296,388.40036397406556,-10.217065193475708,-249.38911825408314,0,0,0,0,0,0,0,0
1.1529799999999999,388.45221363330165,-10.261826120819546,-250.55301344889691,0,0,0,0,0,0,0,0
1.153,388.50527789282347,-10.344093492977507,-251.70701723978664,0,0,0,0,0,0,0,0
1.1530199999999999,388.560279988057,-10.463498717387576,-252.85108406860627,0,0,0,0,0,0,0,0
1.1530399999999998,388.61910067990732,-10.554900273749393,-253.9851687695774,0,0,0,0,0,0,0,0
1.15306,388.68196219763934,-10.553107163828455,-255.10922657098794,0,0,0,0,0,0,0,0
1.1530799999999999,388.74586091064293,-10.522460479529872,-256.2232130969403,0,0,0,0,0,0,0,0
1.1531,388.8094806383246,-10.527378347848559,-257.32708436917403,0,0,0,0,0,0,0,0
1.1531199999999999,388.87352921820525,-10.567517192554243,-258.42079680872149,0,0,0,0,0,0,0,0
1.1531400000000001,388.93870718017888,-10.642516538705006,-259.50430723770802,0,0,0,0,0,0,0,0
1.15316,389.00570741315823,-10.751999192390755,-260.57757288097753,0,0,0,0,0,0,0,0
1.1531799999999999,389.07641507897364,-10.830739555993937,-261.64055136785015,0,0,0,0,0,0,0,0
1.1532,389.14956875491634,-10.87829861736194,-262.69320073376468,0,0,0,0,0,0,0,0
1.1532199999999999,389.22399923252658,-10.959119493431409,-263.73547942190748,0,0,0,0,0,0,0,0
1.15324,389.30258436783083,-10.943078470136308,-264.76734628491965,0,0,0,0,0,0,0,0
1.15326,389.38114569980138,-10.959479230522422,-265.78876058644545,0,0,0,0,0,0,0,0
1.1532799999999999,389.4603479154448,-11.007962232465394,-266.79968200280666,0,0,0,0,0,0,0,0
1.1533,389.54084787462295,-11.088151657678269,-267.80007062456571,0,0,0,0,0,0,0,0
1.1533199999999999,389.62453516079609,-11.134732896574073,-268.78988695807465,0,0,0,0,0,0,0,0
1.15334,389.71004246869478,-11.147263974580959,-269.76909192709741,0,0,0,0,0,0,0,0
1.1533599999999999,389.79609943490436,-11.190283242175182,-270.7376468742807,0,0,0,0,0,0,0,0
1.1533799999999998,389.88333927120595,-11.263411988808514,-271.69551356274263,0,0,0,0,0,0,0,0
1.1534,389.97463534544499,-11.236295122725108,-272.6426541775549,0,0,0,0,0,0,0,0
1.1534199999999999,390.06563414744363,-11.238446065821369,-273.57903132721071,0,0,0,0,0,0,0,0
1.15344,390.15695267057623,-11.269502231807397,-274.50460804516047,0,0,0,0,0,0,0,0
1.1534599999999999,390.24919982009158,-11.329085543526995,-275.41934779120351,0,0,0,0,0,0,0,0
1.1534799999999998,390.34297608983871,-11.416802641236396,-276.32321445298925,0,0,0,0,0,0,0,0
1.1535,390.44015732183755,-11.467186996168909,-277.21617234741763,0,0,0,0,0,0,0,0
1.1535199999999999,390.53925568765686,-11.479775532116077,-278.0981862220238,0,0,0,0,0,0,0,0
1.15354,390.63887757376068,-11.519228795900803,-278.96922125643403,0,0,0,0,0,0,0,0
1.1535599999999999,390.73959651258264,-11.585158479252335,-279.82924306364509,0,0,0,0,0,0,0,0
1.15358,390.84348299361699,-11.612038055993404,-280.67821769149219,0,0,0,0,0,0,0,0
1.1536,390.94898567820138,-11.599400619955196,-281.51611162389526,0,0,0,0,0,0,0,0
1.1536199999999999,391.05444958624247,-11.611977399588552,-282.34289178224424,0,0,0,0,0,0,0,0
1.15364,391.16042063275415,-11.649389416759149,-283.15852552668161,0,0,0,0,0,0,0,0
1.1536599999999999,391.26743610531605,-11.711243649657607,-283.96298065736886,0,0,0,0,0,0,0,0
1.15368,391.37602436345759,-11.797133259464873,-284.75622541580952,0,0,0,0,0,0,0,0
1.1536999999999999,391.48864319507987,-11.776173934630462,-285.53822848604432,0,0,0,0,0,0,0,0
1.1537199999999999,391.60101295278884,-11.778358151962875,-286.30895899593838,0,0,0,0,0,0,0,0
1.15374,391.71364142850075,-11.803307449751269,-287.06838651837762,0,0,0,0,0,0,0,0
1.1537599999999999,391.82702770469905,-11.850630143246377,-287.81648107245013,0,0,0,0,0,0,0,0
1.15378,391.94166186782707,-11.91992155616165,-288.55321312467737,0,0,0,0,0,0,0,0
1.1537999999999999,392.05802472698684,-12.010764259101522,-289.27855359012602,0,0,0,0,0,0,0,0
1.1538199999999998,392.17896067012521,-11.992035474141185,-289.99247383360324,0,0,0,0,0,0,0,0
1.15384,392.29966377598083,-11.99393480957051,-290.69494567076657,0,0,0,0,0,0,0,0
1.1538599999999999,392.42059232040623,-12.016078489623014,-291.38594136921802,0,0,0,0,0,0,0,0
1.15388,392.54219566556998,-12.058070660699993,-292.06543364964301,0,0,0,0,0,0,0,0
1.1538999999999999,392.66491399521453,-12.119503630674195,-292.73339568683753,0,0,0,0,0,0,0,0
1.1539200000000001,392.78981138296547,-12.13451020916146,-293.38980111081617,0,0,0,0,0,0,0,0
1.15394,392.91657774757317,-12.102625186759095,-294.03462400780484,0,0,0,0,0,0,0,0
1.1539599999999999,393.04277879145326,-12.088881565747906,-294.6678389213057,0,0,0,0,0,0,0,0
1.15398,393.16882265289746,-12.092899511730387,-295.28942085308381,0,0,0,0,0,0,0,0
1.1539999999999999,393.29510855816864,-12.114288019466793,-295.89934526413748,0,0,0,0,0,0,1,0
1.15402,393.42202657854301,-12.152645889334275,-296.4975880757064,0,0,0,0,0,0,1,0
1.15404,393.54995740465955,-12.207561479145205,-297.08412567017797,0,0,0,0,0,0,1,0
1.1540599999999999,393.6792721112717,-12.278612885437729,-297.65893489205769,0,0,0,0,0,0,1,0
1.15408,393.81033193289977,-12.365368321873706,-298.22199304886664,0,0,0,0,0,0,1,0
1.1540999999999999,393.94348804598991,-12.467386384242237,-298.77327791202288,0,0,0,0,0,0,1,0
1.15412,394.08153772214195,-12.452890896477712,-299.31276771775867,0,0,0,0,0,0,1,0
1.1541399999999999,394.21936727527958,-12.452688364844041,-299.84044116792074,0,0,0,0,0,0,1,0
1.1541599999999999,394.35730136485478,-12.466384878076941,-300.35627743087008,0,0,0,0,0,0,1,0
1.15418,394.49565535579802,-12.493577762793736,-300.8602561422926,0,0,0,0,0,0,1,0
1.1541999999999999,394.63615369282724,-12.468100061001703,-301.35235740594874,0,0,0,0,0,0,1,0
1.15422,394.77615646482087,-12.45525327345068,-301.83256179453673,0,0,0,0,0,0,1,0
1.1542399999999999,394.91595209390891,-12.454648485020055,-302.30085035040094,0,0,0,0,0,0,1,0
1.1542599999999998,395.05581978765559,-12.465888949635003,-302.75720458631537,0,0,0,0,0,0,1,0
1.15428,395.19602936397735,-12.488570343779399,-303.20160648620021,0,0,0,0,0,0,1,0
1.1542999999999999,395.33748820032923,-12.456409401353913,-303.6340385058212,0,0,0,0,0,0,1,0
1.15432,395.47762563657062,-12.500738798940336,-304.05448357351065,0,0,0,0,0,0,1,0
1.1543399999999999,395.61950630410303,-12.489373638797485,-304.46292509080951,0,0,0,0,0,0,1,0
1.1543600000000001,395.76118312299872,-12.487784928324933,-304.8593469331534,0,0,0,0,0,0,1,0
1.15438,395.9028795914839,-12.495573358084442,-305.24373345047968,0,0,0,0,0,0,1,0
1.1543999999999999,396.04480973604007,-12.512333520551245,-305.61606946787043,0,0,0,0,0,0,1,0
1.15442,396.18717797576818,-12.537654171281584,-305.97634028614044,0,0,0,0,0,0,1,0
1.1544399999999999,396.33017899293833,-12.571118493481791,-306.32453168240806,0,0,0,0,0,0,1,0
1.15446,396.47399760979681,-12.612304365818357,-306.66062991067963,0,0,0,0,0,0,1,0
1.15448,396.61880867170839,-12.660784633306637,-306.98462170236638,0,0,0,0,0,0,1,0
1.1544999999999999,396.76477693669153,-12.716127381113903,-307.29649426683034,0,0,0,0,0,0,1,0
1.15452,396.91205697141925,-12.777896211110665,-307.59623529187922,0,0,0,0,0,0,1,0
1.1545399999999999,397.06079305373925,-12.845650521003236,-307.88383294424528,0,0,0,0,0,0,1,0
1.15456,397.2111190817713,-12.918945785878137,-308.15927587007076,0,0,0,0,0,0,1,0
1.1545799999999999,397.36481513214898,-12.931125152445933,-308.42255319533564,0,0,0,0,0,0,1,0
1.1545999999999998,397.51801509701016,-12.947901503041335,-308.67365452630446,0,0,0,0,0,0,1,0
1.15462,397.67325282949599,-12.902620830548287,-308.91256994992875,0,0,0,0,0,0,1,0
1.1546399999999999,397.82576158030884,-12.927367982714788,-309.13929003423237,0,0,0,0,0,0,1,0
1.15466,397.9804836974796,-12.889208809629251,-309.35380582869863,0,0,0,0,0,0,1,0
1.1546799999999999,398.13428113552101,-12.853988738663272,-309.55610886460744,0,0,0,0,0,0,1,0
1.1546999999999998,398.28558046053547,-12.887686134259102,-309.74619115538331,0,0,0,0,0,0,1,0
1.15472,398.43928436188986,-12.857207030803194,-309.92404519690604,0,0,0,0,0,0,1,0
1.1547399999999999,398.59223126837941,-12.828468302314397,-310.08966396779465,0,0,0,0,0,0,1,0
1.15476,398.74360609470085,-12.8675209780366,-310.24304092971272,0,0,0,0,0,0,1,0
1.1547799999999999,398.89671068655889,-12.841092187808661,-310.38417002759326,0,0,0,0,0,0,1,0
1.1548,399.04750288993574,-12.881683128787561,-310.51304568990508,0,0,0,0,0,0,1,0
1.15482,399.20083703318608,-12.855940672823344,-310.62966282885554,0,0,0,0,0,0,1,0
1.1548399999999999,399.35350216487575,-12.829904979905965,-310.7340168406007,0,0,0,0,0,0,1,0
1.15486,399.50463687804398,-12.869751520385917,-310.82610360542384,0,0,0,0,0,0,1,0
1.1548799999999999,399.65749426751455,-12.841952576098222,-310.90591948789529,0,0,0,0,0,0,1,0
1.1549,399.80876886240316,-12.879264273797201,-310.97346133702223,0,0,0,0,0,0,1,0
1.1549199999999999,399.96169733571338,-12.84805898950723,-311.02872648636691,0,0,0,0,0,0,1,0
1.1549399999999999,400.11295286851197,-12.881196163745603,-311.07171275415641,0,0,0,0,0,0,1,0
1.15496,400.26575386793144,-12.844949269867993,-311.10241844336684,0,0,0,0,0,0,1,0
1.1549799999999999,400.41675474502682,-12.872282129618167,-311.12084234178957,0,0,0,0,0,0,1,0
1.1549859010650032,400.41675474502682,-12.872282129618167,-311.12084234178957,0,0,0,0,0,0,1,0
