Time / s,Vo:Measured voltage,IL:Measured current,Vin:Measured voltage,short1:Output,short2:Output,short3:Output,short4:Output,open1:Output,open3:Output,open2:Output,open4:Output
1.12325066582012,389.2510168951338,10.988932492726972,264.7673462849156,0,0,0,0,0,0,0,0
1.12326,389.3292070479287,11.006442372077784,265.7887605864416,0,0,0,0,0,0,0,0
1.12328,389.40805609619446,11.05604236954597,266.79968200281183,0,0,0,0,0,0,0,0
1.1233,389.4882211041948,11.137356257627967,267.80007062456184,0,0,0,0,0,0,0,0
1.12332,389.5719386137648,11.185080421379723,268.7898869580708,0,0,0,0,0,0,0,0
1.12334,389.657843683473,11.19876058234984,269.7690919271024,0,0,0,0,0,0,0,0
1.12336,389.7443197938185,11.242919242074898,270.73764687427695,0,0,0,0,0,0,0,0
1.12338,389.8319999679081,11.317177203329845,271.6955135627561,0,0,0,0,0,0,0,0
1.1234,389.9230869089414,11.291195088400986,272.64265417755973,0,0,0,0,0,0,0,0
1.12342,390.013896084344,11.294485123637866,273.5790313272155,0,0,0,0,0,0,0,0
1.12344,390.1050446218503,11.326684267854567,274.50460804516524,0,0,0,0,0,0,0,0
1.12346,390.1971415515248,11.387413986023793,275.41934779120817,0,0,0,0,0,0,0,0
1.12348,390.2907874824282,11.476280457779358,276.323214453002,0,0,0,0,0,0,0,0
1.1235,390.3891512720524,11.462777234469952,277.2161723474222,0,0,0,0,0,0,0,0
1.12352,390.48747962367577,11.476530480895937,278.0981862220283,0,0,0,0,0,0,0,0
1.12354,390.586354889643,11.517166130578126,278.9692212564306,0,0,0,0,0,0,0,0
1.12356,390.686350995666,11.584295317211758,279.8292430636418,0,0,0,0,0,0,0,0
1.12358,390.7880331279948,11.677514593698156,280.6782176914889,0,0,0,0,0,0,0,0
1.1236,390.89357390835255,11.666139834941644,281.516111623892,0,0,0,0,0,0,0,0
1.1236199999999998,390.99909929334393,11.679977805923157,282.34289178224105,0,0,0,0,0,0,0,0
1.12364,391.10515520686647,11.718648969701164,283.15852552667843,0,0,0,0,0,0,0,0
1.12366,391.21227893335737,11.781759745645,283.96298065736573,0,0,0,0,0,0,0,0
1.12368,391.32268793559285,11.803700794555231,284.75622541580645,0,0,0,0,0,0,0,0
1.1237,391.4347610373004,11.783992744809968,285.5382284860413,0,0,0,0,0,0,0,0
1.12372,391.5466111971128,11.787440947395178,286.3089589959423,0,0,0,0,0,0,0,0
1.12374,391.6587464997343,11.81366630202932,287.06838651837467,0,0,0,0,0,0,0,0
1.12376,391.7716663061992,11.86227647850242,287.81648107244723,0,0,0,0,0,0,0,0
1.12378,391.8858609671235,11.93286614852558,288.5532131246745,0,0,0,0,0,0,0,0
1.1238,392.00181154126295,12.025017224511773,289.27855359012324,0,0,0,0,0,0,0,0
1.12382,392.12118327289977,12.07296080019155,289.9924738336069,0,0,0,0,0,0,0,0
1.12384,392.24226716389273,12.076210980956706,290.6949456707639,0,0,0,0,0,0,0,0
1.12386,392.3636030750652,12.099695525616529,291.38594136921535,0,0,0,0,0,0,0,0
1.12388,392.4856401855113,12.143017930362673,292.0654336496404,0,0,0,0,0,0,0,0
1.1239,392.61056309281946,12.140353899125618,292.73339568683485,0,0,0,0,0,0,0,0
1.12392,392.7355923989765,12.156659388819609,293.3898011108195,0,0,0,0,0,0,0,0
1.12394,392.8621518283501,12.126077441248244,294.03462400780234,0,0,0,0,0,0,0,0
1.1239599999999998,392.9871778250666,12.179124316199117,294.66783892130326,0,0,0,0,0,0,0,0
1.12398,393.1145596807398,12.184454677178646,295.28942085308694,0,0,0,0,0,0,0,0
1.124,393.2422110263517,12.207121874278416,295.8993452641406,0,0,0,0,0,0,0,0
1.12402,393.3705211782398,12.246723871167536,296.4975880757095,0,0,0,0,0,0,0,0
1.12404,393.4998700515061,12.302848254635116,297.084125670181,0,0,0,0,0,0,0,0
1.12406,393.6306279306632,12.375072488742193,297.6589348920657,0,0,0,0,0,0,0,0
1.12408,393.7631552461998,12.462964174643435,298.22199304886954,0,0,0,0,0,0,0,0
1.1241,393.899033883588,12.500447388041165,298.77327791202566,0,0,0,0,0,0,0,0
1.12412,394.0363605785202,12.48702178021165,299.3127677177566,0,0,0,0,0,0,0,0
1.12414,394.1734896387922,12.487906965884209,299.84044116791875,0,0,0,0,0,0,0,0
1.12416,394.3107461792271,12.502708459736253,300.3562774308773,0,0,0,0,0,0,0,0
1.12418,394.4484460067098,12.53102300299504,300.8602561422906,0,0,0,0,0,0,0,0
1.1242,394.58793963437785,12.506689978088364,301.3523574059468,0,0,0,0,0,0,0,0
1.12422,394.72772372408775,12.49501685973966,301.83256179453485,0,0,0,0,0,0,0,0
1.12424,394.8673262837317,12.49559081374484,302.3008503503992,0,0,0,0,0,0,0,0
1.12426,395.0062624895433,12.508010555386646,302.7572045863177,0,0,0,0,0,0,0,0
1.12428,395.1455657601801,12.531894468127804,303.20160648619844,0,0,0,0,0,0,0,0
1.1243,395.2873001837029,12.500968842285678,303.63403850581955,0,0,0,0,0,0,0,0
1.12432,395.4283829316928,12.480630836046076,304.05448357350906,0,0,0,0,0,0,0,0
1.12434,395.56802693602407,12.536405735234196,304.462925090808,0,0,0,0,0,0,0,0
1.12436,395.71006358066194,12.536076835901918,304.859346933152,0,0,0,0,0,0,0,0
1.12438,395.852148097404,12.545115315869184,305.2437334504782,0,0,0,0,0,0,0,0
1.1243999999999998,395.99449429640896,12.563115049114748,305.616069467869,0,0,0,0,0,0,0,0
1.12442,396.13730636388016,12.589664078506702,305.976340286139,0,0,0,0,0,0,0,0
1.12444,396.28077873275686,12.624344880794666,306.3245316824068,0,0,0,0,0,0,0,0
1.12446,396.4250959596808,12.666734634838823,306.6606299106784,0,0,0,0,0,0,0,0
1.12448,396.5704326083013,12.716405492913507,306.98462170236513,0,0,0,0,0,0,0,0
1.1245,396.7169531389867,12.77292485492078,307.2964942668347,0,0,0,0,0,0,0,0
1.12452,396.86481180500544,12.835855645347714,307.5962352918808,0,0,0,0,0,0,0,0
1.12454,397.01415255524313,12.9047565927999,307.88383294424415,0,0,0,0,0,0,0,0
1.12456,397.1651089435026,12.979182511941875,308.15927587007207,0,0,0,0,0,0,0,0
1.12458,397.3183024041392,12.992485323255975,308.422553195337,0,0,0,0,0,0,0,0
1.1246,397.4730728362835,12.944169788740282,308.673654526308,0,0,0,0,0,0,0,0
1.12462,397.6254303566672,12.96627031027852,308.91256994992995,0,0,0,0,0,0,0,0
1.12464,397.779558702279,12.925907353680545,309.1392900342335,0,0,0,0,0,0,0,0
1.12466,397.93271447681866,12.88890663570559,309.3538058286997,0,0,0,0,0,0,0,0
1.12468,398.08450107228606,12.921212404080254,309.5561088646084,0,0,0,0,0,0,0,0
1.1247,398.2374962002461,12.889772417307372,309.746191155386,0,0,0,0,0,0,0,0
1.12472,398.3884628760582,12.9268810675981,309.9240451969053,0,0,0,0,0,0,0,0
1.12474,398.5415238435329,12.899393663291692,310.0896639677955,0,0,0,0,0,0,0,0
1.12476,398.69389337385,12.873254286833683,310.2430409297121,0,0,0,0,0,0,0,0
1.12478,398.8451321821788,12.914526217961818,310.38417002759275,0,0,0,0,0,0,0,0
1.1248,398.9977627761492,12.889897043019904,310.51304568990463,0,0,0,0,0,0,0,0
1.12482,399.14850310174006,12.931909621300552,310.6296628288551,0,0,0,0,0,0,0,0
1.1248399999999998,399.3014289927452,12.90716207383448,310.7340168406004,0,0,0,0,0,0,0,0
1.12486,399.4537043865977,12.881722722432748,310.82610360542344,0,0,0,0,0,0,0,0
1.12488,399.6048433083657,12.921780359731716,310.905919487895,0,0,0,0,0,0,0,0
1.1249,399.7573199363829,12.893769506652472,310.973461337022,0,0,0,0,0,0,0,0
1.12492,399.9085889504616,12.930483853916323,311.0287264863667,0,0,0,0,0,0,0,0
1.12494,400.0611076824142,12.898258665339416,311.0717127541566,0,0,0,0,0,0,0,0
1.12496,400.2123101042514,12.929991338184427,311.1024184433668,0,0,0,0,0,0,0,0
1.12498,400.3633793096056,12.958629847220935,311.1208423417895,0,0,0,0,0,0,0,0
1.125,400.5162824276527,12.917029347922684,311.12698372208087,0,0,0,0,0,0,0,0
1.12502,400.6676320091932,12.938228133686648,311.1208423417897,0,0,0,0,0,0,0,0
1.12504,400.8185865921285,12.955104860450948,311.1024184433669,0,0,0,0,0,0,0,0
1.12506,400.9698257750191,12.967258094506676,311.07171275415686,0,0,0,0,0,0,0,0
1.12508,401.12249145951847,12.907435719704615,311.0287264863674,0,0,0,0,0,0,0,0
1.1251,401.2731579166439,12.908889412410089,310.97346133702183,0,0,0,0,0,0,0,0
1.12512,401.4224751167334,12.971292549395876,310.90591948789614,0,0,0,0,0,0,0,0
1.12514,401.5736002842041,12.960476813824036,310.8261036054232,0,0,0,0,0,0,0,0
1.12516,401.7243360300855,12.942897719733477,310.73401684060093,0,0,0,0,0,0,0,0
1.1251799999999998,401.8753035722745,12.91815506095178,310.62966282885577,0,0,0,0,0,0,0,0
1.1252,402.0242894526159,12.952828467773848,310.5130456899043,0,0,0,0,0,0,0,0
1.12522,402.1744124782114,12.912566349684084,310.38417002759354,0,0,0,0,0,0,0,0
1.12524,402.3229671383571,12.930976773347703,310.2430409297117,0,0,0,0,0,0,0,0
1.12526,402.4717943717973,12.940660847516812,310.08966396779647,0,0,0,0,0,0,0,0
1.12528,402.6206857080697,12.94120675484778,309.92404519690484,0,0,0,0,0,0,0,0
1.1253,402.7694232145493,12.932208391708786,309.74619115538536,0,0,0,0,0,0,0,0
1.12532,402.91777963632205,12.913265624916905,309.55610886460966,0,0,0,0,0,0,0,0
1.12534,403.0655185419662,12.8839845447809,309.3538058286991,0,0,0,0,0,0,0,0
1.12536,403.21239447511965,12.843977714298632,309.1392900342348,0,0,0,0,0,0,0,0
1.12538,403.3581531117724,12.792864414361771,308.91256994992926,0,0,0,0,0,0,0,0
1.1254,403.5025314231618,12.73027088482158,308.67365452630725,0,0,0,0,0,0,0,0
1.12542,403.6452578441852,12.65583056127278,308.42255319533854,0,0,0,0,0,0,0,0
1.12544,403.78605244722064,12.569184307415505,308.1592758700713,0,0,0,0,0,0,0,0
1.12546,403.92180002906656,12.604586405378084,307.8838329442484,0,0,0,0,0,0,0,0
1.12548,404.05816553109,12.627154790029849,307.5962352918799,0,0,0,0,0,0,0,0
1.1255,404.19484845489546,12.636473669154602,307.29649426683375,0,0,0,0,0,0,0,0
1.12552,404.3315389352039,12.632135401605826,306.98462170237,0,0,0,0,0,0,0,0
1.12554,404.467917933974,12.613740747464252,306.6606299106804,0,0,0,0,0,0,0,0
1.12556,404.6032049275158,12.648313771267064,306.324531682412,0,0,0,0,0,0,0,0
1.12558,404.7382902380485,12.668070490777524,305.9763402861412,0,0,0,0,0,0,0,0
1.1256,404.8736045970723,12.672615261864268,305.6160694678746,0,0,0,0,0,0,0,0
1.1256199999999998,405.00956674021086,12.661542234484592,305.24373345048394,0,0,0,0,0,0,0,0
1.12564,405.1438042727871,12.70195052051022,304.8593469331543,0,0,0,0,0,0,0,0
1.12566,405.27996703032966,12.658446805047188,304.46292509081405,0,0,0,0,0,0,0,0
1.12568,405.4136578838191,12.665674127729805,304.0544835735078,0,0,0,0,0,0,0,0
1.1257,405.547268971816,12.655744701458737,303.63403850582216,0,0,0,0,0,0,0,0
1.12572,405.68040602698807,12.628267035018238,303.2016064861972,0,0,0,0,0,0,0,0
1.12574,405.8126661549703,12.582860195576377,302.7572045863164,0,0,0,0,0,0,0,0
1.12576,405.9436380801533,12.519154036172475,302.300850350402,0,0,0,0,0,0,0,0
1.12578,406.0729023964601,12.436789416955886,301.8325617945335,0,0,0,0,0,0,0,0
1.1258,406.1982604365158,12.403099000182271,301.3523574059498,0,0,0,0,0,0,0,0
1.12582,406.32158178070864,12.417811018281313,300.8602561422892,0,0,0,0,0,0,0,0
1.12584,406.4449686684137,12.4128776518546,300.3562774308758,0,0,0,0,0,0,0,0
1.12586,406.5679762756416,12.387908889333865,299.84044116792194,0,0,0,0,0,0,0,0
1.12588,406.69015133439353,12.342526500471443,299.31276771775504,0,0,0,0,0,0,0,0
1.1259,406.80982765272176,12.344150691522534,298.773277912029,0,0,0,0,0,0,0,0
1.12592,406.930016674251,12.324663235752604,298.2219930488679,0,0,0,0,0,0,0,0
1.12594,407.0482800252891,12.351495403915736,297.65893489206405,0,0,0,0,0,0,0,0
1.1259599999999998,407.16685223330967,12.356479208213727,297.0841256701845,0,0,0,0,0,0,0,0
1.12598,407.2852456353857,12.33922370941627,296.49758807570765,0,0,0,0,0,0,0,0
1.126,407.4029642476152,12.299350735321202,295.89934526414424,0,0,0,0,0,0,0,0
1.12602,407.51950405300886,12.236495093998125,295.2894208530851,0,0,0,0,0,0,0,0
1.12604,407.6343532939133,12.150304779921749,294.66783892131275,0,0,0,0,0,0,0,0
1.1260599999999998,407.7442819399061,12.176322834311437,294.034624007812,0,0,0,0,0,0,0,0
1.12608,407.854478410681,12.17839641856784,293.3898011108176,0,0,0,0,0,0,0,0
1.1261,407.96441610383465,12.156141152481473,292.733395686845,0,0,0,0,0,0,0,0
1.12612,408.07356037967605,12.109186282763249,292.06543364964443,0,0,0,0,0,0,0,0
1.12614,408.1813688637607,12.037174886260903,291.3859413692257,0,0,0,0,0,0,0,0
1.12616,408.2861128597454,12.007797089550806,290.6949456707681,0,0,0,0,0,0,0,0
1.12618,408.389456824538,12.020760659944743,289.9924738336112,0,0,0,0,0,0,0,0
1.1262,408.4927622703855,12.007671251015974,289.2785535901341,0,0,0,0,0,0,0,0
1.12622,408.5954647880951,11.968157830748934,288.55321312467896,0,0,0,0,0,0,0,0
1.12624,408.69699235574575,11.901863797678468,287.8164810724585,0,0,0,0,0,0,0,0
1.12626,202.0830946084316,14.70551122783632,287.0683865183725,0,0,1,0,0,0,0,0
1.12628,44.54709392399469,22.523234387069856,286.30895899594003,0,0,1,0,0,0,0,0
1.1263,10.006352403376534,31.66518338298201,285.538228486053,0,0,1,0,0,0,0,0
1.12632,2.4909206141431275,41.07535380553294,284.75622541580407,0,0,1,0,0,0,0,0
1.12634,0.913484929641077,50.52142666897845,283.9629806573706,0,0,1,0,0,0,0,0
1.12636,0.6405636034105295,59.9520708661662,283.15852552667604,0,0,1,0,0,0,0,0
1.12638,0.6666033389635511,69.35586237162892,282.34289178224606,0,0,1,0,0,0,0,0
1.1263999999999998,0.7564908328578409,78.72985326663625,281.5161116238971,0,0,1,0,0,0,0,0
1.12642,0.8498224712522271,88.07301823391866,280.6782176914864,0,0,1,0,0,0,0,0
1.12644,0.9430242636387504,97.38495839887187,279.82924306364697,0,0,1,0,0,0,0,0
1.12646,1.0359201770782798,106.6653134934264,278.96922125642806,0,0,1,0,0,0,0,0
1.12648,1.1284983077154334,115.9137262986154,278.09818622203363,0,0,1,0,0,0,0,0
1.1265,1.2207546908661688,125.12984094060982,277.2161723474196,0,0,1,0,0,0,0,0
1.12652,1.3126857573657147,134.31330282178837,276.32321445299925,0,0,1,0,0,0,0,0
1.12654,1.4042879693525476,143.46375863072802,275.4193477912137,0,0,1,0,0,0,0,0
1.12656,1.4955578028100798,152.58085635596134,274.50460804516246,0,0,1,0,0,0,0,0
1.12658,1.5864917468558253,161.66424529986426,273.5790313272212,0,0,1,0,0,0,0,0
1.1266,1.6770863038389547,170.71357609250188,272.6426541775569,0,0,1,0,0,0,0,0
1.12662,1.7673379894764192,179.72850070542157,271.69551356275326,0,0,1,0,0,0,0,0
1.12664,1.8572433329903988,188.7086724653936,270.7376468742915,0,0,1,0,0,0,0,0
1.12666,1.946798877245348,197.65374606809883,269.7690919270995,0,0,1,0,0,0,0,0
1.12668,2.0360011788844727,206.5633775917612,268.78988695808573,0,0,1,0,0,0,0,0
1.1267,2.124846808465684,215.43722451072628,267.80007062456787,0,0,1,0,0,0,0,0
1.12672,2.2133323505969944,224.27494570898432,266.799682002818,0,0,1,0,0,0,0,0
1.12674,2.3014544040713734,233.0762014936391,265.7887605864569,0,0,1,0,0,0,0,0
1.12676,2.389209582001014,241.84065360831767,264.76734628492187,0,0,1,0,0,0,0,0
1.12678,2.47659451195106,250.5679652465269,263.7354794219192,0,0,1,0,0,0,0,0
1.1268,2.5636058360727616,259.2578010649499,262.69320073375746,0,0,1,0,0,0,0,0
1.12682,2.6502402112360213,267.9098271966857,261.64055136786203,0,0,1,0,0,0,0,0
1.1268399999999998,2.736494309161425,276.5237112644329,260.5775728809896,0,0,1,0,0,0,0,0
1.12686,2.822364816551624,285.09912239361034,259.5043072377006,0,0,1,0,0,0,0,0
1.12688,2.90784843522214,293.63573122541936,258.42079680873366,0,0,1,0,0,0,0,0
1.1269,2.9929418822315994,302.13320992984944,257.32708436916647,0,0,1,0,0,0,0,0
1.12692,3.07764189001134,310.59123221862194,256.22321309694274,0,0,1,0,0,0,0,0
1.12694,3.1619452064944142,319.0094733580697,255.10922657098027,0,0,1,0,0,0,0,0
1.12696,3.2458485952439875,327.38761018196027,253.98516876957984,0,0,1,0,0,0,0,0
1.12698,3.3293488355811376,335.7253211042544,252.8510840686088,0,0,1,0,0,0,0,0
1.127,3.412442722711996,344.022286131803,251.7070172397788,0,0,1,0,0,0,0,0
1.12702,3.4951270678542663,352.27818687698016,250.55301344890992,0,0,1,0,0,0,0,0
1.12704,3.5773986983631385,360.4927065702545,249.3891182540752,0,0,1,0,0,0,0,0
1.12706,3.659254457856545,368.6655300726932,248.2153776038848,0,0,1,0,0,0,0,0
1.12708,3.740691206339776,376.7963438884091,247.0318378355996,0,0,1,0,0,0,0,0
1.1271,3.821705820329472,384.8848361769344,245.838545673332,0,0,1,0,0,0,0,0
1.12712,3.9022951929768976,392.9306967655298,244.6355482262352,0,0,1,0,0,0,0,0
1.12714,3.9824562341906287,400.9336171614365,243.42289298656647,0,0,1,0,0,0,0,0
1.12716,4.0621858707586,408.8932905640548,242.2006278279006,0,0,1,0,0,0,0,0
1.1271799999999998,4.141481046469361,416.8094118770554,240.968801003162,0,0,1,0,0,0,0,0
1.1272,4.2203387222328175,424.6816777204248,239.7274611427532,0,0,1,0,0,0,0,0
1.12722,4.298755876200113,432.509786442442,238.47665725266896,0,0,1,0,0,0,0,0
