"Time / s","Vo:Measured voltage","IL:Measured current","Vin:Measured voltage","open1:Output","open3:Output","open2:Output","open4:Output","short1:Output","short2:Output","short3:Output","short4:Output"
1.1854560381744743,403.86499720327959,12.624417627493797,308.15927587006922,0,0,0,0,0,0,0,0
1.18546,404.00196348988902,12.657799916981267,307.88383294424625,0,0,0,0,0,0,0,0
1.1854799999999999,404.13950037813282,12.678318380036702,307.59623529188292,0,0,0,0,0,0,0,0
1.1855,404.27730670804755,12.685558433980649,307.29649426683136,0,0,0,0,0,0,0,0
1.1855199999999999,404.41507198107661,12.679113663507994,306.98462170236752,0,0,0,0,0,0,0,0
1.18554,404.55247655454718,12.65858607012305,306.66062991067776,0,0,0,0,0,0,0,0
1.1855599999999999,404.68919184176156,12.62358631654101,306.32453168240926,0,0,0,0,0,0,0,0
1.1855799999999999,404.82365429135393,12.641188873797081,305.97634028614164,0,0,0,0,0,0,0,0
1.1856,404.95906921403127,12.643592590207817,305.61606946787168,0,0,0,0,0,0,0,0
1.1856199999999999,405.09431060696636,12.630380128132574,305.24373345048105,0,0,0,0,0,0,0,0
1.18564,405.22778397968216,12.668681954866386,304.85934693315124,0,0,0,0,0,0,0,0
1.1856599999999999,405.36189280013144,12.690622247292524,304.46292509081087,0,0,0,0,0,0,0,0
1.1856799999999998,405.49626038208356,12.695790272743711,304.05448357351207,0,0,0,0,0,0,0,0
1.1857,405.63050096310474,12.683785393033078,303.63403850582267,0,0,0,0,0,0,0,0
1.1857199999999999,405.76421994009991,12.654217303381476,303.20160648620168,0,0,0,0,0,0,0,0
1.18574,405.89701411011913,12.606706265349011,302.7572045863169,0,0,0,0,0,0,0,0
1.1857599999999999,406.02847191630752,12.540883333640382,302.30085035040253,0,0,0,0,0,0,0,0
1.1857800000000001,406.15817369883229,12.456390576657755,301.83256179453406,0,0,0,0,0,0,0,0
1.1858,406.28391791722214,12.420576118202124,301.35235740595039,0,0,0,0,0,0,0,0
1.1858199999999999,406.40757492313242,12.433169590610268,300.8602561422943,0,0,0,0,0,0,0,0
1.18584,406.53124976129465,12.426110170906901,300.35627743087645,0,0,0,0,0,0,0,0
1.1858599999999999,406.65449747068169,12.399009026745926,299.84044116792256,0,0,0,0,0,0,0,0
1.18588,406.77686467278221,12.351489110052881,299.31276771775566,0,0,0,0,0,0,0,0
1.1859,406.89788984145139,12.28318537589743,298.7732779120297,0,0,0,0,0,0,0,0
1.1859199999999999,407.01546034804579,12.329383837257792,298.22199304887363,0,0,0,0,0,0,0,0
1.18594,407.13377274287996,12.35413585448603,297.65893489206474,0,0,0,0,0,0,0,0
1.1859599999999999,407.25234796238522,12.357039061767738,297.08412567018519,0,0,0,0,0,0,0,0
1.18598,407.37069836358671,12.337703639789584,296.49758807570845,0,0,0,0,0,0,0,0
1.1859999999999999,407.48832800728957,12.295752535378796,295.89934526414504,0,0,0,0,0,0,0,0
1.1860199999999999,407.60473294592811,12.230821674145131,295.28942085309149,0,0,0,0,0,0,0,0
1.18604,407.71940151594157,12.142560166013308,294.66783892130786,0,0,0,0,0,0,0,0
1.1860599999999999,407.82910677420853,12.166540472483595,294.03462400781279,0,0,0,0,0,0,0,0
1.18608,407.93903555475379,12.166582391971168,293.38980111081247,0,0,0,0,0,0,0,0
1.1860999999999999,408.04866141622887,12.14230260502311,292.73339568683974,0,0,0,0,0,0,0,0
1.1861199999999998,408.15744990302898,12.093331414866094,292.06543364964534,0,0,0,0,0,0,0,0
1.18614,408.26485884772262,12.019312950071978,291.38594136922035,0,0,0,0,0,0,0,0
1.1861599999999999,408.36916279157327,11.987952258364622,290.69494567076902,0,0,0,0,0,0,0,0
1.18618,408.47202733998955,11.998957916919403,289.99247383360569,0,0,0,0,0,0,0,0
1.1861999999999999,408.57481156186304,11.983922626297234,289.27855359012847,0,0,0,0,0,0,0,0
1.1862200000000001,408.67695133322133,11.942476339384985,288.55321312467322,0,0,0,0,0,0,0,0
1.18624,408.77787493836644,11.874263432526053,287.81648107245269,0,0,0,0,0,0,0,0
1.1862599999999999,408.87436365429596,11.915202260669027,287.06838651838024,0,0,0,0,0,0,0,0
1.18628,408.97139702461266,11.928754129822998,286.308958995941,0,0,0,0,0,0,0,0
1.1862999999999999,409.06838999753819,11.914538634009645,285.53822848604699,0,0,0,0,0,0,0,0
1.18632,409.16474983152295,11.872190152893806,284.75622541580509,0,0,0,0,0,0,0,0
1.18634,409.25987641375127,11.801358040869056,283.96298065737159,0,0,0,0,0,0,0,0
1.1863599999999999,409.35316258245507,11.701706808608128,283.1585255266844,0,0,0,0,0,0,0,0
1.18638,409.4428458031154,11.641142685172657,282.34289178224708,0,0,0,0,0,0,0,0
1.1863999999999999,409.53047887269912,11.619391812528368,281.5161116238981,0,0,0,0,0,0,0,0
1.18642,409.61731518395118,11.56789257492211,280.67821769148742,0,0,0,0,0,0,0,0
1.1864399999999999,409.70180801021075,11.554573670021274,279.82924306364805,0,0,0,0,0,0,0,0
1.1864599999999998,409.78404570418098,11.579130906140151,278.96922125643698,0,0,0,0,0,0,0,0
1.18648,409.86644537242091,11.572969152373757,278.09818622203471,0,0,0,0,0,0,0,0
1.1864999999999999,409.94837038144669,11.535728700857103,277.21617234742865,0,0,0,0,0,0,0,0
1.18652,410.02917708945546,11.467065545119377,276.32321445300045,0,0,0,0,0,0,0,0
1.1865399999999999,410.10821517420737,11.366651547970251,275.41934779121482,0,0,0,0,0,0,0,0
1.1865599999999998,410.18370680932924,11.302524991723235,274.50460804517201,0,0,0,0,0,0,0,0
1.18658,410.25710525507537,11.274415576088828,273.57903132722237,0,0,0,0,0,0,0,0
1.1865999999999999,410.32799229823303,11.282019369231648,272.64265417756667,0,0,0,0,0,0,0,0
1.18662,410.39777406983109,11.325048466549793,271.69551356274587,0,0,0,0,0,0,0,0
1.1866399999999999,410.46806074922324,11.334782504244576,270.73764687429275,0,0,0,0,0,0,0,0
1.18666,410.53818281086336,11.310864615117199,269.76909192709189,0,0,0,0,0,0,0,0
1.18668,410.6074640074695,11.252954043131583,268.789886958078,0,0,0,0,0,0,0,0
1.1866999999999999,410.67522169630934,11.16072629991414,267.80007062456912,0,0,0,0,0,0,0,0
1.18672,410.74076716841364,11.033873313974665,266.79968200281013,0,0,0,0,0,0,0,0
1.1867399999999999,410.80231439918373,10.940557605255577,265.78876058644892,0,0,0,0,0,0,0,0
1.18676,410.85969732447535,10.94898495326356,264.76734628491386,0,0,0,0,0,0,0,0
1.1867799999999999,410.91754805273808,10.921963285099199,263.73547942191107,0,0,0,0,0,0,0,0
1.1867999999999999,410.9729730316871,10.927621554927194,262.69320073376821,0,0,0,0,0,0,0,0
1.18682,411.02814073887845,10.897184971858103,261.64055136785373,0,0,0,0,0,0,0,0
1.1868399999999999,411.08234821283696,10.830325866663639,260.57757288098122,0,0,0,0,0,0,0,0
1.18686,411.13488656424715,10.726733060787131,259.50430723770194,0,0,0,0,0,0,0,0
1.1868799999999999,411.18504129927209,10.586112000937742,258.42079680872519,0,0,0,0,0,0,0,0
1.1868999999999998,411.22916639899427,10.613759110505027,257.32708436917778,0,0,0,0,0,0,0,0
1.18692,411.27409531482061,10.603860665813288,256.22321309694411,0,0,0,0,0,0,0,0
1.1869399999999999,411.31698381870268,10.6246071015841,255.10922657099178,0,0,0,0,0,0,0,0
1.18696,411.35989115357847,10.607164823901924,253.98516876958126,0,0,0,0,0,0,0,0
1.1869799999999999,411.40209693455046,10.551210766158064,252.85108406861022,0,0,0,0,0,0,0,0
1.1870000000000001,411.44287513533766,10.456438334204782,251.70701723978019,0,0,0,0,0,0,0,0
1.18702,411.48149440101429,10.322557530787069,250.5530134489114,0,0,0,0,0,0,0,0
1.1870399999999999,411.51476493689307,10.286439717868985,249.38911825408718,0,0,0,0,0,0,0,0
1.18706,411.54620038224556,10.279281320116363,248.21537760388628,0,0,0,0,0,0,0,0
1.1870799999999999,411.57671248224671,10.300792703339846,247.03183783560101,0,0,0,0,0,0,0,0
1.1871,411.60724255272936,10.282078420017122,245.83854567333353,0,0,0,0,0,0,0,0
1.18712,411.63705651897021,10.222826532499216,244.63554822623669,0,0,0,0,0,0,0,0
1.1871399999999999,411.66541506204817,10.122741454767887,243.42289298657909,0,0,0,0,0,0,0,0
1.18716,411.69157391910164,9.9815440648725371,242.20062782790214,0,0,0,0,0,0,0,0
1.1871799999999999,411.71342516486658,9.8675762147702031,240.96880100316352,0,0,0,0,0,0,0,0
1.1872,411.73070358089723,9.9178296602113019,239.72746114274352,0,0,0,0,0,0,0,0
1.1872199999999999,411.74849469488299,9.9262031045786152,238.47665725265918,0,0,0,0,0,0,0,0
1.1872399999999999,411.76605964612048,9.8923850104051478,237.21643871249549,0,0,0,0,0,0,0,0
1.18726,411.78265451979257,9.8160798688554092,235.9468552734767,0,0,0,0,0,0,0,0
1.1872799999999999,411.79753063147177,9.6970083047957569,234.66795705664038,0,0,0,0,0,0,0,0
1.1873,411.80861757958593,9.6035279170262449,233.37979455066375,0,0,0,0,0,0,0,0
1.1873199999999999,411.81698121493895,9.535403325865941,232.08241861002017,0,0,0,0,0,0,0,0
1.1873399999999998,411.82243137462797,9.5610009537943945,230.77588045287868,0,0,0,0,0,0,0,0
1.18736,411.82794628921238,9.542791447640008,229.46023165911666,0,0,0,0,0,0,0,0
1.1873799999999999,411.83278021896797,9.4804841761492877,228.13552416831951,0,0,0,0,0,0,0,0
1.1874,411.83618290887517,9.3738042498586136,226.80181027764678,0,0,0,0,0,0,0,0
1.1874199999999999,411.83739985819017,9.2224926124367421,225.45914263986324,0,0,0,0,0,0,0,0
1.1874400000000001,411.83280097862269,9.2321899783572654,224.10757426116396,0,0,0,0,0,0,0,0
1.18746,411.82760637873344,9.2654024360363323,222.74715849917877,0,0,0,0,0,0,0,0
1.1874799999999999,411.82258982718014,9.2532103310379821,221.37794906078034,0,0,0,0,0,0,0,0
1.1875,411.81700611166639,9.1953319212289966,220.00000000000026,0,0,0,0,0,0,0,0
1.1875199999999999,411.81010581758215,9.0915007660788945,218.61336571593307,0,0,0,0,0,0,0,0
1.18754,411.80113558061942,8.9414658091423505,217.21810095050085,0,0,0,0,0,0,0,0
1.1875599999999999,411.78748100043276,8.882232583484301,215.81426078639271,0,0,0,0,0,0,0,0
1.1875799999999999,411.77159693096064,8.8449459740380654,214.401900644802,0,0,0,0,0,0,0,0
1.1876,411.75438428677074,8.8293517494539113,212.98107628327585,0,0,0,0,0,0,0,0
1.1876199999999999,411.73656483161955,8.7665653971367856,211.55184379355296,0,0,0,0,0,0,0,0
1.18764,411.71739329791927,8.6563321296118172,210.11425959925887,0,0,0,0,0,0,0,0
1.1876599999999999,411.69496240093002,8.5670156137425284,208.66838045378211,0,0,0,0,0,0,0,0
1.1876799999999998,411.66926313337456,8.5669886375276469,207.21426343794258,0,0,0,0,0,0,0,0
1.1877,411.64321153166156,8.5187933012081061,205.75196595777697,0,0,0,0,0,0,0,0
1.1877199999999999,411.61570089913863,8.49077283018846,204.28154574231243,0,0,0,0,0,0,0,0
1.18774,411.58741157282947,8.4140766482989466,202.80306084119462,0,0,0,0,0,0,0,0
1.1877599999999999,411.55760465631698,8.2884641694374803,201.31656962250267,0,0,0,0,0,0,0,0
1.1877799999999998,411.52383212643963,8.2508645127774454,199.82213077035129,0,0,0,0,0,0,0,0
1.1878,411.48829004845436,8.2324595302848689,198.31980328260019,0,0,0,0,0,0,0,0
1.1878199999999999,411.45176612115199,8.2330005772322963,196.80964646863427,0,0,0,0,0,0,0,0
1.18784,411.41490519112062,8.1836639077830604,195.29171994677674,0,0,0,0,0,0,0,0
1.1878599999999999,411.37698029987587,8.0842114002132952,193.76608364223617,0,0,0,0,0,0,0,0
1.18788,411.33726140071036,7.9344186317760244,192.23279778448023,0,0,0,0,0,0,0,0
1.1879,411.29339917457946,7.8711547213470041,190.6919229050369,0,0,0,0,0,0,0,0
1.1879199999999999,411.24747282198734,7.8256470134608334,189.14351983499427,0,0,0,0,0,0,0,0
1.18794,411.20022353134635,7.797659538872189,187.58764970264005,0,0,0,0,0,0,0,0
1.1879599999999999,411.15224886463324,7.7184250780492976,186.02437393109119,0,0,0,0,0,0,0,0
1.18798,411.10283334881103,7.5877236535319472,184.45375423577008,0,0,0,0,0,0,0,0
1.1879999999999999,411.05026329494979,7.4738463331451293,182.8758526220814,0,0,0,0,0,0,0,0
1.1880199999999999,410.99414815239567,7.5135651206188303,181.29073138286486,0,0,0,0,0,0,0,0
1.18804,410.93824001381552,7.5011453380473547,179.69845309597841,0,0,0,0,0,0,0,0
1.1880599999999999,410.88184224910071,7.4363612877898628,178.0990806218712,0,0,0,0,0,0,0,0
1.18808,410.82425556555609,7.3189996501693892,176.49267710100096,0,0,0,0,0,0,0,0
1.1880999999999999,410.76477817421272,7.1488595282844098,174.87930595145727,0,0,0,0,0,0,0,0
1.1881199999999998,410.70052642490316,7.1310797805199817,173.25903086635594,0,0,0,0,0,0,0,0
1.18814,410.63540995763117,7.1285326437875796,171.63191581136834,0,0,0,0,0,0,0,0
1.1881599999999999,410.56994947259386,7.0725542859347748,169.99802502224014,0,0,0,0,0,0,0,0
1.18818,410.50346389348766,6.9629398551910677,168.3574230021525,0,0,0,0,0,0,0,0
1.1881999999999999,410.43526986978162,6.7994962439451889,166.71017451929364,0,0,0,0,0,0,0,0
1.1882200000000001,410.3622992639834,6.8555909658037901,165.05634460418338,0,0,0,0,0,0,0,0
1.18824,410.28971080313863,6.8574132560947403,163.39599854722491,0,0,0,0,0,0,0,0
1.1882599999999999,410.21684537337023,6.804757174020704,161.72920189602254,0,0,0,0,0,0,0,0
1.18828,410.14304168132441,6.6974278109025294,160.05602045283899,0,0,0,0,0,0,0,0
1.1882999999999999,410.06763638890175,6.5352413245766483,158.37652027204294,0,0,0,0,0,0,0,0
1.18832,409.98843322905526,6.4546722787249378,156.69076765738006,0,0,0,0,0,0,0,0
1.18834,409.90724096112336,6.4554942250963556,154.99882915955342,0,0,0,0,0,0,0,0
1.1883599999999999,409.82577305805506,6.4008512588498325,153.3007715733369,0,0,0,0,0,0,0,0
1.18838,409.74339000167328,6.2905595491027766,151.59666193512078,0,0,0,0,0,0,0,0
1.1883999999999999,409.65945045920012,6.124445652607049,149.88656752029735,0,0,0,0,0,0,0,0
1.18842,409.57146193727908,6.1071137136661005,148.17055584041958,0,0,0,0,0,0,0,0
1.1884399999999999,409.48272113691752,6.1018097295413112,146.44869464072147,0,0,0,0,0,0,0,0
1.1884599999999998,226.71796914355735,7.8254316626818738,144.72105189731928,0,0,0,0,0,0,1,0
1.18848,10.949313868719148,12.938134644854568,142.98769581457466,0,0,0,0,0,0,1,0
1.1884999999999999,0.52883828584611925,17.675411435337331,141.24869482244915,0,0,0,0,0,0,1,0
1.18852,0.025561514797027667,22.354639148080249,139.50411757369278,0,0,0,0,0,0,1,0
1.1885399999999999,0.0012589988427572057,26.975622676326285,137.75403294125971,0,0,0,0,0,0,1,0
1.1885599999999998,8.9609189567916095e-05,31.538179092106532,135.99851001547884,0,0,0,0,0,0,1,0
1.18858,3.743225169033336e-05,36.042128251203671,134.23761810137341,0,0,0,0,0,0,1,0
1.1885999999999999,4.0487145837888133e-05,40.487292062564698,132.47142671597291,0,0,0,0,0,0,1,0
1.18862,4.4873351276831579e-05,44.873495607767858,130.70000558545703,0,0,0,0,0,0,1,0
1.1886399999999999,4.920042301454071e-05,49.200565445321786,128.92342464253099,0,0,0,0,0,0,1,0
1.18866,5.3468190227544434e-05,53.468330751830436,127.14175402353619,0,0,0,0,0,0,1,0
1.18868,5.7676484433612773e-05,57.676623045139074,125.35506406581024,0,0,0,0,0,0,1,0
1.1886999999999999,6.1825139498408483e-05,61.825276190985974,123.56342530479726,0,0,0,0,0,0,1,0
1.18872,6.5913991642045216e-05,65.914126409560552,121.7669084713115,0,0,0,0,0,0,1,0
1.1887399999999999,6.9942879445553547e-05,69.943012281969359,119.96558448879389,0,0,0,0,0,0,1,0
1.18876,7.3911643857253921e-05,73.911774756609105,118.15952447039831,0,0,0,0,0,0,1,0
1.1887799999999999,7.7820128199034813e-05,77.820257155444722,116.34879971631452,0,0,0,0,0,0,1,0
1.1887999999999999,8.1668178172538794e-05,81.668305180195475,114.53348171083901,0,0,0,0,0,0,1,0
1.18882,8.5455641865254091e-05,85.455766918426534,112.71364211960187,0,0,0,0,0,0,1,0
1.1888399999999999,8.9182369756511204e-05,89.182492849545554,110.88935278678697,0,0,0,0,0,0,1,0
1.18886,9.2848214723386454e-05,92.848335850706277,109.0606857321805,0,0,0,0,0,0,1,0
1.1888799999999999,9.6453032046509346e-05,96.453151202615743,107.2277131484597,0,0,0,0,0,0,1,0
1.1888999999999998,9.9996679415776388e-05,99.996796595248327,105.39050739822709,0,0,0,0,0,0,1,0
1.18892,0.00010347901693596952,103.47913213346399,103.54914101120319,0,0,0,0,0,0,1,0
1.1889399999999999,0.00010689990713227795,106.90002034253021,101.70368668141339,0,0,0,0,0,0,1,0
1.18896,0.00011025921495572649,110.25932617355024,99.854217264184541,0,0,0,0,0,0,1,0
1.1889799999999999,0.00011355680778850646,113.55691700879399,98.000805773469366,0,0,0,0,0,0,1,0
1.1890000000000001,0.00011679255544921111,116.79266266693367,96.143525378729692,0,0,0,0,0,0,1,0
1.18902,0.0001199663301979754,119.96643540818324,94.282449402249,0,0,0,0,0,0,1,0
1.1890399999999999,0.00012307800674151885,123.0781099393415,92.417651316103345,0,0,0,0,0,0,1,0
1.18906,0.00012612746223809141,126.12756341873781,90.549204739311207,0,0,0,0,0,0,1,0
1.1890799999999999,0.00012911457630232362,129.11467546108236,88.67718343497792,0,0,0,0,0,0,1,0
1.1891,0.00013203923100997897,132.03932814221849,86.801661307265363,0,0,0,0,0,0,1,0
1.18912,0.00013490131090260988,134.90140600377862,84.922712398609605,0,0,0,0,0,0,1,0
1.1891399999999999,0.00013770070299211473,137.70079605774123,83.040410886679339,0,0,0,0,0,0,1,0
1.18916,0.00014043729676519912,140.43738779089247,81.154831081498216,0,0,0,0,0,0,1,0
1.1891799999999999,0.00014311098418773882,143.11107316918842,79.266047422562366,0,0,0,0,0,0,1,0
1.1892,0.00014572165970904479,145.72174664202083,77.374134475782384,0,0,0,0,0,0,1,0
1.1892199999999999,0.00014826922026602927,148.26930514638286,75.479166930676172,0,0,0,0,0,0,1,0
1.1892399999999999,0.00015075356528727548,150.75364811093871,73.581219597300574,0,0,0,0,0,0,1,0
1.18926,0.00015317459669700857,153.17467745999471,71.680367403349337,0,0,0,0,0,0,1,0
1.1892799999999999,0.00015553221891896596,155.53229761736975,69.776685391246673,0,0,0,0,0,0,1,0
1.1893,0.00015782633888017107,157.8264155101686,67.870248715064335,0,0,0,0,0,0,1,0
1.1893199999999999,0.00016005686601460782,160.05694057245694,65.961132637692458,0,0,0,0,0,0,1,0
1.1893399999999998,0.00016222371226679689,162.2237847488372,64.049412527747634,0,0,0,0,0,0,1,0
1.18936,0.00016432679209527057,164.32686249792363,62.135163856649058,0,0,0,0,0,0,1,0
1.1893799999999999,0.00016636602247594977,166.36609079571923,60.218462195691188,0,0,0,0,0,0,1,0
1.1894,0.00016834132290542323,168.34138913889498,58.299383212938999,0,0,0,0,0,0,1,0
1.1894199999999999,0.00017025261540412379,170.25267954796615,56.378002670379466,0,0,0,0,0,0,1,0
1.1894400000000001,0.00017209982451940912,172.09988657037277,54.454396420791717,0,0,0,0,0,0,1,0
1.1894560381744741,0.00017209982451940912,172.09988657037277,54.454396420791717,0,0,0,0,0,0,1,0
