"Time / s","Vo:Measured voltage","IL:Measured current","Vin:Measured voltage","open1:Output","open3:Output","open2:Output","open4:Output","short1:Output","short2:Output","short3:Output","short4:Output"
1.1857136877857695,405.63050096310474,12.683785393033078,303.63403850582267,0,0,0,0,0,0,0,0
1.1857199999999999,405.76421994009991,12.654217303381476,303.20160648620168,0,0,0,0,0,0,0,0
1.18574,405.89701411011913,12.606706265349011,302.7572045863169,0,0,0,0,0,0,0,0
1.1857599999999999,406.02847191630752,12.540883333640382,302.30085035040253,0,0,0,0,0,0,0,0
1.1857800000000001,406.15817369883229,12.456390576657755,301.83256179453406,0,0,0,0,0,0,0,0
1.1858,406.28391791722214,12.420576118202124,301.35235740595039,0,0,0,0,0,0,0,0
1.1858199999999999,406.40757492313242,12.433169590610268,300.8602561422943,0,0,0,0,0,0,0,0
1.18584,406.53124976129465,12.426110170906901,300.35627743087645,0,0,0,0,0,0,0,0
1.1858599999999999,406.65449747068169,12.399009026745926,299.84044116792256,0,0,0,0,0,0,0,0
1.18588,406.77686467278221,12.351489110052881,299.31276771775566,0,0,0,0,0,0,0,0
1.1859,406.89788984145139,12.28318537589743,298.7732779120297,0,0,0,0,0,0,0,0
1.1859199999999999,407.01546034804579,12.329383837257792,298.22199304887363,0,0,0,0,0,0,0,0
1.18594,407.13377274287996,12.35413585448603,297.65893489206474,0,0,0,0,0,0,0,0
1.1859599999999999,407.25234796238522,12.357039061767738,297.08412567018519,0,0,0,0,0,0,0,0
1.18598,407.37069836358671,12.337703639789584,296.49758807570845,0,0,0,0,0,0,0,0
1.1859999999999999,407.48832800728957,12.295752535378796,295.89934526414504,0,0,0,0,0,0,0,0
1.1860199999999999,407.60473294592811,12.230821674145131,295.28942085309149,0,0,0,0,0,0,0,0
1.18604,407.71940151594157,12.142560166013308,294.66783892130786,0,0,0,0,0,0,0,0
1.1860599999999999,407.82910677420853,12.166540472483595,294.03462400781279,0,0,0,0,0,0,0,0
1.18608,407.93903555475379,12.166582391971168,293.38980111081247,0,0,0,0,0,0,0,0
1.1860999999999999,408.04866141622887,12.14230260502311,292.73339568683974,0,0,0,0,0,0,0,0
1.1861199999999998,408.15744990302898,12.093331414866094,292.06543364964534,0,0,0,0,0,0,0,0
1.18614,408.26485884772262,12.019312950071978,291.38594136922035,0,0,0,0,0,0,0,0
1.1861599999999999,408.36916279157327,11.987952258364622,290.69494567076902,0,0,0,0,0,0,0,0
1.18618,408.47202733998955,11.998957916919403,289.99247383360569,0,0,0,0,0,0,0,0
1.1861999999999999,408.57481156186304,11.983922626297234,289.27855359012847,0,0,0,0,0,0,0,0
1.1862200000000001,408.67695133322133,11.942476339384985,288.55321312467322,0,0,0,0,0,0,0,0
1.18624,408.77787493836644,11.874263432526053,287.81648107245269,0,0,0,0,0,0,0,0
1.1862599999999999,408.87436365429596,11.915202260669027,287.06838651838024,0,0,0,0,0,0,0,0
1.18628,408.97139702461266,11.928754129822998,286.308958995941,0,0,0,0,0,0,0,0
1.1862999999999999,409.06838999753819,11.914538634009645,285.53822848604699,0,0,0,0,0,0,0,0
1.18632,409.16474983152295,11.872190152893806,284.75622541580509,0,0,0,0,0,0,0,0
1.18634,409.25987641375127,11.801358040869056,283.96298065737159,0,0,0,0,0,0,0,0
1.1863599999999999,409.35316258245507,11.701706808608128,283.1585255266844,0,0,0,0,0,0,0,0
1.18638,409.4428458031154,11.641142685172657,282.34289178224708,0,0,0,0,0,0,0,0
1.1863999999999999,409.53047887269912,11.619391812528368,281.5161116238981,0,0,0,0,0,0,0,0
1.18642,409.61731518395118,11.56789257492211,280.67821769148742,0,0,0,0,0,0,0,0
1.1864399999999999,409.70180801021075,11.554573670021274,279.82924306364805,0,0,0,0,0,0,0,0
1.1864599999999998,409.78404570418098,11.579130906140151,278.96922125643698,0,0,0,0,0,0,0,0
1.18648,409.86644537242091,11.572969152373757,278.09818622203471,0,0,0,0,0,0,0,0
1.1864999999999999,409.94837038144669,11.535728700857103,277.21617234742865,0,0,0,0,0,0,0,0
1.18652,410.02917708945546,11.467065545119377,276.32321445300045,0,0,0,0,0,0,0,0
1.1865399999999999,410.10821517420737,11.366651547970251,275.41934779121482,0,0,0,0,0,0,0,0
1.1865599999999998,410.18370680932924,11.302524991723235,274.50460804517201,0,0,0,0,0,0,0,0
1.18658,410.25710525507537,11.274415576088828,273.57903132722237,0,0,0,0,0,0,0,0
1.1865999999999999,410.32799229823303,11.282019369231648,272.64265417756667,0,0,0,0,0,0,0,0
1.18662,410.39777406983109,11.325048466549793,271.69551356274587,0,0,0,0,0,0,0,0
1.1866399999999999,410.46806074922324,11.334782504244576,270.73764687429275,0,0,0,0,0,0,0,0
1.18666,410.53818281086336,11.310864615117199,269.76909192709189,0,0,0,0,0,0,0,0
1.18668,410.6074640074695,11.252954043131583,268.789886958078,0,0,0,0,0,0,0,0
1.1866999999999999,410.67522169630934,11.16072629991414,267.80007062456912,0,0,0,0,0,0,0,0
1.18672,410.74076716841364,11.033873313974665,266.79968200281013,0,0,0,0,0,0,0,0
1.1867399999999999,410.80231439918373,10.940557605255577,265.78876058644892,0,0,0,0,0,0,0,0
1.18676,410.85969732447535,10.94898495326356,264.76734628491386,0,0,0,0,0,0,0,0
1.1867799999999999,410.91754805273808,10.921963285099199,263.73547942191107,0,0,0,0,0,0,0,0
1.1867999999999999,410.9729730316871,10.927621554927194,262.69320073376821,0,0,0,0,0,0,0,0
1.18682,411.02814073887845,10.897184971858103,261.64055136785373,0,0,0,0,0,0,0,0
1.1868399999999999,411.08234821283696,10.830325866663639,260.57757288098122,0,0,0,0,0,0,0,0
1.18686,411.13488656424715,10.726733060787131,259.50430723770194,0,0,0,0,0,0,0,0
1.1868799999999999,411.18504129927209,10.586112000937742,258.42079680872519,0,0,0,0,0,0,0,0
1.1868999999999998,411.22916639899427,10.613759110505027,257.32708436917778,0,0,0,0,0,0,0,0
1.18692,411.27409531482061,10.603860665813288,256.22321309694411,0,0,0,0,0,0,0,0
1.1869399999999999,411.31698381870268,10.6246071015841,255.10922657099178,0,0,0,0,0,0,0,0
1.18696,411.35989115357847,10.607164823901924,253.98516876958126,0,0,0,0,0,0,0,0
1.1869799999999999,411.40209693455046,10.551210766158064,252.85108406861022,0,0,0,0,0,0,0,0
1.1870000000000001,411.44287513533766,10.456438334204782,251.70701723978019,0,0,0,0,0,0,0,0
1.18702,411.48149440101429,10.322557530787069,250.5530134489114,0,0,0,0,0,0,0,0
1.1870399999999999,411.51476493689307,10.286439717868985,249.38911825408718,0,0,0,0,0,0,0,0
1.18706,411.54620038224556,10.279281320116363,248.21537760388628,0,0,0,0,0,0,0,0
1.1870799999999999,411.57671248224671,10.300792703339846,247.03183783560101,0,0,0,0,0,0,0,0
1.1871,411.60724255272936,10.282078420017122,245.83854567333353,0,0,0,0,0,0,0,0
1.18712,411.63705651897021,10.222826532499216,244.63554822623669,0,0,0,0,0,0,0,0
1.1871399999999999,411.66541506204817,10.122741454767887,243.42289298657909,0,0,0,0,0,0,0,0
1.18716,411.69157391910164,9.9815440648725371,242.20062782790214,0,0,0,0,0,0,0,0
1.1871799999999999,411.71342516486658,9.8675762147702031,240.96880100316352,0,0,0,0,0,0,0,0
1.1872,411.73070358089723,9.9178296602113019,239.72746114274352,0,0,0,0,0,0,0,0
1.1872199999999999,411.74849469488299,9.9262031045786152,238.47665725265918,0,0,0,0,0,0,0,0
1.1872399999999999,411.76605964612048,9.8923850104051478,237.21643871249549,0,0,0,0,0,0,0,0
1.18726,411.78265451979257,9.8160798688554092,235.9468552734767,0,0,0,0,0,0,0,0
1.1872799999999999,411.79753063147177,9.6970083047957569,234.66795705664038,0,0,0,0,0,0,0,0
1.1873,411.80861757958593,9.6035279170262449,233.37979455066375,0,0,0,0,0,0,0,0
1.1873199999999999,411.81698121493895,9.535403325865941,232.08241861002017,0,0,0,0,0,0,0,0
1.1873399999999998,411.82243137462797,9.5610009537943945,230.77588045287868,0,0,0,0,0,0,0,0
1.18736,411.82794628921238,9.542791447640008,229.46023165911666,0,0,0,0,0,0,0,0
1.1873799999999999,411.83278021896797,9.4804841761492877,228.13552416831951,0,0,0,0,0,0,0,0
1.1874,411.83618290887517,9.3738042498586136,226.80181027764678,0,0,0,0,0,0,0,0
1.1874199999999999,411.83739985819017,9.2224926124367421,225.45914263986324,0,0,0,0,0,0,0,0
1.1874400000000001,411.83280097862269,9.2321899783572654,224.10757426116396,0,0,0,0,0,0,0,0
1.18746,411.82760637873344,9.2654024360363323,222.74715849917877,0,0,0,0,0,0,0,0
1.1874799999999999,411.82258982718014,9.2532103310379821,221.37794906078034,0,0,0,0,0,0,0,0
1.1875,411.81700611166639,9.1953319212289966,220.00000000000026,0,0,0,0,0,0,0,0
1.1875199999999999,411.81010581758215,9.0915007660788945,218.61336571593307,0,0,0,0,0,0,0,0
1.18754,411.80113558061942,8.9414658091423505,217.21810095050085,0,0,0,0,0,0,0,0
1.1875599999999999,411.78748100043276,8.882232583484301,215.81426078639271,0,0,0,0,0,0,0,0
1.1875799999999999,411.77159693096064,8.8449459740380654,214.401900644802,0,0,0,0,0,0,0,0
1.1876,411.75438428677074,8.8293517494539113,212.98107628327585,0,0,0,0,0,0,0,0
1.1876199999999999,411.73656483161955,8.7665653971367856,211.55184379355296,0,0,0,0,0,0,0,0
1.18764,411.71739329791927,8.6563321296118172,210.11425959925887,0,0,0,0,0,0,0,0
1.1876599999999999,411.69496240093002,8.5670156137425284,208.66838045378211,0,0,0,0,0,0,0,0
1.1876799999999998,411.66926313337456,8.5669886375276469,207.21426343794258,0,0,0,0,0,0,0,0
1.1877,411.64321153166156,8.5187933012081061,205.75196595777697,0,0,0,0,0,0,0,0
1.1877199999999999,411.61570089913863,8.49077283018846,204.28154574231243,0,0,0,0,0,0,0,0
1.18774,411.58741157282947,8.4140766482989466,202.80306084119462,0,0,0,0,0,0,0,0
1.1877599999999999,411.55760465631698,8.2884641694374803,201.31656962250267,0,0,0,0,0,0,0,0
1.1877799999999998,411.52383212643963,8.2508645127774454,199.82213077035129,0,0,0,0,0,0,0,0
1.1878,411.48829004845436,8.2324595302848689,198.31980328260019,0,0,0,0,0,0,0,0
1.1878199999999999,411.45176612115199,8.2330005772322963,196.80964646863427,0,0,0,0,0,0,0,0
1.18784,411.41490519112062,8.1836639077830604,195.29171994677674,0,0,0,0,0,0,0,0
1.1878599999999999,411.37698029987587,8.0842114002132952,193.76608364223617,0,0,0,0,0,0,0,0
1.18788,411.33726140071036,7.9344186317760244,192.23279778448023,0,0,0,0,0,0,0,0
1.1879,411.29339917457946,7.8711547213470041,190.6919229050369,0,0,0,0,0,0,0,0
1.1879199999999999,411.24747282198734,7.8256470134608334,189.14351983499427,0,0,0,0,0,0,0,0
1.18794,411.20022353134635,7.797659538872189,187.58764970264005,0,0,0,0,0,0,0,0
1.1879599999999999,411.15224886463324,7.7184250780492976,186.02437393109119,0,0,0,0,0,0,0,0
1.18798,411.10283334881103,7.5877236535319472,184.45375423577008,0,0,0,0,0,0,0,0
1.1879999999999999,411.05026329494979,7.4738463331451293,182.8758526220814,0,0,0,0,0,0,0,0
1.1880199999999999,410.99414815239567,7.5135651206188303,181.29073138286486,0,0,0,0,0,0,0,0
1.18804,410.93824001381552,7.5011453380473547,179.69845309597841,0,0,0,0,0,0,0,0
1.1880599999999999,410.88184224910071,7.4363612877898628,178.0990806218712,0,0,0,0,0,0,0,0
1.18808,410.82425556555609,7.3189996501693892,176.49267710100096,0,0,0,0,0,0,0,0
1.1880999999999999,410.76477817421272,7.1488595282844098,174.87930595145727,0,0,0,0,0,0,0,0
1.1881199999999998,410.70052642490316,7.1310797805199817,173.25903086635594,0,0,0,0,0,0,0,0
1.18814,410.63540995763117,7.1285326437875796,171.63191581136834,0,0,0,0,0,0,0,0
1.1881599999999999,410.56994947259386,7.0725542859347748,169.99802502224014,0,0,0,0,0,0,0,0
1.18818,410.50346389348766,6.9629398551910677,168.3574230021525,0,0,0,0,0,0,0,0
1.1881999999999999,410.43526986978162,6.7994962439451889,166.71017451929364,0,0,0,0,0,0,0,0
1.1882200000000001,410.3622992639834,6.8555909658037901,165.05634460418338,0,0,0,0,0,0,0,0
1.18824,410.28971080313863,6.8574132560947403,163.39599854722491,0,0,0,0,0,0,0,0
1.1882599999999999,410.21684537337023,6.804757174020704,161.72920189602254,0,0,0,0,0,0,0,0
1.18828,410.14304168132441,6.6974278109025294,160.05602045283899,0,0,0,0,0,0,0,0
1.1882999999999999,410.06763638890175,6.5352413245766483,158.37652027204294,0,0,0,0,0,0,0,0
1.18832,409.98843322905526,6.4546722787249378,156.69076765738006,0,0,0,0,0,0,0,0
1.18834,409.90724096112336,6.4554942250963556,154.99882915955342,0,0,0,0,0,0,0,0
1.1883599999999999,409.82577305805506,6.4008512588498325,153.3007715733369,0,0,0,0,0,0,0,0
1.18838,409.74339000167328,6.2905595491027766,151.59666193512078,0,0,0,0,0,0,0,0
1.1883999999999999,409.65945045920012,6.124445652607049,149.88656752029735,0,0,0,0,0,0,0,0
1.18842,409.57146193727908,6.1071137136661005,148.17055584041958,0,0,0,0,0,0,0,0
1.1884399999999999,409.48272113691752,6.1018097295413112,146.44869464072147,0,0,0,0,0,0,0,0
1.1884599999999998,409.39365171207868,6.040087351552236,144.72105189731928,0,0,0,0,0,0,0,0
1.18848,409.3036374944752,5.9217746914352647,142.98769581457466,0,0,0,0,0,0,0,0
1.1884999999999999,409.21206072723101,5.7467095774601837,141.24869482244915,0,0,0,0,0,0,0,0
1.18852,409.11670565230344,5.719281798370603,139.50411757369278,0,0,0,0,0,0,0,0
1.1885399999999999,409.02041347286229,5.7028871914441392,137.75403294125971,0,0,0,0,0,0,0,0
1.1885599999999998,408.92369678024028,5.6291687957668817,135.99851001547884,0,0,0,0,0,0,0,0
1.18858,408.82596441904911,5.4979672784013527,134.23761810137341,0,0,0,0,0,0,0,0
1.1885999999999999,408.72604060237541,5.3772477323591854,132.47142671597291,0,0,0,0,0,0,0,0
1.18862,408.62334702859283,5.4030236669221621,130.70000558545703,0,0,0,0,0,0,0,0
1.1886399999999999,408.52066389937272,5.37076173191151,128.92342464253099,0,0,0,0,0,0,0,0
1.18866,408.41742777704468,5.2803071677008919,127.14175402353619,0,0,0,0,0,0,0,0
1.18868,408.31307397746542,5.1315136067468909,125.35506406581024,0,0,0,0,0,0,0,0
1.1886999999999999,408.20625447972424,5.060304541961588,123.56342530479726,0,0,0,0,0,0,0,0
1.18872,236.55250744804155,3.1114260990721063,121.7669084713115,0,0,0,0,1,0,0,0
1.1887399999999999,110.91833494341792,2.216328272776781,119.96558448879389,0,0,0,0,1,0,0,0
1.18876,107.6390851515438,2.5700260257982279,118.15952447039831,0,0,0,0,1,0,0,0
1.1887799999999999,106.06416826906785,2.9436627132691329,116.34879971631452,0,0,0,0,1,0,0,0
1.1887999999999999,104.52470502454258,3.308377995671353,114.53348171083901,0,0,0,0,1,0,0,0
1.18882,104.59009225003851,3.6106211558803851,112.71364211960187,0,0,0,0,1,0,0,0
1.1888399999999999,103.09244169496557,3.9020798097433942,110.88935278678697,0,0,0,0,1,0,0,0
1.18886,103.1752374184355,4.1301501701943053,109.0606857321805,0,0,0,0,1,0,0,0
1.1888799999999999,101.71398284195125,4.3458945083985432,107.2277131484597,0,0,0,0,1,0,0,0
1.1888999999999998,100.28000326084562,4.5228682976174293,105.39050739822709,0,0,0,0,1,0,0,0
1.18892,100.38131033185221,4.6608633569813742,103.54914101120319,0,0,0,0,1,0,0,0
1.1889399999999999,98.977787138472792,4.7841451069233107,101.70368668141339,0,0,0,0,1,0,0,0
1.18896,97.597734682628683,4.8670827768868774,99.854217264184541,0,0,0,0,1,0,0,0
1.1889799999999999,97.7090412533815,4.9095677064387955,98.000805773469366,0,0,0,0,1,0,0,0
1.1890000000000001,96.352753524391019,4.9353210304989128,96.143525378729692,0,0,0,0,1,0,0,0
1.18902,95.016211128754733,4.9194967413255482,94.282449402249,0,0,0,0,1,0,0,0
1.1890399999999999,93.699520488051562,4.8857950103903613,92.417651316103345,0,0,0,0,1,0,0,0
1.18906,92.401826447153155,4.833445434046471,90.549204739311207,0,0,0,0,1,0,0,0
1.1890799999999999,91.122264332547047,4.761708732551245,88.67718343497792,0,0,0,0,1,0,0,0
1.1891,89.859961039533189,4.6698770540130461,86.801661307265363,0,0,0,0,1,0,0,0
1.18912,88.615602985115572,4.5797666864573543,84.922712398609605,0,0,0,0,1,0,0,0
1.1891399999999999,87.387359026583326,4.4678665115868545,83.040410886679339,0,0,0,0,1,0,0,0
1.18916,84.879762858141106,4.3550215793510123,81.154831081498216,0,0,0,0,1,0,0,0
1.1891799999999999,83.700764724447708,4.2189217907012981,79.266047422562366,0,0,0,0,1,0,0,0
1.1892,81.296987674735348,4.1003995598067977,77.374134475782384,0,0,0,0,1,0,0,0
1.1892199999999999,80.165433594249961,3.9568118992368326,75.479166930676172,0,0,0,0,1,0,0,0
1.1892399999999999,77.860428872054598,3.8272792123252986,73.581219597300574,0,0,0,0,1,0,0,0
1.18926,76.774734895876307,3.6904648087627665,71.680367403349337,0,0,0,0,1,0,0,0
1.1892799999999999,74.563928012470143,3.5448199837929022,69.776685391246673,0,0,0,0,1,0,0,0
1.1893,72.415670925543196,3.4077761085151694,67.870248715064335,0,0,0,0,1,0,0,0
1.1893199999999999,70.32830013650161,3.2772006898249755,65.961132637692458,0,0,0,0,1,0,0,0
1.1893399999999998,68.300139157543711,3.1510190037535821,64.049412527747634,0,0,0,0,1,0,0,0
1.18936,66.329500647234326,3.0272144931313489,62.135163856649058,0,0,0,0,1,0,0,0
1.1893799999999999,64.414688492453436,2.9038290953836556,60.218462195691188,0,0,0,0,1,0,0,0
1.1894,62.553999836270208,2.7789635022414703,58.299383212938999,0,0,0,0,1,0,0,0
1.1894199999999999,60.745727051352596,2.6507773531619527,56.378002670379466,0,0,0,0,1,0,0,0
1.1894400000000001,58.988159658594213,2.5174893642664267,54.454396420791717,0,0,0,0,1,0,0,0
1.18946,56.419003281685107,2.3917980746970877,52.528640404891547,0,0,0,0,1,0,0,0
1.1894799999999999,54.784572146792669,2.2712263616030204,50.600810648211649,0,0,0,0,1,0,0,0
1.1895,52.396492501819637,2.1530675579671037,48.670983258134896,0,0,0,0,1,0,0,0
1.1895199999999999,50.111494059304299,2.0350852649966069,46.7392344210296,0,0,0,0,1,0,0,0
1.18954,47.925510871588614,1.9271838572846276,44.805640398927288,0,0,0,0,1,0,0,0
1.18956,45.834357063888291,1.8260726481188181,42.870277526896551,0,0,0,0,1,0,0,0
1.1895799999999999,43.833938897149693,1.728601499429768,40.933222209714742,0,0,0,0,1,0,0,0
1.1896,41.920254757939972,1.6317577523269182,38.994550918991465,0,0,0,0,1,0,0,0
1.1896199999999999,39.487046953937579,1.5429099333858083,37.05434019018481,0,0,0,0,1,0,0,0
1.18964,37.762772113914757,1.4584338852903229,35.11266661945708,0,0,0,0,1,0,0,0
1.1896599999999999,35.570502862156815,1.3746637964561024,33.169606860791305,0,0,0,0,1,0,0,0
1.1896799999999998,33.505557590730149,1.297032905633168,31.225237622842133,0,0,0,0,1,0,0,0
1.1897,31.56052258309645,1.2213793318209618,29.279635665960193,0,0,0,0,1,0,0,0
1.1897136877857692,31.56052258309645,1.2213793318209618,29.279635665960193,0,0,0,0,1,0,0,0
