"Time / s","Vo:Measured voltage","IL:Measured current","Vin:Measured voltage","open1:Output","open3:Output","open2:Output","open4:Output","short1:Output","short2:Output","short3:Output","short4:Output"
1.184677975758639,398.01613005655139,12.892485776493707,309.35380582869942,0,0,0,0,0,0,0,0
1.18468,398.1671625578137,12.922639894912937,309.55610886460818,0,0,0,0,0,0,0,0
1.1846999999999999,398.32013471887296,12.889050871678668,309.74619115538405,0,0,0,0,0,0,0,0
1.18472,398.47102809849736,12.924025666117844,309.92404519690513,0,0,0,0,0,0,0,0
1.1847399999999999,398.62396496636757,12.894393357155391,310.08966396779527,0,0,0,0,0,0,0,0
1.18476,398.77490647225363,12.932559350939199,310.24304092971198,0,0,0,0,0,0,0,0
1.1847799999999999,398.92795784703594,12.905249139225138,310.38417002759252,0,0,0,0,0,0,0,0
1.1847999999999999,399.08031242755345,12.87847073401382,310.51304568990338,0,0,0,0,0,0,0,0
1.18482,399.23151229752165,12.918351884941094,310.62966282885498,0,0,0,0,0,0,0,0
1.1848399999999999,399.38406090326561,12.891451965903782,310.73401684060025,0,0,0,0,0,0,0,0
1.18486,399.53465676311214,12.930443739673406,310.82610360542418,0,0,0,0,0,0,0,0
1.1848799999999999,399.68735666087082,12.901798231717692,310.90591948789489,0,0,0,0,0,0,0,0
1.1848999999999998,399.83805205729817,12.938273766767168,310.97346133702132,0,0,0,0,0,0,0,0
1.18492,399.99078323394076,12.906241687090807,311.02872648636708,0,0,0,0,0,0,0,0
1.1849399999999999,400.14220583186574,12.938559442906358,311.07171275415658,0,0,0,0,0,0,0,0
1.18496,400.29477035607289,12.901487152271448,311.10241844336696,0,0,0,0,0,0,0,0
1.1849799999999999,400.44589964016183,12.928002997481977,311.12084234178963,0,0,0,0,0,0,0,0
1.1850000000000001,400.59676845853295,12.951019191890037,311.12698372208092,0,0,0,0,0,0,0,0
1.18502,400.74807558235403,12.970130499733131,311.12084234178963,0,0,0,0,0,0,0,0
1.1850399999999999,400.90098348798642,12.918117413074343,311.1024184433669,0,0,0,0,0,0,0,0
1.18506,401.05208359265049,12.92815283094551,311.07171275415658,0,0,0,0,0,0,0,0
1.1850799999999999,401.20330274228508,12.933054270634461,311.02872648636708,0,0,0,0,0,0,0,0
1.1851,401.3545155395758,12.932411332128204,310.97346133702189,0,0,0,0,0,0,0,0
1.18512,401.50558703842762,12.925817073664392,310.90591948789552,0,0,0,0,0,0,0,0
1.1851399999999999,401.65637283185407,12.912868273173755,310.82610360542407,0,0,0,0,0,0,0,0
1.18516,401.80546291385008,12.960116984634874,310.73401684060104,0,0,0,0,0,0,0,0
1.1851799999999999,401.95599490303505,12.93327663006521,310.62966282885594,0,0,0,0,0,0,0,0
1.1852,402.10527879066382,12.965873951092171,310.5130456899044,0,0,0,0,0,0,0,0
1.1852199999999999,402.2556528552285,12.923515359303517,310.38417002759371,0,0,0,0,0,0,0,0
1.1852399999999998,402.40440782254723,12.939837178649061,310.24304092971323,0,0,0,0,0,0,0,0
1.18526,402.55338650920459,12.94742829436534,310.08966396779664,0,0,0,0,0,0,0,0
1.1852799999999999,402.70238037630054,12.945878144253712,309.9240451969066,0,0,0,0,0,0,0,0
1.1853,402.85117145209716,12.934781881111407,309.74619115538559,0,0,0,0,0,0,0,0
1.1853199999999999,402.99953247190007,12.913740628715681,309.55610886460988,0,0,0,0,0,0,0,0
1.1853399999999998,403.1472270238325,12.882361734113706,309.35380582870124,0,0,0,0,0,0,0,0
1.18536,403.29400970038091,12.840259016067661,309.1392900342351,0,0,0,0,0,0,0,0
1.1853799999999999,403.43962625564041,12.787053009507979,308.91256994993165,0,0,0,0,0,0,0,0
1.1854,403.58381376815237,12.722371205849045,308.67365452630753,0,0,0,0,0,0,0,0
1.1854199999999999,403.72630080923858,12.645848289024906,308.42255319533882,0,0,0,0,0,0,0,0
1.18544,403.86499720327959,12.624417627493797,308.15927587006922,0,0,0,0,0,0,0,0
1.18546,404.00196348988902,12.657799916981267,307.88383294424625,0,0,0,0,0,0,0,0
1.1854799999999999,404.13950037813282,12.678318380036702,307.59623529188292,0,0,0,0,0,0,0,0
1.1855,404.27730670804755,12.685558433980649,307.29649426683136,0,0,0,0,0,0,0,0
1.1855199999999999,404.41507198107661,12.679113663507994,306.98462170236752,0,0,0,0,0,0,0,0
1.18554,404.55247655454718,12.65858607012305,306.66062991067776,0,0,0,0,0,0,0,0
1.1855599999999999,404.68919184176156,12.62358631654101,306.32453168240926,0,0,0,0,0,0,0,0
1.1855799999999999,404.82365429135393,12.641188873797081,305.97634028614164,0,0,0,0,0,0,0,0
1.1856,404.95906921403127,12.643592590207817,305.61606946787168,0,0,0,0,0,0,0,0
1.1856199999999999,405.09431060696636,12.630380128132574,305.24373345048105,0,0,0,0,0,0,0,0
1.18564,405.22778397968216,12.668681954866386,304.85934693315124,0,0,0,0,0,0,0,0
1.1856599999999999,405.36189280013144,12.690622247292524,304.46292509081087,0,0,0,0,0,0,0,0
1.1856799999999998,405.49626038208356,12.695790272743711,304.05448357351207,0,0,0,0,0,0,0,0
1.1857,405.63050096310474,12.683785393033078,303.63403850582267,0,0,0,0,0,0,0,0
1.1857199999999999,405.76421994009991,12.654217303381476,303.20160648620168,0,0,0,0,0,0,0,0
1.18574,405.89701411011913,12.606706265349011,302.7572045863169,0,0,0,0,0,0,0,0
1.1857599999999999,406.02847191630752,12.540883333640382,302.30085035040253,0,0,0,0,0,0,0,0
1.1857800000000001,406.15817369883229,12.456390576657755,301.83256179453406,0,0,0,0,0,0,0,0
1.1858,406.28391791722214,12.420576118202124,301.35235740595039,0,0,0,0,0,0,0,0
1.1858199999999999,406.40757492313242,12.433169590610268,300.8602561422943,0,0,0,0,0,0,0,0
1.18584,406.53124976129465,12.426110170906901,300.35627743087645,0,0,0,0,0,0,0,0
1.1858599999999999,406.65449747068169,12.399009026745926,299.84044116792256,0,0,0,0,0,0,0,0
1.18588,406.77686467278221,12.351489110052881,299.31276771775566,0,0,0,0,0,0,0,0
1.1859,406.89788984145139,12.28318537589743,298.7732779120297,0,0,0,0,0,0,0,0
1.1859199999999999,407.01546034804579,12.329383837257792,298.22199304887363,0,0,0,0,0,0,0,0
1.18594,407.13377274287996,12.35413585448603,297.65893489206474,0,0,0,0,0,0,0,0
1.1859599999999999,407.25234796238522,12.357039061767738,297.08412567018519,0,0,0,0,0,0,0,0
1.18598,407.37069836358671,12.337703639789584,296.49758807570845,0,0,0,0,0,0,0,0
1.1859999999999999,407.48832800728957,12.295752535378796,295.89934526414504,0,0,0,0,0,0,0,0
1.1860199999999999,407.60473294592811,12.230821674145131,295.28942085309149,0,0,0,0,0,0,0,0
1.18604,407.71940151594157,12.142560166013308,294.66783892130786,0,0,0,0,0,0,0,0
1.1860599999999999,407.82910677420853,12.166540472483595,294.03462400781279,0,0,0,0,0,0,0,0
1.18608,407.93903555475379,12.166582391971168,293.38980111081247,0,0,0,0,0,0,0,0
1.1860999999999999,408.04866141622887,12.14230260502311,292.73339568683974,0,0,0,0,0,0,0,0
1.1861199999999998,408.15744990302898,12.093331414866094,292.06543364964534,0,0,0,0,0,0,0,0
1.18614,408.26485884772262,12.019312950071978,291.38594136922035,0,0,0,0,0,0,0,0
1.1861599999999999,408.36916279157327,11.987952258364622,290.69494567076902,0,0,0,0,0,0,0,0
1.18618,408.47202733998955,11.998957916919403,289.99247383360569,0,0,0,0,0,0,0,0
1.1861999999999999,408.57481156186304,11.983922626297234,289.27855359012847,0,0,0,0,0,0,0,0
1.1862200000000001,408.67695133322133,11.942476339384985,288.55321312467322,0,0,0,0,0,0,0,0
1.18624,408.77787493836644,11.874263432526053,287.81648107245269,0,0,0,0,0,0,0,0
1.1862599999999999,408.87436365429596,11.915202260669027,287.06838651838024,0,0,0,0,0,0,0,0
1.18628,408.97139702461266,11.928754129822998,286.308958995941,0,0,0,0,0,0,0,0
1.1862999999999999,409.06838999753819,11.914538634009645,285.53822848604699,0,0,0,0,0,0,0,0
1.18632,409.16474983152295,11.872190152893806,284.75622541580509,0,0,0,0,0,0,0,0
1.18634,409.25987641375127,11.801358040869056,283.96298065737159,0,0,0,0,0,0,0,0
1.1863599999999999,409.35316258245507,11.701706808608128,283.1585255266844,0,0,0,0,0,0,0,0
1.18638,409.4428458031154,11.641142685172657,282.34289178224708,0,0,0,0,0,0,0,0
1.1863999999999999,409.53047887269912,11.619391812528368,281.5161116238981,0,0,0,0,0,0,0,0
1.18642,409.61731518395118,11.56789257492211,280.67821769148742,0,0,0,0,0,0,0,0
1.1864399999999999,409.70180801021075,11.554573670021274,279.82924306364805,0,0,0,0,0,0,0,0
1.1864599999999998,409.78404570418098,11.579130906140151,278.96922125643698,0,0,0,0,0,0,0,0
1.18648,409.86644537242091,11.572969152373757,278.09818622203471,0,0,0,0,0,0,0,0
1.1864999999999999,409.94837038144669,11.535728700857103,277.21617234742865,0,0,0,0,0,0,0,0
1.18652,410.02917708945546,11.467065545119377,276.32321445300045,0,0,0,0,0,0,0,0
1.1865399999999999,410.10821517420737,11.366651547970251,275.41934779121482,0,0,0,0,0,0,0,0
1.1865599999999998,410.18370680932924,11.302524991723235,274.50460804517201,0,0,0,0,0,0,0,0
1.18658,410.25710525507537,11.274415576088828,273.57903132722237,0,0,0,0,0,0,0,0
1.1865999999999999,410.32799229823303,11.282019369231648,272.64265417756667,0,0,0,0,0,0,0,0
1.18662,410.39777406983109,11.325048466549793,271.69551356274587,0,0,0,0,0,0,0,0
1.1866399999999999,410.46806074922324,11.334782504244576,270.73764687429275,0,0,0,0,0,0,0,0
1.18666,410.53818281086336,11.310864615117199,269.76909192709189,0,0,0,0,0,0,0,0
1.18668,410.6074640074695,11.252954043131583,268.789886958078,0,0,0,0,0,0,0,0
1.1866999999999999,410.67522169630934,11.16072629991414,267.80007062456912,0,0,0,0,0,0,0,0
1.18672,410.74076716841364,11.033873313974665,266.79968200281013,0,0,0,0,0,0,0,0
1.1867399999999999,410.80231439918373,10.940557605255577,265.78876058644892,0,0,0,0,0,0,0,0
1.18676,410.85969732447535,10.94898495326356,264.76734628491386,0,0,0,0,0,0,0,0
1.1867799999999999,410.91754805273808,10.921963285099199,263.73547942191107,0,0,0,0,0,0,0,0
1.1867999999999999,410.9729730316871,10.927621554927194,262.69320073376821,0,0,0,0,0,0,0,0
1.18682,411.02814073887845,10.897184971858103,261.64055136785373,0,0,0,0,0,0,0,0
1.1868399999999999,411.08234821283696,10.830325866663639,260.57757288098122,0,0,0,0,0,0,0,0
1.18686,411.13488656424715,10.726733060787131,259.50430723770194,0,0,0,0,0,0,0,0
1.1868799999999999,411.18504129927209,10.586112000937742,258.42079680872519,0,0,0,0,0,0,0,0
1.1868999999999998,411.22916639899427,10.613759110505027,257.32708436917778,0,0,0,0,0,0,0,0
1.18692,411.27409531482061,10.603860665813288,256.22321309694411,0,0,0,0,0,0,0,0
1.1869399999999999,411.31698381870268,10.6246071015841,255.10922657099178,0,0,0,0,0,0,0,0
1.18696,411.35989115357847,10.607164823901924,253.98516876958126,0,0,0,0,0,0,0,0
1.1869799999999999,411.40209693455046,10.551210766158064,252.85108406861022,0,0,0,0,0,0,0,0
1.1870000000000001,411.44287513533766,10.456438334204782,251.70701723978019,0,0,0,0,0,0,0,0
1.18702,411.48149440101429,10.322557530787069,250.5530134489114,0,0,0,0,0,0,0,0
1.1870399999999999,411.51476493689307,10.286439717868985,249.38911825408718,0,0,0,0,0,0,0,0
1.18706,411.54620038224556,10.279281320116363,248.21537760388628,0,0,0,0,0,0,0,0
1.1870799999999999,411.57671248224671,10.300792703339846,247.03183783560101,0,0,0,0,0,0,0,0
1.1871,411.60724255272936,10.282078420017122,245.83854567333353,0,0,0,0,0,0,0,0
1.18712,411.63705651897021,10.222826532499216,244.63554822623669,0,0,0,0,0,0,0,0
1.1871399999999999,411.66541506204817,10.122741454767887,243.42289298657909,0,0,0,0,0,0,0,0
1.18716,411.69157391910164,9.9815440648725371,242.20062782790214,0,0,0,0,0,0,0,0
1.1871799999999999,411.71342516486658,9.8675762147702031,240.96880100316352,0,0,0,0,0,0,0,0
1.1872,411.73070358089723,9.9178296602113019,239.72746114274352,0,0,0,0,0,0,0,0
1.1872199999999999,411.74849469488299,9.9262031045786152,238.47665725265918,0,0,0,0,0,0,0,0
1.1872399999999999,411.76605964612048,9.8923850104051478,237.21643871249549,0,0,0,0,0,0,0,0
1.18726,411.78265451979257,9.8160798688554092,235.9468552734767,0,0,0,0,0,0,0,0
1.1872799999999999,411.79753063147177,9.6970083047957569,234.66795705664038,0,0,0,0,0,0,0,0
1.1873,411.80861757958593,9.6035279170262449,233.37979455066375,0,0,0,0,0,0,0,0
1.1873199999999999,411.81698121493895,9.535403325865941,232.08241861002017,0,0,0,0,0,0,0,0
1.1873399999999998,411.82243137462797,9.5610009537943945,230.77588045287868,0,0,0,0,0,0,0,0
1.18736,411.82794628921238,9.542791447640008,229.46023165911666,0,0,0,0,0,0,0,0
1.1873799999999999,411.83278021896797,9.4804841761492877,228.13552416831951,0,0,0,0,0,0,0,0
1.1874,411.83618290887517,9.3738042498586136,226.80181027764678,0,0,0,0,0,0,0,0
1.1874199999999999,411.83739985819017,9.2224926124367421,225.45914263986324,0,0,0,0,0,0,0,0
1.1874400000000001,411.83280097862269,9.2321899783572654,224.10757426116396,0,0,0,0,0,0,0,0
1.18746,411.82760637873344,9.2654024360363323,222.74715849917877,0,0,0,0,0,0,0,0
1.1874799999999999,411.82258982718014,9.2532103310379821,221.37794906078034,0,0,0,0,0,0,0,0
1.1875,411.81700611166639,9.1953319212289966,220.00000000000026,0,0,0,0,0,0,0,0
1.1875199999999999,411.81010581758215,9.0915007660788945,218.61336571593307,0,0,0,0,0,0,0,0
1.18754,411.80113558061942,8.9414658091423505,217.21810095050085,0,0,0,0,0,0,0,0
1.1875599999999999,411.78748100043276,8.882232583484301,215.81426078639271,0,0,0,0,0,0,0,0
1.1875799999999999,411.77159693096064,8.8449459740380654,214.401900644802,0,0,0,0,0,0,0,0
1.1876,411.75438428677074,8.8293517494539113,212.98107628327585,0,0,0,0,0,0,0,0
1.1876199999999999,411.73656483161955,8.7665653971367856,211.55184379355296,0,0,0,0,0,0,0,0
1.18764,411.71739329791927,8.6563321296118172,210.11425959925887,0,0,0,0,0,0,0,0
1.1876599999999999,411.69496240093002,8.5670156137425284,208.66838045378211,0,0,0,0,0,0,0,0
1.1876799999999998,411.66926313337456,8.5672626664374878,207.21426343794258,0,0,0,0,0,1,0,0
1.1877,28.1709668573736,15.449633623207943,205.75196595777697,0,0,0,0,0,1,0,0
1.1877199999999999,1.3606021213377164,22.283517850268971,204.28154574231243,0,0,0,0,0,1,0,0
1.18774,0.06573932300753596,29.068281333597312,202.80306084119462,0,0,0,0,0,1,0,0
1.1877599999999999,0.0032073181984541236,35.80362951575102,201.31656962250267,0,0,0,0,0,1,0,0
1.1877799999999998,0.00019356397013060489,42.489295208390509,199.82213077035129,0,0,0,0,0,1,0,0
1.1878,5.433539367265614e-05,49.125014412190268,198.31980328260019,0,0,0,0,0,1,0,0
1.1878199999999999,5.571030765750984e-05,55.710524844490763,196.80964646863427,0,0,0,0,0,1,0,0
1.18784,6.2245351551980639e-05,62.245567150923549,195.29171994677674,0,0,0,0,0,1,0,0
1.1878599999999999,6.8729669024591381e-05,68.729883026381529,193.76608364223617,0,0,0,0,0,1,0,0
1.18788,7.5163004087200181e-05,75.163216482785757,192.23279778448023,0,0,0,0,0,1,0,0
1.1879,8.1545102764363174e-05,81.545313544755899,190.6919229050369,0,0,0,0,0,1,0,0
1.1879199999999999,8.7875713103361593e-05,87.875922259636923,189.14351983499427,0,0,0,0,0,1,0,0
1.18794,9.4154585184147999e-05,94.154792707445438,187.58764970264005,0,0,0,0,0,1,0,0
1.1879599999999999,0.00010038147112921237,100.381677010736,186.02437393109119,0,0,0,0,0,1,0,0
1.18798,0.00010655612511336905,106.55632934438768,184.45375423577008,0,0,0,0,0,1,0,0
1.1879999999999999,0.0001126783033734606,112.67850594530825,182.8758526220814,0,0,0,0,0,1,0,0
1.1880199999999999,0.00011874776421798098,118.74796512205711,181.29073138286486,0,0,0,0,0,1,0,0
1.18804,0.00012476426803661759,124.76446726438756,179.69845309597841,0,0,0,0,0,1,0,0
1.1880599999999999,0.00013072757730971026,130.72777485270558,178.0990806218712,0,0,0,0,0,1,0,0
1.18808,0.00013663745661762869,136.63765246744745,176.49267710100096,0,0,0,0,0,1,0,0
1.1880999999999999,0.00014249367265006617,142.49386679837318,174.87930595145727,0,0,0,0,0,1,0,0
1.1881199999999998,0.00014829599421525077,148.29618665377808,173.25903086635594,0,0,0,0,0,1,0,0
1.18814,0.00015404419224907063,154.0443829696178,171.63191581136834,0,0,0,0,0,1,0,0
1.1881599999999999,0.00015973803982411927,159.73822881855367,169.99802502224014,0,0,0,0,0,1,0,0
1.18818,0.00016537731215865214,165.37749941890928,168.3574230021525,0,0,0,0,0,1,0,0
1.1881999999999999,0.00017096178662546295,170.9619721435468,166.71017451929364,0,0,0,0,0,1,0,0
1.1882200000000001,0.00017649124276067067,176.49142652865402,165.05634460418338,0,0,0,0,0,1,0,0
1.18824,0.00018196546227242395,181.96564428244858,163.39599854722491,0,0,0,0,0,1,0,0
1.1882599999999999,0.00018738422904951909,187.3844092937963,161.72920189602254,0,0,0,0,0,1,0,0
1.18828,0.00019274732916993071,192.74750764074145,160.05602045283899,0,0,0,0,0,1,0,0
1.1882999999999999,0.00019805455090925861,198.05472759895383,158.37652027204294,0,0,0,0,0,1,0,0
1.18832,0.00020330568474908356,203.30585965008456,156.69076765738006,0,0,0,0,0,1,0,0
1.18834,0.00020850052338524362,208.50069649004223,154.99882915955342,0,0,0,0,0,1,0,0
1.1883599999999999,0.00021363886173601367,213.63903303717282,153.3007715733369,0,0,0,0,0,1,0,0
1.18838,0.00021872049695020103,218.72066644035468,151.59666193512078,0,0,0,0,0,1,0,0
1.1883999999999999,0.00022374522841515869,223.74539608701232,149.88656752029735,0,0,0,0,0,1,0,0
1.18842,0.00022871285776470101,228.71302361103196,148.17055584041958,0,0,0,0,0,1,0,0
1.1884399999999999,0.00023362318888693617,233.62335290059377,146.44869464072147,0,0,0,0,0,1,0,0
1.1884599999999998,0.00023847602793200794,238.4761901059139,144.72105189731928,0,0,0,0,0,1,0,0
1.18848,0.00024327118331974934,243.271343646898,142.98769581457466,0,0,0,0,0,1,0,0
1.1884999999999999,0.00024800846574724516,248.00862422070375,141.24869482244915,0,0,0,0,0,1,0,0
1.18852,0.00025268768819630629,252.68784480921528,139.50411757369278,0,0,0,0,0,1,0,0
1.1885399999999999,0.00025730866594085024,257.30882068642353,137.75403294125971,0,0,0,0,0,1,0,0
1.1885599999999998,0.00026187121655419927,261.87136942572442,135.99851001547884,0,0,0,0,0,1,0,0
1.18858,0.00026637515991627354,266.37531090711212,134.23761810137341,0,0,0,0,0,1,0,0
1.1885999999999999,0.00027082031822071276,270.82046732430052,132.47142671597291,0,0,0,0,0,1,0,0
1.18862,0.00027520651598188548,275.20666319173301,130.70000558545703,0,0,0,0,0,1,0,0
1.1886399999999999,0.00027953358004182365,279.53372535151584,128.92342464253099,0,0,0,0,0,1,0,0
1.18866,0.00028380133957705715,283.80148298025415,127.14175402353619,0,0,0,0,0,1,0,0
1.1886779757586388,0.00028380133957705715,283.80148298025415,127.14175402353619,0,0,0,0,0,1,0,0
