,Unnamed: 0.1,Unnamed: 0,Time / s,Vo:Measured voltage,IL:Measured current,Vin:Measured voltage,short1:Output,short2:Output,short3:Output,short4:Output,open1:Output,open3:Output,open2:Output,open4:Output,OPEN,SHORT
0,0,0,1.1082801978492836,410.0185916516744,6.647598699557864,160.05602045284633,0,0,0,0,0,0,0,0,0,0
1,1,1,1.1082999999999998,409.94263974562506,6.487085012855888,158.3765202720503,0,0,0,0,0,0,0,0,0,0
2,2,2,1.10832,409.8624706281191,6.476459369192424,156.69076765738745,0,0,0,0,0,0,0,0,0,0
3,3,3,1.10834,409.781586049601,6.478870245763592,154.99882915954552,0,0,0,0,0,0,0,0,0,0
4,4,4,1.10836,409.7004439879561,6.425811869359298,153.30077157331357,0,0,0,0,0,0,0,0,0,0
5,5,5,1.10838,409.6184048668448,6.317100180457732,151.59666193512822,0,0,0,0,0,0,0,0,0,0
6,6,6,1.1084,409.5348272927214,6.1525615079718285,149.88656752028933,0,0,0,0,0,0,0,0,0,0
7,7,7,1.10842,409.44763220702015,6.068500739546876,148.1705558404271,0,0,0,0,0,0,0,0,0,0
8,8,8,1.10844,409.3585253069948,6.064693003495784,146.448694640729,0,0,0,0,0,0,0,0,0,0
9,9,9,1.10846,409.2691062626099,6.004470848306437,144.72105189731118,0,0,0,0,0,0,0,0,0,0
10,10,10,1.10848,409.17875894160505,5.887662186908674,142.98769581458225,0,0,0,0,0,0,0,0,0,0
11,11,11,1.1085,409.0868656209466,5.714104648388961,141.248694822441,0,0,0,0,0,0,0,0,0,0
12,12,12,1.10852,408.990829968646,5.756286473011223,139.5041175737004,0,0,0,0,0,0,0,0,0,0
13,13,13,1.10854,408.8949739456306,5.741307702685339,137.75403294126738,0,0,0,0,0,0,0,0,0,0
14,14,14,1.10856,408.7987078015531,5.668999807988682,135.99851001547063,0,0,0,0,0,0,0,0,0,0
15,15,15,1.10858,408.7014403197777,5.539203294410134,134.23761810138112,0,0,0,0,0,0,0,0,0,0
16,16,16,1.1086,408.60198919227525,5.41986234807069,132.47142671596464,0,0,0,0,0,0,0,0,0,0
17,17,17,1.10862,408.5001363222873,5.378869402468844,130.7000055854648,0,0,0,0,0,0,0,0,0,0
18,18,18,1.1086399999999998,408.39727207671285,5.347928018026489,128.92342464253875,0,0,0,0,0,0,0,0,0,0
19,19,19,1.10866,408.29386771722585,5.2587955681077,127.14175402354398,0,0,0,0,0,0,0,0,0,0
20,20,20,1.10868,408.1893585692965,5.111325547399599,125.35506406581808,0,0,0,0,0,0,0,0,0,0
21,21,21,1.1087,408.0824023425092,5.0414000878349485,123.56342530478888,0,0,0,0,0,0,0,0,0,0
22,22,22,1.10872,407.9739156511413,4.980793316757418,121.76690847131935,0,0,0,0,0,0,0,0,0,0
23,23,23,1.10874,407.86431344116914,4.929324401409229,119.96558448878544,0,0,0,0,0,0,0,0,0,0
24,24,24,1.10876,407.75401960837104,4.818850255892303,118.1595244704062,0,0,0,0,0,0,0,0,0,0
25,25,25,1.10878,407.6417503525017,4.785111538816017,116.34879971632245,0,0,0,0,0,0,0,0,0,0
26,26,26,1.1088,407.52896795162206,4.69204100068808,114.53348171083051,0,0,0,0,0,0,0,0,0,0
27,27,27,1.10882,407.41424923253066,4.675304752011864,112.71364211960982,0,0,0,0,0,0,0,0,0,0
28,28,28,1.10884,407.299181624637,4.59891603735497,110.88935278676188,0,0,0,0,0,0,0,0,0,0
29,29,29,1.10886,407.18325867543206,4.462747683139142,109.06068573217192,0,0,0,0,0,0,0,0,0,0
30,30,30,1.10888,407.065283254313,4.402362397679397,107.22771314846771,0,0,0,0,0,0,0,0,0,0
31,31,31,1.1089,406.94661412606087,4.281893888031595,105.39050739820183,0,0,0,0,0,0,0,0,0,0
32,32,32,1.10892,406.8259561890676,4.236826983407614,103.54914101119458,0,0,0,0,0,0,0,0,0,0
33,33,33,1.10894,406.7042860716802,4.1991590183349325,101.70368668138804,0,0,0,0,0,0,0,0,0,0
34,34,34,1.10896,406.58193028084366,4.1687241759529785,99.85421726419264,0,0,0,0,0,0,0,0,0,0
35,35,35,1.10898,406.45916174158015,4.077610746158524,98.00080577347744,0,0,0,0,0,0,0,0,0,0
36,36,36,1.109,406.3355205940836,3.92570908440464,96.14352537873783,0,0,0,0,0,0,0,0,0,0
37,37,37,1.10902,406.2098245361054,3.8483131676860016,94.28244940225714,0,0,0,0,0,0,0,0,0,0
38,38,38,1.10904,406.0827775634919,3.8452112438425,92.4176513160946,0,0,0,0,0,0,0,0,0,0
39,39,39,1.10906,405.955544867127,3.7808715552636585,90.54920473931936,0,0,0,0,0,0,0,0,0,0
40,40,40,1.1090799999999998,405.8276994341412,3.6551925059831385,88.67718343498609,0,0,0,0,0,0,0,0,0,0
41,41,41,1.1091,405.6983699054052,3.535690419337296,86.80166130727353,0,0,0,0,0,0,0,0,0,0
42,42,42,1.10912,405.5672811864212,3.557404904015284,84.92271239861782,0,0,0,0,0,0,0,0,0,0
43,43,43,1.10914,405.43618481660735,3.517351563620621,83.04041088667054,0,0,0,0,0,0,0,0,0,0
44,44,44,1.10916,405.3046875089224,3.4154375906158987,81.15483108150643,0,0,0,0,0,0,0,0,0,0
45,45,45,1.10918,405.17239555146887,3.251575434891477,79.2660474225535,0,0,0,0,0,0,0,0,0,0
46,46,46,1.1092,405.0381754899424,3.160689010038932,77.37413447579065,0,0,0,0,0,0,0,0,0,0
47,47,47,1.10922,404.9029201886042,3.1425843507911515,75.47916693068444,0,0,0,0,0,0,0,0,0,0
48,48,48,1.10924,404.7674333917584,3.062134748261033,73.58121959729169,0,0,0,0,0,0,0,0,0,0
49,49,49,1.10926,404.6313560719949,2.919261571472409,71.68036740335765,0,0,0,0,0,0,0,0,0,0
50,50,50,1.10928,404.49401786353536,2.781304119659436,69.77668539123775,0,0,0,0,0,0,0,0,0,0
51,51,51,1.1093,404.35515949894847,2.78291505717729,67.87024871507266,0,0,0,0,0,0,0,0,0,0
52,52,52,1.10932,404.2162011440256,2.721728515127144,65.9611326377008,0,0,0,0,0,0,0,0,0,0
53,53,53,1.10934,404.07681921670127,2.597675303006815,64.04941252773868,0,0,0,0,0,0,0,0,0,0
54,54,54,1.10936,403.936282922918,2.5453343901577137,62.13516385665741,0,0,0,0,0,0,0,0,0,0
55,55,55,1.10938,403.7953932655456,2.429917941927016,60.21846219568221,0,0,0,0,0,0,0,0,0,0
56,56,56,1.1094,403.653416877396,2.385914802442901,58.299383212947376,0,0,0,0,0,0,0,0,0,0
57,57,57,1.10942,403.5111512443741,2.2786357430723947,56.378002670387865,0,0,0,0,0,0,0,0,0,0
58,58,58,1.10944,403.3679486687084,2.2424803661309243,54.45439642078272,0,0,0,0,0,0,0,0,0,0
59,59,59,1.10946,403.2245123791412,2.142856942890454,52.52864040489996,0,0,0,0,0,0,0,0,0,0
60,60,60,1.10948,403.08032391730615,2.0468929991578664,50.60081064818517,0,0,0,0,0,0,0,0,0,0
61,61,61,1.1095,402.93555806236105,1.9544778861158167,48.67098325814334,0,0,0,0,0,0,0,0,0,0
62,62,62,1.1095199999999998,402.7900477112445,1.932630125910204,46.73923442102056,0,0,0,0,0,0,0,0,0,0
63,63,63,1.10954,402.6443970218163,1.846957803309612,44.80564039893573,0,0,0,0,0,0,0,0,0,0
64,64,64,1.10956,402.498160077628,1.7645018082938746,42.87027752690501,0,0,0,0,0,0,0,0,0,0
65,65,65,1.10958,402.3514842072865,1.6851597837687065,40.93322220970568,0,0,0,0,0,0,0,0,0,0
66,66,66,1.1096,402.2042168964271,1.675861570922082,38.994550918999934,0,0,0,0,0,0,0,0,0,0
67,67,67,1.10962,402.05688002045576,1.6024184873957832,37.05434019017573,0,0,0,0,0,0,0,0,0,0
68,68,68,1.10964,401.90927921743855,1.4648002989267022,35.112666619465564,0,0,0,0,0,0,0,0,0,0
69,69,69,1.10966,401.76106969362047,1.3299393412557297,33.16960686079979,0,0,0,0,0,0,0,0,0,0
70,70,70,1.10968,401.61215643718407,1.3316161255177013,31.22523762283303,0,0,0,0,0,0,0,0,0,0
71,71,71,1.1097,401.4632255637089,1.2688663060835574,29.279635665968687,0,0,0,0,0,0,0,0,0,0
72,72,72,1.10972,401.3141208990805,1.1416700881639608,27.332877799205413,0,0,0,0,0,0,0,0,0,0
73,73,73,1.10974,401.1645719252834,1.0168709837070913,25.385040877245626,0,0,0,0,0,0,0,0,0,0
74,74,74,1.10976,401.0145754847456,0.961222611393276,23.43620179733816,0,0,0,0,0,0,0,0,0,0
75,75,75,1.10978,400.8644145626049,0.9077621964212446,21.486437496295306,0,0,0,0,0,0,0,0,0,0
76,76,76,1.1098,400.71415453681846,0.7896225765567466,19.535824947508416,0,0,0,0,0,0,0,0,0,0
77,77,77,1.10982,400.5635679841234,0.7403204072541079,17.584441157785637,0,0,0,0,0,0,0,0,0,0
78,78,78,1.10984,400.41291445922616,0.6262372171118881,15.63236316445299,0,0,0,0,0,0,0,0,0,0
79,79,79,1.1098599999999998,400.26201038768687,0.5807945327399419,13.679668032189507,0,0,0,0,0,0,0,0,0,0
80,80,80,1.10988,400.11106908266606,0.470478940656678,11.72643285003779,0,0,0,0,0,0,0,0,0,0
81,81,81,1.1099,399.9599555108862,0.4286170188759815,9.772734728413694,0,0,0,0,0,0,0,0,0,0
82,82,82,1.10992,399.80883144975513,0.3218003319754118,7.818650795938447,0,0,0,0,0,0,0,0,0,0
83,83,83,1.10994,399.65761756179137,0.2166484614778088,5.864258196535128,0,0,0,0,0,0,0,0,0,0
84,84,84,1.10996,399.5063474858133,0.1796885528153705,3.909634086224063,0,0,0,0,0,0,0,0,0,0
85,85,85,1.10998,399.35509897318127,0.1442315775328673,1.9548556303066904,0,0,0,0,0,0,0,0,0,0
86,86,86,1.11,399.203887087997,0.0436866697174151,1.8598815560528056e-11,0,0,0,0,0,0,0,0,0,0
87,87,87,1.11002,399.05270212972727,0.0110946953828129,-1.954855630304864,0,0,0,0,0,0,0,0,0,0
88,88,88,1.11004,398.9015744279951,-0.0866367411702021,-3.9096340862399206,0,0,0,0,0,0,0,0,0,0
89,89,89,1.11006,398.75052321338046,-0.1830215602816316,-5.864258196533301,0,0,0,0,0,0,0,0,0,0
90,90,90,1.11008,398.5995614593546,-0.2781031424440085,-7.8186507959366205,0,0,0,0,0,0,0,0,0,0
91,91,91,1.1101,398.448690669824,-0.4383343396164212,-9.772734728394193,0,0,0,0,0,0,0,0,0,0
92,92,92,1.11012,398.2980828823984,-0.530916200538836,-11.726432850035966,0,0,0,0,0,0,0,0,0,0
93,93,93,1.11014,398.1477000263539,-0.5559539806496813,-13.679668032170014,0,0,0,0,0,0,0,0,0,0
94,94,94,1.11016,397.99742174666295,-0.6462224550985975,-15.632363164451164,0,0,0,0,0,0,0,0,0,0
95,95,95,1.11018,397.8474230538369,-0.7353744750764718,-17.58444115778381,0,0,0,0,0,0,0,0,0,0
96,96,96,1.1102,397.69769133303976,-0.823436577100782,-19.535824947488944,0,0,0,0,0,0,0,0,0,0
97,97,97,1.11022,397.5482537849144,-0.910434587578607,-21.486437496293483,0,0,0,0,0,0,0,0,0,0
98,98,98,1.11024,397.39907992805934,-0.9963894410279852,-23.436201797318702,0,0,0,0,0,0,0,0,0,0
99,99,99,1.11026,397.25030473566585,-1.0813255160742477,-25.385040877243807,0,0,0,0,0,0,0,0,0,0
100,100,100,1.11028,397.10189397393503,-1.1652580143081073,-27.3328777992036,0,0,0,0,0,0,0,0,0,0
101,101,101,1.1102999999999998,396.9537512398584,-1.3143607044286647,-29.279635665949264,0,0,0,0,0,0,0,0,0,0
102,102,102,1.11032,396.8064166704049,-1.3301725578035213,-31.225237622831216,0,0,0,0,0,0,0,0,0,0
103,103,103,1.11034,396.6593715056132,-1.3450606949993376,-33.16960686078039,0,0,0,0,0,0,0,0,0,0
104,104,104,1.11036,396.5124971086289,-1.4251169006946014,-35.11266661946375,0,0,0,0,0,0,0,0,0,0
105,105,105,1.11038,396.3659512890741,-1.5702756062121983,-37.05434019017391,0,0,0,0,0,0,0,0,0,0
106,106,106,1.1104,396.2204570001634,-1.582361496499191,-38.99455091899812,0,0,0,0,0,0,0,0,0,0
107,107,107,1.11042,396.07520003501065,-1.59352810289807,-40.93322220970386,0,0,0,0,0,0,0,0,0,0
108,108,108,1.11044,395.93013050314096,-1.6697611918061044,-42.87027752688568,0,0,0,0,0,0,0,0,0,0
109,109,109,1.11046,395.78544535352086,-1.8109851609302088,-44.80564039893392,0,0,0,0,0,0,0,0,0,0
110,110,110,1.11048,395.6416353675573,-1.951184135106792,-46.739234421001264,0,0,0,0,0,0,0,0,0,0
111,111,111,1.1105,395.49882374697165,-2.024425251801466,-48.670983258141526,0,0,0,0,0,0,0,0,0,0
112,112,112,1.11052,395.35651781666667,-2.0966474427959647,-50.60081064818337,0,0,0,0,0,0,0,0,0,0
113,113,113,1.11054,395.2149710744786,-2.167836222723178,-52.528640404863296,0,0,0,0,0,0,0,0,0,0
114,114,114,1.11056,395.07407380572806,-2.2379655295581182,-54.45439642078092,0,0,0,0,0,0,0,0,0,0
115,115,115,1.11058,394.93386034282105,-2.307009967053048,-56.37800267035128,0,0,0,0,0,0,0,0,0,0
116,116,116,1.1106,394.7942037585184,-2.374938190979609,-58.29938321294559,0,0,0,0,0,0,0,0,0,0
117,117,117,1.11062,394.65502529737273,-2.5074962785073547,-60.21846219568042,0,0,0,0,0,0,0,0,0,0
118,118,118,1.1106399999999998,394.5172193149296,-2.573084571656744,-62.13516385662098,0,0,0,0,0,0,0,0,0,0
119,119,119,1.11066,394.3799143339047,-2.7031824793419013,-64.04941252773689,0,0,0,0,0,0,0,0,0,0
120,120,120,1.11068,394.2437920780114,-2.766271960982736,-65.96113263768174,0,0,0,0,0,0,0,0,0,0
121,121,121,1.1107,394.1088411843265,-2.762376628510119,-67.87024871507089,0,0,0,0,0,0,0,0,0,0
122,122,122,1.11072,393.97409110211805,-2.8228305933461395,-69.77668539123597,0,0,0,0,0,0,0,0,0,0
123,123,123,1.11074,393.83987290068046,-2.947523422934673,-71.68036740335587,0,0,0,0,0,0,0,0,0,0
124,124,124,1.11076,393.7068181637591,-3.0707247467415693,-73.5812195972899,0,0,0,0,0,0,0,0,0,0
125,125,125,1.11078,393.57549148031313,-3.0611893851291314,-75.4791669306655,0,0,0,0,0,0,0,0,0,0
126,126,126,1.1108,393.4443479072202,-3.11569481770151,-77.37413447578886,0,0,0,0,0,0,0,0,0,0
127,127,127,1.11082,393.3137556752042,-3.2341208698191286,-79.26604742255175,0,0,0,0,0,0,0,0,0,0
128,128,128,1.11084,393.1845733268353,-3.3508171225346235,-81.15483108150467,0,0,0,0,0,0,0,0,0,0
129,129,129,1.11086,393.0570719564798,-3.3346928829499696,-83.04041088666878,0,0,0,0,0,0,0,0,0,0
130,130,130,1.11088,392.9297227135768,-3.382255007051948,-84.92271239859905,0,0,0,0,0,0,0,0,0,0
131,131,131,1.1109,392.8029303239556,-3.493373743644767,-86.80166130727181,0,0,0,0,0,0,0,0,0,0
132,132,132,1.11092,392.6770985177138,-3.6679140719745353,-88.67718343496739,0,0,0,0,0,0,0,0,0,0
133,133,133,1.11094,392.5538772553658,-3.709470586741853,-90.54920473931764,0,0,0,0,0,0,0,0,0,0
134,134,134,1.11096,392.4313444381864,-3.7488670784730287,-92.41765131609289,0,0,0,0,0,0,0,0,0,0
135,135,135,1.11098,392.3093562645967,-3.851403978917334,-94.28244940223854,0,0,0,0,0,0,0,0,0,0
136,136,136,1.111,392.18892534913726,-3.9515777758355575,-96.14352537873609,0,0,0,0,0,0,0,0,0,0
137,137,137,1.11102,392.0698264810047,-4.049288542393009,-98.00080577345896,0,0,0,0,0,0,0,0,0,0
138,138,138,1.11104,391.95228112313424,-4.0791146376844365,-99.85421726419088,0,0,0,0,0,0,0,0,0,0
139,139,139,1.11106,391.8352471688543,-4.17161813526064,-101.7036866813863,0,0,0,0,0,0,0,0,0,0
140,140,140,1.1110799999999998,391.71981389942766,-4.261364551011769,-103.54914101117616,0,0,0,0,0,0,0,0,0,0
141,141,141,1.1111,391.6057295605637,-4.348241115077496,-105.39050739820011,0,0,0,0,0,0,0,0,0,0
142,142,142,1.11112,391.4932284356879,-4.3668908287192565,-107.2277131484328,0,0,0,0,0,0,0,0,0,0
143,143,143,1.11114,391.38118024962586,-4.447709201418953,-109.06068573218678,0,0,0,0,0,0,0,0,0,0
144,144,144,1.11116,391.27074272772495,-4.525327698588686,-110.88935278676018,0,0,0,0,0,0,0,0,0,0
145,145,145,1.11118,391.16163634268753,-4.599621066701869,-112.71364211960812,0,0,0,0,0,0,0,0,0,0
146,146,146,1.1112,391.0539333502968,-4.670468096314027,-114.53348171082882,0,0,0,0,0,0,0,0,0,0
147,147,147,1.11122,390.94733495643374,-4.73774021464523,-116.34879971630434,0,0,0,0,0,0,0,0,0,0
148,148,148,1.11124,390.8416412844252,-4.866449969224757,-118.15952447040452,0,0,0,0,0,0,0,0,0,0
149,149,149,1.11126,390.73850820952094,-4.926182673967904,-119.96558448878376,0,0,0,0,0,0,0,0,0,0
150,150,150,1.11128,390.6362414396292,-5.047045141031172,-121.76690847131768,0,0,0,0,0,0,0,0,0,0
151,151,151,1.1113,171.0535178244722,-3.054089427319141,-123.5634253047872,0,1,0,0,0,0,0,0,0,1
152,152,152,1.11132,123.52085408975437,-2.9959221089688604,-125.3550640658002,0,1,0,0,0,0,0,0,0,1
153,153,153,1.11134,116.30435407457044,-3.31895208305506,-127.14175402354232,0,1,0,0,0,0,0,0,0,1
154,154,154,1.11136,114.61762861285466,-3.7572030193044608,-128.923424642521,0,1,0,0,0,0,0,0,0,1
155,155,155,1.11138,112.97173055842616,-4.310033849688163,-130.70000558546317,0,1,0,0,0,0,0,0,0,1
156,156,156,1.1114,111.36943535640496,-4.975873149776912,-132.47142671596296,0,1,0,0,0,0,0,0,0,1
157,157,157,1.11142,109.8134272667508,-5.753056615017406,-134.23761810136352,0,1,0,0,0,0,0,0,0,1
158,158,158,1.11144,108.30629803642312,-6.63983011446155,-135.99851001546898,0,1,0,0,0,0,0,0,0,1
159,159,159,1.11146,106.85054568400795,-7.634352786759302,-137.75403294124985,0,1,0,0,0,0,0,0,0,1
160,160,160,1.11148,105.4485733962856,-8.734700174692199,-139.50411757369878,0,1,0,0,0,0,0,0,0,1
161,161,161,1.1115,104.10268853611385,-9.938867394544962,-141.24869482243938,0,1,0,0,0,0,0,0,0,1
162,162,162,1.1115199999999998,102.81510176089527,-11.244772336634272,-142.98769581456492,0,1,0,0,0,0,0,0,0,1
163,163,163,1.11154,101.58792625080348,-12.6502588933401,-144.72105189730956,0,1,0,0,0,0,0,0,0,1
164,164,164,1.11156,100.42317704584568,-14.153100211013816,-146.44869464071178,0,1,0,0,0,0,0,0,0,1
165,165,165,1.11158,99.3227704907428,-15.751001962169498,-148.1705558404255,0,1,0,0,0,0,0,0,0,1
166,166,166,1.1116,98.28852378652113,-17.441605634399885,-149.8865675202877,0,1,0,0,0,0,0,0,0,1
167,167,167,1.11162,97.32215464761644,-19.22249183249745,-151.59666193512663,0,1,0,0,0,0,0,0,0,1
168,168,168,1.11164,96.4252810632096,-21.09118359030065,-153.30077157331198,0,1,0,0,0,0,0,0,0,1
169,169,169,1.11166,95.59942116142368,-23.04514968883185,-154.9988291595286,0,1,0,0,0,0,0,0,0,1
170,170,170,1.11168,94.84599317493868,-25.0818079773368,-156.69076765738583,0,1,0,0,0,0,0,0,0,1
171,171,171,1.1117,94.1663155064936,-27.198528693888264,-158.37652027201827,0,1,0,0,0,0,0,0,0,1
172,172,172,1.11172,93.56160689267648,-29.392637782266192,-160.05602045284476,0,1,0,0,0,0,0,0,0,1
173,173,173,1.11174,93.032986664327,-31.66142020188088,-161.72920189599807,0,1,0,0,0,0,0,0,0,1
174,174,174,1.11176,92.581475101807,-34.002123227564525,-163.39599854720052,0,1,0,0,0,0,0,0,0,1
175,175,175,1.11178,92.2079938833274,-36.41195973611308,-165.0563446041891,0,1,0,0,0,0,0,0,0,1
176,176,176,1.1118,91.91336662445312,-38.88811147652296,-166.7101745192844,0,1,0,0,0,0,0,0,0,1
177,177,177,1.11182,91.69831950685082,-41.42773232093025,-168.35742300215813,0,1,0,0,0,0,0,0,0,1
178,178,178,1.11184,91.56348199428032,-44.027951493324345,-169.99802502223096,0,1,0,0,0,0,0,0,0,1
179,179,179,1.1118599999999998,91.50938763377997,-46.68587677317648,-171.6319158113592,0,1,0,0,0,0,0,0,0,1
180,180,180,1.11188,91.53647493993653,-49.39859767119181,-173.25903086634685,0,1,0,0,0,0,0,0,0,1
181,181,181,1.1119,91.64508836008864,-52.16318857446521,-174.8793059514482,0,1,0,0,0,0,0,0,0,1
182,182,182,1.11192,91.835479318258,-54.97671185839034,-176.4926771010065,0,1,0,0,0,0,0,0,0,1
183,183,183,1.11194,92.10780733556322,-57.83622096275023,-178.0990806218622,0,1,0,0,0,0,0,0,0,1
184,184,184,1.11196,92.46214122482894,-60.738763429488486,-179.6984530959839,0,1,0,0,0,0,0,0,0,1
185,185,185,1.11198,92.89846035706076,-63.68138389973918,-181.290731382856,0,1,0,0,0,0,0,0,0,1
186,186,186,1.112,93.41665599742925,-66.66112706776941,-182.8758526220725,0,1,0,0,0,0,0,0,0,1
187,187,187,1.11202,94.01653270836368,-69.6750405895694,-184.45375423577548,0,1,0,0,0,0,0,0,0,1
188,188,188,1.11204,94.69780981733412,-72.72017794390483,-186.0243739310824,0,1,0,0,0,0,0,0,0,1
189,189,189,1.11206,95.4601229468715,-75.7936012437231,-187.58764970264545,0,1,0,0,0,0,0,0,0,1
190,190,190,1.11208,96.3030256043478,-78.89238399589378,-189.1435198349856,0,1,0,0,0,0,0,0,0,1
191,191,191,1.1121,97.22599082902404,-82.01361380733827,-190.69192290502824,0,1,0,0,0,0,0,0,0,1
192,192,192,1.11212,98.22841289384831,-85.15439503569449,-192.23279778448548,0,1,0,0,0,0,0,0,0,1
193,193,193,1.11214,99.30960905947688,-88.31185138273804,-193.7660836422276,0,1,0,0,0,0,0,0,0,1
194,194,194,1.11216,100.46882137797206,-91.4831284288737,-195.291719946782,0,1,0,0,0,0,0,0,0,1
195,195,195,1.11218,101.705218543627,-94.66539610708796,-196.80964646861204,0,1,0,0,0,0,0,0,0,1
196,196,196,1.1122,103.01789778835608,-97.8558511148448,-198.3198032825917,0,1,0,0,0,0,0,0,0,1
197,197,197,1.11222,104.40588681908432,-101.05171926248552,-199.82213077032927,0,1,0,0,0,0,0,0,0,1
198,198,198,1.11224,105.86814579457057,-104.2502577567851,-201.31656962248084,0,1,0,0,0,0,0,0,0,1
199,199,199,1.11226,107.40356933909572,-107.4487574183963,-202.80306084118627,0,1,0,0,0,0,0,0,0,1
