,Unnamed: 0.1,Unnamed: 0,Time / s,Vo:Measured voltage,IL:Measured current,Vin:Measured voltage,short1:Output,short2:Output,short3:Output,short4:Output,open1:Output,open3:Output,open2:Output,open4:Output,OPEN,SHORT
0,0,0,1.1255426365110923,404.467917933974,12.613740747464252,306.6606299106804,0,0,0,0,0,0,0,0,0,0
1,1,1,1.12556,404.6032049275158,12.648313771267064,306.324531682412,0,0,0,0,0,0,0,0,0,0
2,2,2,1.12558,404.7382902380485,12.668070490777524,305.9763402861412,0,0,0,0,0,0,0,0,0,0
3,3,3,1.1256,404.8736045970723,12.672615261864268,305.6160694678746,0,0,0,0,0,0,0,0,0,0
4,4,4,1.1256199999999998,405.00956674021086,12.661542234484592,305.24373345048394,0,0,0,0,0,0,0,0,0,0
5,5,5,1.12564,405.1438042727871,12.70195052051022,304.8593469331543,0,0,0,0,0,0,0,0,0,0
6,6,6,1.12566,405.27996703032966,12.658446805047188,304.46292509081405,0,0,0,0,0,0,0,0,0,0
7,7,7,1.12568,405.4136578838191,12.665674127729805,304.0544835735078,0,0,0,0,0,0,0,0,0,0
8,8,8,1.1257,405.547268971816,12.655744701458737,303.63403850582216,0,0,0,0,0,0,0,0,0,0
9,9,9,1.12572,405.68040602698807,12.628267035018238,303.2016064861972,0,0,0,0,0,0,0,0,0,0
10,10,10,1.12574,405.8126661549703,12.582860195576377,302.7572045863164,0,0,0,0,0,0,0,0,0,0
11,11,11,1.12576,405.9436380801533,12.519154036172475,302.300850350402,0,0,0,0,0,0,0,0,0,0
12,12,12,1.12578,406.0729023964601,12.436789416955886,301.8325617945335,0,0,0,0,0,0,0,0,0,0
13,13,13,1.1258,406.1982604365158,12.403099000182271,301.3523574059498,0,0,0,0,0,0,0,0,0,0
14,14,14,1.12582,406.32158178070864,12.417811018281313,300.8602561422892,0,0,0,0,0,0,0,0,0,0
15,15,15,1.12584,406.4449686684137,12.4128776518546,300.3562774308758,0,0,0,0,0,0,0,0,0,0
16,16,16,1.12586,406.5679762756416,12.387908889333865,299.84044116792194,0,0,0,0,0,0,0,0,0,0
17,17,17,1.12588,406.69015133439353,12.342526500471443,299.31276771775504,0,0,0,0,0,0,0,0,0,0
18,18,18,1.1259,406.80982765272176,12.344150691522534,298.773277912029,0,0,0,0,0,0,0,0,0,0
19,19,19,1.12592,406.930016674251,12.324663235752604,298.2219930488679,0,0,0,0,0,0,0,0,0,0
20,20,20,1.12594,407.0482800252891,12.351495403915736,297.65893489206405,0,0,0,0,0,0,0,0,0,0
21,21,21,1.1259599999999998,407.16685223330967,12.356479208213727,297.0841256701845,0,0,0,0,0,0,0,0,0,0
22,22,22,1.12598,407.2852456353857,12.33922370941627,296.49758807570765,0,0,0,0,0,0,0,0,0,0
23,23,23,1.126,407.4029642476152,12.299350735321202,295.89934526414424,0,0,0,0,0,0,0,0,0,0
24,24,24,1.12602,407.51950405300886,12.236495093998125,295.2894208530851,0,0,0,0,0,0,0,0,0,0
25,25,25,1.12604,407.6343532939133,12.150304779921749,294.66783892131275,0,0,0,0,0,0,0,0,0,0
26,26,26,1.1260599999999998,407.7442819399061,12.176322834311437,294.034624007812,0,0,0,0,0,0,0,0,0,0
27,27,27,1.12608,407.854478410681,12.17839641856784,293.3898011108176,0,0,0,0,0,0,0,0,0,0
28,28,28,1.1261,407.96441610383465,12.156141152481473,292.733395686845,0,0,0,0,0,0,0,0,0,0
29,29,29,1.12612,408.07356037967605,12.109186282763249,292.06543364964443,0,0,0,0,0,0,0,0,0,0
30,30,30,1.12614,408.1813688637607,12.037174886260903,291.3859413692257,0,0,0,0,0,0,0,0,0,0
31,31,31,1.12616,408.2861128597454,12.007797089550806,290.6949456707681,0,0,0,0,0,0,0,0,0,0
32,32,32,1.12618,408.389456824538,12.020760659944743,289.9924738336112,0,0,0,0,0,0,0,0,0,0
33,33,33,1.1262,408.4927622703855,12.007671251015974,289.2785535901341,0,0,0,0,0,0,0,0,0,0
34,34,34,1.12622,408.5954647880951,11.968157830748934,288.55321312467896,0,0,0,0,0,0,0,0,0,0
35,35,35,1.12624,408.69699235574575,11.901863797678468,287.8164810724585,0,0,0,0,0,0,0,0,0,0
36,36,36,1.12626,408.79508371372776,11.876561563700328,287.0683865183725,0,0,0,0,0,0,0,0,0,0
37,37,37,1.12628,408.8913473348108,11.891976127453876,286.30895899594003,0,0,0,0,0,0,0,0,0,0
38,38,38,1.1263,408.98761053942815,11.879640634156663,285.538228486053,0,0,0,0,0,0,0,0,0,0
39,39,39,1.12632,409.0832809280173,11.839188524872274,284.75622541580407,0,0,0,0,0,0,0,0,0,0
40,40,40,1.12634,409.1777587096336,11.77026820774203,283.9629806573706,0,0,0,0,0,0,0,0,0,0
41,41,41,1.12636,409.27043702410975,11.672543240007286,283.15852552667604,0,0,0,0,0,0,0,0,0,0
42,42,42,1.12638,409.3591171767184,11.682115676524852,282.34289178224606,0,0,0,0,0,0,0,0,0,0
43,43,43,1.1263999999999998,409.4476585147716,11.662275860538886,281.5161116238971,0,0,0,0,0,0,0,0,0,0
44,44,44,1.12642,409.5354424778115,11.612666139242457,280.6782176914864,0,0,0,0,0,0,0,0,0,0
45,45,45,1.12644,409.62020745218473,11.601196731459924,279.82924306364697,0,0,0,0,0,0,0,0,0,0
46,46,46,1.12646,409.7034555094488,11.627587129376048,278.96922125642806,0,0,0,0,0,0,0,0,0,0
47,47,47,1.12648,409.7869026845903,11.623235019639765,278.09818622203363,0,0,0,0,0,0,0,0,0,0
48,48,48,1.1265,409.8699118369336,11.587779860733423,277.2161723474196,0,0,0,0,0,0,0,0,0,0
49,49,49,1.12652,409.9518388006228,11.520876824309664,276.32321445299925,0,0,0,0,0,0,0,0,0,0
50,50,50,1.12654,410.03203271275487,11.422196963455892,275.4193477912137,0,0,0,0,0,0,0,0,0,0
51,51,51,1.12656,410.1098363447716,11.291427373420085,274.50460804516246,0,0,0,0,0,0,0,0,0,0
52,52,52,1.12658,410.18305426548807,11.264970939994374,273.5790313272212,0,0,0,0,0,0,0,0,0,0
53,53,53,1.1266,410.2537956236652,11.27421883602371,272.6426541775569,0,0,0,0,0,0,0,0,0,0
54,54,54,1.12662,410.32436866351145,11.250508150468384,271.69551356275326,0,0,0,0,0,0,0,0,0,0
55,55,55,1.12664,410.39320895669886,11.261881434163074,270.7376468742915,0,0,0,0,0,0,0,0,0,0
56,56,56,1.12666,410.46191827244746,11.239634055058486,269.7690919270995,0,0,0,0,0,0,0,0,0,0
57,57,57,1.12668,410.52982096841697,11.18342450684828,268.78988695808573,0,0,0,0,0,0,0,0,0,0
58,58,58,1.1267,410.59623499145465,11.092927537834225,267.80007062456787,0,0,0,0,0,0,0,0,0,0
59,59,59,1.12672,410.6604722065568,10.967834300489288,266.799682002818,0,0,0,0,0,0,0,0,0,0
60,60,60,1.12674,410.7192279707377,10.944729841294892,265.7887605864569,0,0,0,0,0,0,0,0,0,0
61,61,61,1.12676,410.776741336313,10.954941608818382,264.76734628492187,0,0,0,0,0,0,0,0,0,0
62,62,62,1.12678,410.8332193296448,10.998156671947491,263.7354794219192,0,0,0,0,0,0,0,0,0,0
63,63,63,1.1268,410.89017090373335,11.00558848141069,262.69320073375746,0,0,0,0,0,0,0,0,0,0
64,64,64,1.12682,410.94689869718167,10.976892301358514,261.64055136786203,0,0,0,0,0,0,0,0,0,0
65,65,65,1.1268399999999998,411.0026990864597,10.911739759142288,260.5775728809896,0,0,0,0,0,0,0,0,0,0
66,66,66,1.12686,411.0568625069462,10.809818987134069,259.5043072377006,0,0,0,0,0,0,0,0,0,0
67,67,67,1.12688,411.1086737765372,10.670834757598854,258.42079680873366,0,0,0,0,0,0,0,0,0,0
68,68,68,1.1269,411.15635373113065,10.56302221048859,257.32708436916647,0,0,0,0,0,0,0,0,0,0
69,69,69,1.12692,411.1988857821211,10.623173878212787,256.22321309694274,0,0,0,0,0,0,0,0,0,0
70,70,70,1.12694,411.2421801046014,10.64546795657809,255.10922657098027,0,0,0,0,0,0,0,0,0,0
71,71,71,1.12696,411.2855220933114,10.629564440821405,253.98516876957984,0,0,0,0,0,0,0,0,0,0
72,72,72,1.12698,411.32819118004033,10.575139671443427,252.8510840686088,0,0,0,0,0,0,0,0,0,0
73,73,73,1.127,411.36946114416367,10.481886465383196,251.7070172397788,0,0,0,0,0,0,0,0,0,0
74,74,74,1.12702,411.4086004254653,10.349514240676358,250.55301344890992,0,0,0,0,0,0,0,0,0,0
75,75,75,1.12704,411.4434543004212,10.246307881731802,249.3891182540752,0,0,0,0,0,0,0,0,0,0
76,76,76,1.12706,411.474194413526,10.240599827463004,248.2153776038848,0,0,0,0,0,0,0,0,0,0
77,77,77,1.12708,411.5040437940093,10.2635630628967,247.0318378355996,0,0,0,0,0,0,0,0,0,0
78,78,78,1.1271,411.53393790536046,10.246313424504814,245.838545673332,0,0,0,0,0,0,0,0,0,0
79,79,79,1.12712,411.56314289037925,10.188538435569193,244.6355482262352,0,0,0,0,0,0,0,0,0,0
80,80,80,1.12714,411.5909196377469,10.089941966822868,243.42289298656647,0,0,0,0,0,0,0,0,0,0
81,81,81,1.12716,411.61652408221534,9.950244349087132,242.2006278279006,0,0,0,0,0,0,0,0,0,0
82,82,82,1.1271799999999998,411.6368475914899,9.90636901969183,240.968801003162,0,0,0,0,0,0,0,0,0,0
83,83,83,1.1272,411.6552580251616,9.889492314021986,239.7274611427532,0,0,0,0,0,0,0,0,0,0
84,84,84,1.12722,411.6725926326619,9.8993326921637,238.47665725266896,0,0,0,0,0,0,0,0,0,0
85,85,85,1.12724,411.68972710215417,9.866989900244391,237.21643871248247,0,0,0,0,0,0,0,0,0,0
86,86,86,1.12726,411.7059176515818,9.792167923849496,235.94685527348665,0,0,0,0,0,0,0,0,0,0
87,87,87,1.12728,411.7204157203199,9.674586879857175,234.6679570566388,0,0,0,0,0,0,0,0,0,0
88,88,88,1.1273,411.73115419287984,9.582590980833126,233.37979455067384,0,0,0,0,0,0,0,0,0,0
89,89,89,1.12732,411.7382177879789,9.584556175256807,232.0824186100304,0,0,0,0,0,0,0,0,0,0
90,90,90,1.12734,411.7445440930268,9.611608598698696,230.77588045287703,0,0,0,0,0,0,0,0,0,0
91,91,91,1.12736,411.7509593620832,9.594837094786971,229.4602316591269,0,0,0,0,0,0,0,0,0,0
92,92,92,1.12738,411.7567175575361,9.533950585629071,228.13552416830584,0,0,0,0,0,0,0,0,0,0
93,93,93,1.1274,411.7610681190607,9.42867374081737,226.8018102776572,0,0,0,0,0,0,0,0,0,0
94,94,94,1.12742,411.7632562332914,9.2787470689084,225.45914263987373,0,0,0,0,0,0,0,0,0,0
95,95,95,1.12744,411.76058286705614,9.22115801348498,224.10757426116228,0,0,0,0,0,0,0,0,0,0
96,96,96,1.12746,411.7556362258564,9.187056783484932,222.7471584991771,0,0,0,0,0,0,0,0,0,0
97,97,97,1.12748,411.74937591079305,9.17618328068999,221.37794906076616,0,0,0,0,0,0,0,0,0,0
98,98,98,1.1275,411.74257065623806,9.119645457462765,219.9999999999985,0,0,0,0,0,0,0,0,0,0
99,99,99,1.12752,411.73447139552366,9.01717646675072,218.6133657159313,0,0,0,0,0,0,0,0,0,0
100,100,100,1.12754,411.72311063904704,8.93713248204953,217.2181009504991,0,0,0,0,0,0,0,0,0,0
101,101,101,1.12756,411.7094270998918,8.879278556777086,215.8142607863909,0,0,0,0,0,0,0,0,0,0
102,102,102,1.12758,411.6931551498548,8.911965263068574,214.40190064478745,0,0,0,0,0,0,0,0,0,0
103,103,103,1.1276,411.6770386505154,8.897710395785897,212.9810762832741,0,0,0,0,0,0,0,0,0,0
104,104,104,1.1276199999999998,411.66033587381503,8.836244009760378,211.5518437935512,0,0,0,0,0,0,0,0,0,0
105,105,105,1.12764,411.6423012361268,8.727310967463291,210.11425959925708,0,0,0,0,0,0,0,0,0,0
106,106,106,1.12766,411.62218553358815,8.570671012449885,208.66838045378032,0,0,0,0,0,0,0,0,0,0
107,107,107,1.12768,411.5974718481495,8.50327789209027,207.2142634379276,0,0,0,0,0,0,0,0,0,0
108,108,108,1.1277,411.5701154437567,8.524896580870454,205.7519659577752,0,0,0,0,0,0,0,0,0,0
109,109,109,1.12772,411.5427341649574,8.498092207245625,204.28154574229723,0,0,0,0,0,0,0,0,0,0
110,110,110,1.12774,411.514592546971,8.422609611359347,202.8030608411928,0,0,0,0,0,0,0,0,0,0
111,111,111,1.12776,411.484951646073,8.298207902031308,201.31656962250085,0,0,0,0,0,0,0,0,0,0
112,112,112,1.12778,411.45196684362486,8.193224227250518,199.8221307703359,0,0,0,0,0,0,0,0,0,0
113,113,113,1.1278,411.41561364645526,8.175997441573305,198.319803282612,0,0,0,0,0,0,0,0,0,0
114,114,114,1.12782,411.3783046889399,8.177717299508087,196.80964646861867,0,0,0,0,0,0,0,0,0,0
115,115,115,1.12784,411.3406762582589,8.129571656133736,195.29171994678865,0,0,0,0,0,0,0,0,0,0
116,116,116,1.12786,411.3020015648663,8.031322105803497,193.76608364224808,0,0,0,0,0,0,0,0,0,0
117,117,117,1.12788,411.2615507267844,7.882743939227571,192.23279778449225,0,0,0,0,0,0,0,0,0,0
118,118,118,1.1279,411.216989876504,7.82068068163034,190.69192290504893,0,0,0,0,0,0,0,0,0,0
119,119,119,1.12792,411.1700427808504,7.844893317050388,189.1435198349924,0,0,0,0,0,0,0,0,0,0
120,120,120,1.12794,411.1230992835602,7.818087209104394,187.5876497026522,0,0,0,0,0,0,0,0,0,0
121,121,121,1.12796,411.0754467240647,7.740029088723685,186.0243739311034,0,0,0,0,0,0,0,0,0,0
122,122,122,1.12798,411.0263695513651,7.610498729822419,184.4537542357824,0,0,0,0,0,0,0,0,0,0
123,123,123,1.128,410.97415036876464,7.497774227708225,182.8758526220937,0,0,0,0,0,0,0,0,0,0
124,124,124,1.12802,410.9191904223648,7.470124129542438,181.2907313828485,0,0,0,0,0,0,0,0,0,0
125,125,125,1.12804,410.8627389677705,7.458815735327684,179.69845309597642,0,0,0,0,0,0,0,0,0,0
126,126,126,1.1280599999999998,410.8058129597481,7.395150723471189,178.0990806218837,0,0,0,0,0,0,0,0,0,0
127,127,127,1.12808,410.74771320038747,7.278915551123653,176.49267710099895,0,0,0,0,0,0,0,0,0,0
128,128,128,1.1281,410.686785917091,7.178346959973768,174.87930595145522,0,0,0,0,0,0,0,0,0,0
129,129,129,1.12812,410.62295045953016,7.161663413813253,173.25903086633926,0,0,0,0,0,0,0,0,0,0
130,130,130,1.12814,410.5582594038,7.160193361707106,171.6319158113663,0,0,0,0,0,0,0,0,0,0
131,131,131,1.12816,410.49323783532543,7.105285830448895,169.9980250222233,0,0,0,0,0,0,0,0,0,0
132,132,132,1.12818,410.42720459186336,6.996735781024638,168.35742300215043,0,0,0,0,0,0,0,0,0,0
133,133,133,1.1282,410.35947623459975,6.834349919835217,166.71017451929157,0,0,0,0,0,0,0,0,0,0
134,134,134,1.12822,410.2872839068693,6.82306873913816,165.05634460418133,0,0,0,0,0,0,0,0,0,0
135,135,135,1.12824,410.21433583133006,6.8259000492163615,163.39599854722283,0,0,0,0,0,0,0,0,0,0
136,136,136,1.12826,410.1411231787815,6.774257496978088,161.72920189600538,0,0,0,0,0,0,0,0,0,0
137,137,137,1.12828,410.06698470482553,6.6679460073046295,160.0560204528369,0,0,0,0,0,0,0,0,0,0
138,138,138,1.1283,409.991257118278,6.506781570987018,158.37652027204084,0,0,0,0,0,0,0,0,0,0
139,139,139,1.12832,409.9112956705396,6.495526690277251,156.69076765739322,0,0,0,0,0,0,0,0,0,0
140,140,140,1.12834,409.8306085350529,6.497313981852569,154.99882915955132,0,0,0,0,0,0,0,0,0,0
141,141,141,1.12836,409.749656648872,6.443629694625651,153.3007715733194,0,0,0,0,0,0,0,0,0,0
142,142,142,1.12838,409.66780041216526,6.334289861751532,151.59666193513408,0,0,0,0,0,0,0,0,0,0
143,143,143,1.1283999999999998,409.58439840897455,6.169120905091649,149.88656752031068,0,0,0,0,0,0,0,0,0,0
144,144,144,1.12842,409.4973667305677,6.0844443315512695,148.170555840433,0,0,0,0,0,0,0,0,0,0
145,145,145,1.12844,409.4084116157972,6.080035526537473,146.4486946407349,0,0,0,0,0,0,0,0,0,0
146,146,146,1.12846,409.3191377342213,6.019210649087031,144.72105189731712,0,0,0,0,0,0,0,0,0,0
147,147,147,1.12848,409.2289289384912,5.90179769203472,142.9876958145882,0,0,0,0,0,0,0,0,0,0
148,148,148,1.1285,409.1371674913621,5.727634364530734,141.24869482244696,0,0,0,0,0,0,0,0,0,0
149,149,149,1.12852,409.04164592120776,5.70107289424634,139.5041175737064,0,0,0,0,0,0,0,0,0,0
150,150,150,1.12854,408.94519900185423,5.685533761592958,137.75403294127338,0,0,0,0,0,0,0,0,0,0
151,151,151,1.12856,408.8483364481188,5.612672355233598,135.99851001546077,0,0,0,0,0,1,0,0,1,0
152,152,152,1.12858,408.7504671163374,5.482329241214698,134.23761810138717,0,0,0,0,0,1,0,0,1,0
153,153,153,1.1286,408.650417470332,5.362456831832918,132.4714267159547,0,0,0,0,0,1,0,0,1,0
154,154,154,1.12862,408.5476130649412,5.3890432722140496,130.70000558545485,0,0,0,0,0,1,0,0,1,0
155,155,155,1.12864,408.44482700875056,5.357592799248428,128.92342464252877,0,0,0,0,0,1,0,0,1,0
156,156,156,1.12866,408.34149586995846,5.267950568754352,127.14175402353398,0,0,0,0,0,1,0,0,1,0
157,157,157,1.12868,408.237054969464,5.119970128594053,125.35506406580802,0,0,0,0,0,1,0,0,1,0
158,158,158,1.1287,408.1301595457389,5.049549556670925,123.5634253047788,0,0,0,0,0,1,0,0,1,0
159,159,159,1.12872,408.02172782162177,4.988455139117275,121.76690847130924,0,0,0,0,0,1,0,0,1,0
160,160,160,1.12874,407.91217496241273,4.936506119794321,119.96558448879162,0,0,0,0,0,1,0,0,1,0
161,161,161,1.12876,407.8019260962671,4.825551510781211,118.15952447039606,0,0,0,0,0,1,0,0,1,0
162,162,162,1.12878,407.68969553417145,4.791347976314223,116.34879971631226,0,0,0,0,0,1,0,0,1,0
163,163,163,1.1288,407.576947727325,4.697812376607189,114.53348171082033,0,0,0,0,0,1,0,0,1,0
164,164,164,1.12882,407.462257891806,4.680626847605426,112.71364211959958,0,0,0,0,0,1,0,0,1,0
165,165,165,1.1288399999999998,407.3472153445584,4.603788708728721,110.8893527867847,0,0,0,0,0,1,0,0,1,0
166,166,166,1.12886,407.2313136334504,4.467170822108204,109.06068573217824,0,0,0,0,0,1,0,0,1,0
167,167,167,1.12888,407.11335442206814,4.406351942823604,107.22771314845744,0,0,0,0,0,1,0,0,1,0
168,168,168,1.1289,406.9946979503793,4.285449814964891,105.39050739820816,0,0,0,0,0,1,0,0,1,0
169,169,169,1.12892,406.87404816948776,4.2399653204217325,103.5491410112009,0,0,0,0,0,1,0,0,1,0
170,170,170,1.12894,406.7523825029568,4.201887823692922,101.70368668139436,0,0,0,0,0,1,0,0,1,0
171,171,171,1.12896,406.6300276456013,4.171051539650356,99.85421726419898,0,0,0,0,0,1,0,0,1,0
172,172,172,1.12898,406.5072569991997,4.079536773434701,98.00080577348382,0,0,0,0,0,1,0,0,1,0
173,173,173,1.129,406.3836107059903,3.927233905799648,96.1435253787442,0,0,0,0,0,1,0,0,1,0
174,174,174,1.12902,406.25790612300256,3.8494529628190697,94.28244940226352,0,0,0,0,0,1,0,0,1,0
175,175,175,1.12904,406.1308475983873,3.845982210866648,92.417651316101,0,0,0,0,0,1,0,0,1,0
176,176,176,1.12906,406.00360078492304,3.781273887220183,90.54920473932576,0,0,0,0,0,1,0,0,1,0
177,177,177,1.12908,405.87573867212575,3.655226415517935,88.67718343499254,0,0,0,0,0,1,0,0,1,0
178,178,178,1.1291,405.74638995342906,3.5353641426365305,86.80166130728,0,0,0,0,0,1,0,0,1,0
179,179,179,1.12912,405.6152799036864,3.5567426905119843,84.92271239862427,0,0,0,0,0,1,0,0,1,0
180,180,180,1.12914,405.4841600745909,3.5163536585127293,83.04041088665997,0,0,0,0,0,1,0,0,1,0
181,181,181,1.12916,405.3526371815132,3.4141042539261552,81.15483108151292,0,0,0,0,0,1,0,0,1,0
182,182,182,1.12918,405.22031751506256,3.2499069414462127,79.2660474225771,0,0,0,0,0,1,0,0,1,0
183,183,183,1.1292,405.0858613899141,3.226215265228135,77.37413447578001,0,0,0,0,0,1,0,0,1,0
184,184,184,1.12922,404.9509643077122,3.2077898110047585,75.47916693067381,0,0,0,0,0,1,0,0,1,0
185,185,185,1.12924,404.81583374142,3.127017237977209,73.58121959728102,0,0,0,0,0,1,0,0,1,0
186,186,186,1.12926,404.68011065189415,2.9838189283864915,71.68036740334696,0,0,0,0,0,1,0,0,1,0
187,187,187,1.1292799999999998,404.5431149293959,2.845542271463408,69.77668539124429,0,0,0,0,0,1,0,0,1,0
188,188,188,1.1293,404.4047493892626,2.7794558756511933,67.87024871506195,0,0,0,0,0,1,0,0,1,0
189,189,189,1.12932,404.2657537161909,2.71798942501893,65.96113263769008,0,0,0,0,0,1,0,0,1,0
190,190,190,1.12934,404.1263330439217,2.5936565972306425,64.04941252772794,0,0,0,0,0,1,0,0,1,0
191,191,191,1.12936,403.98588606877473,2.47372138764652,62.135163856646656,0,0,0,0,0,1,0,0,1,0
192,192,192,1.12938,403.8443323528497,2.425366242896367,60.21846219567144,0,0,0,0,0,1,0,0,1,0
193,193,193,1.1294,403.7023161921353,2.381119831043053,58.2993832129366,0,0,0,0,0,1,0,0,1,0
194,194,194,1.12942,403.5600096966497,2.2735977697805865,56.37800267037706,0,0,0,0,0,1,0,0,1,0
195,195,195,1.12944,403.416766767981,2.237215957198896,54.45439642078932,0,0,0,0,0,1,0,0,1,0
196,196,196,1.12946,403.2732891807798,2.1373663537119607,52.528640404889146,0,0,0,0,0,1,0,0,1,0
197,197,197,1.12948,403.12905934364176,2.0411846215577327,50.60081064819178,0,0,0,0,0,1,0,0,1,0
198,198,198,1.1295,402.98425213601377,1.948560096749668,48.67098325814996,0,0,0,0,0,1,0,0,1,0
199,199,199,1.12952,402.83870147770085,1.9265194048220813,46.739234421027184,0,0,0,0,0,1,0,0,1,0
