,Unnamed: 0.1,Unnamed: 0,Time / s,Vo:Measured voltage,IL:Measured current,Vin:Measured voltage,open1:Output,open3:Output,open2:Output,open4:Output,short1:Output,short2:Output,short3:Output,short4:Output,OPEN,SHORT
0,0,0,1.1798302877346132,400.6774550167421,-0.7137895486205655,-17.58444115779142,0,0,0,0,0,0,0,0,0,0
1,1,1,1.17984,400.5266731840935,-0.5995231136188651,-15.632363164441111,0,0,0,0,0,0,0,0,0,0
2,2,2,1.17986,400.37569120806216,-0.5539373719465325,-13.679668032177627,0,0,0,0,0,0,0,0,0,0
3,3,3,1.17988,400.2246000505924,-0.5101822081056898,-11.726432850025908,0,0,0,0,0,0,0,0,0,0
4,4,4,1.1799,400.07345058479245,-0.4681921317434573,-9.772734728401808,0,0,0,0,0,0,0,0,0,0
5,5,5,1.17992,399.9222954591234,-0.3612474183980163,-7.818650795944237,0,0,0,0,0,0,0,0,0,0
6,6,6,1.17994,399.77107564245495,-0.1893575291300671,-5.864258196523238,0,0,0,0,0,0,0,0,0,0
7,7,7,1.17996,399.61972676444526,-0.2189536713402804,-3.90963408624754,0,0,0,0,0,0,0,0,0,0
8,8,8,1.17998,399.4684391935514,-0.1834443591980439,-1.9548556302947984,0,0,0,0,0,0,0,0,0,0
9,9,9,1.18,399.3171931844952,-0.0828471988481909,-6.706734025801437e-12,0,0,0,0,0,0,0,0,0,0
10,10,10,1.1800199999999998,399.1659508366772,-0.116769666198095,1.954855630281385,0,0,0,0,0,0,0,0,0,0
11,11,11,1.18004,399.0147377502449,-0.1520108719257969,3.909634086234128,0,0,0,0,0,0,0,0,0,0
12,12,12,1.18006,398.86358118226735,-0.1220438719932093,5.864258196509827,0,0,0,0,0,0,0,0,0,0
13,13,13,1.18008,398.7125008634279,-0.0268970682124639,7.818650795930829,0,0,0,0,0,0,0,0,0,0
14,14,14,1.1801,398.5615141858498,0.1334000789788499,9.7727347283884,0,0,0,0,0,0,0,0,0,0
15,15,15,1.1801199999999998,398.4106454922484,0.3588126178303698,11.726432850012502,0,0,0,0,0,0,0,0,0,0
16,16,16,1.18014,398.25998835911065,0.582929486565335,13.679668032164226,0,0,0,0,0,0,0,0,0,0
17,17,17,1.18016,398.1097272320256,0.6730788449103009,15.632363164427716,0,0,0,0,0,0,0,0,0,0
18,18,18,1.18018,397.9596347288999,0.8284184630986958,17.584441157778027,0,0,0,0,0,0,0,0,0,0
19,19,19,1.1802,397.8098988411239,0.9826042181533788,19.53582494748316,0,0,0,0,0,0,0,0,0,0
20,20,20,1.18022,397.6606595177773,1.0693841183239023,21.48643749630535,0,0,0,0,0,0,0,0,0,0
21,21,21,1.18024,397.5117374850624,1.1551031662789224,23.43620179733056,0,0,0,0,0,0,0,0,0,0
22,22,22,1.18026,397.36329881942896,1.1735550089584468,25.385040877220405,0,0,0,0,0,0,0,0,0,0
23,23,23,1.18028,397.21500920919794,1.2572324070721572,27.33287779921544,0,0,0,0,0,0,0,0,0,0
24,24,24,1.1803,397.0671610301704,1.339903196180766,29.279635665961106,0,0,0,0,0,0,0,0,0,0
25,25,25,1.18032,396.9198745208317,1.3554245622013876,31.22523762284305,0,0,0,0,0,0,0,0,0,0
26,26,26,1.18034,396.77284267736167,1.3700021815276846,33.169606860792214,0,0,0,0,0,0,0,0,0,0
27,27,27,1.18036,396.6259808453288,1.4497479180320774,35.112666619458,0,0,0,0,0,0,0,0,0,0
28,28,28,1.18038,396.47944683494126,1.5945962050476357,37.05434019018572,0,0,0,0,0,0,0,0,0,0
29,29,29,1.1804,396.3339348845773,1.6063140447043252,38.99455091899237,0,0,0,0,0,0,0,0,0,0
30,30,30,1.18042,396.18870138798434,1.6170947848499353,40.933222209715645,0,0,0,0,0,0,0,0,0,0
31,31,31,1.18044,396.0436541491813,1.692942028672428,42.87027752689745,0,0,0,0,0,0,0,0,0,0
32,32,32,1.1804599999999998,395.8989901178698,1.833780177805264,44.80564039892819,0,0,0,0,0,0,0,0,0,0
33,33,33,1.18048,395.755144828068,1.973573088651072,46.73923442101302,0,0,0,0,0,0,0,0,0,0
34,34,34,1.1805,395.61243161251855,1.980434704259621,48.670983258135806,0,0,0,0,0,0,0,0,0,0
35,35,35,1.18052,395.46991543760487,2.052215119471116,50.60081064819512,0,0,0,0,0,0,0,0,0,0
36,36,36,1.18054,395.3278320978735,2.1888287258185306,52.52864040487502,0,0,0,0,0,0,0,0,0,0
37,37,37,1.18056,395.18669683463446,2.3243242839561087,54.45439642079264,0,0,0,0,0,0,0,0,0,0
38,38,38,1.18058,395.0467163525992,2.392834143176516,56.378002670362974,0,0,0,0,0,0,0,0,0,0
39,39,39,1.1806,394.90737252507466,2.4602093534400247,58.29938321292253,0,0,0,0,0,0,0,0,0,0
40,40,40,1.18062,394.7688050965127,2.526420797057097,60.21846219567474,0,0,0,0,0,0,0,0,0,0
41,41,41,1.18064,394.6308784693465,2.5914307050980705,62.13516385663262,0,0,0,0,0,0,0,0,0,0
42,42,42,1.18066,394.4937841947736,2.6552050776479645,64.04941252773122,0,0,0,0,0,0,0,0,0,0
43,43,43,1.18068,394.35737661222015,2.7176999691454298,65.96113263767609,0,0,0,0,0,0,0,0,0,0
44,44,44,1.1807,394.221805906484,2.77887455962674,67.87024871504796,0,0,0,0,0,0,0,0,0,0
45,45,45,1.18072,394.0869139997983,2.838679085401933,69.77668539123032,0,0,0,0,0,0,0,0,0,0
46,46,46,1.18074,393.95254588389776,2.9627233818619896,71.68036740333302,0,0,0,0,0,0,0,0,0,0
47,47,47,1.18076,393.8194274672098,3.0852599056606267,73.5812195972843,0,0,0,0,0,0,0,0,0,0
48,48,48,1.18078,393.68794223472537,3.075002072315768,75.4791669306599,0,0,0,0,0,0,0,0,0,0
49,49,49,1.1807999999999998,393.5566312398354,3.1287861500836422,77.37413447576614,0,0,0,0,0,0,0,0,0,0
50,50,50,1.18082,393.425862730982,3.2464920203274885,79.26604742256326,0,0,0,0,0,0,0,0,0,0
51,51,51,1.18084,393.29643573454734,3.3624495506843872,81.15483108148203,0,0,0,0,0,0,0,0,0,0
52,52,52,1.18086,393.1685678370197,3.411060754624943,83.04041088668026,0,0,0,0,0,0,0,0,0,0
53,53,53,1.18088,393.04143767064807,3.457814629124553,84.92271239861049,0,0,0,0,0,0,0,0,0,0
54,54,54,1.1808999999999998,392.9148543932448,3.568123710096791,86.80166130726624,0,0,0,0,0,0,0,0,0,0
55,55,55,1.18092,392.7892217386945,3.7418530470993048,88.6771834349788,0,0,0,0,0,0,0,0,0,0
56,56,56,1.18094,392.66636135255936,3.7170967942766673,90.5492047393121,0,0,0,0,0,0,0,0,0,0
57,57,57,1.18096,392.5435944827092,3.755621895692701,92.41765131610424,0,0,0,0,0,0,0,0,0,0
58,58,58,1.18098,392.42136158326014,3.8572893335156033,94.28244940224984,0,0,0,0,0,0,0,0,0,0
59,59,59,1.181,392.3001019526437,4.0219542975538864,96.1435253787474,0,0,0,0,0,0,0,0,0,0
60,60,60,1.18102,392.1814923503141,4.053386799395382,98.00080577347022,0,0,0,0,0,0,0,0,0,0
61,61,61,1.18104,392.0636712911262,4.082273353374649,99.8542172641854,0,0,0,0,0,0,0,0,0,0
62,62,62,1.18106,391.9463499775955,4.17383974839242,101.70368668139754,0,0,0,0,0,0,0,0,0,0
63,63,63,1.18108,391.8300023996479,4.327931573584525,103.5491410111874,0,0,0,0,0,0,0,0,0,0
64,64,64,1.1811,391.7158579437741,4.413822760019435,105.39050739821133,0,0,0,0,0,0,0,0,0,0
65,65,65,1.18112,391.603567415884,4.431454018770491,107.22771314844395,0,0,0,0,0,0,0,0,0,0
66,66,66,1.18114,391.491716797725,4.511252194963082,109.0606857321648,0,0,0,0,0,0,0,0,0,0
67,67,67,1.18116,391.3808138031167,4.653053624161705,110.88935278677133,0,0,0,0,0,0,0,0,0,0
68,68,68,1.18118,391.27216836400703,4.726271062010312,112.71364211958624,0,0,0,0,0,0,0,0,0,0
69,69,69,1.1812,391.1653998425553,4.730830035599622,114.53348171082344,0,0,0,0,0,0,0,0,0,0
70,70,70,1.18122,391.0589812860748,4.796997545534144,116.34879971629896,0,0,0,0,0,0,0,0,0,0
71,71,71,1.1812399999999998,390.9534531191432,4.924601120724112,118.1595244703828,0,0,0,0,0,0,0,0,0,0
72,72,72,1.18126,390.85018764437217,4.983185353509539,119.96558448877842,0,0,0,0,0,0,0,0,0,0
73,73,73,1.18128,390.7477690115672,5.102900819610195,121.76690847129606,0,0,0,0,0,0,0,0,0,0
74,74,74,1.1813,390.6478017254777,5.153357576113144,123.56342530478187,0,0,0,0,0,0,0,0,0,0
75,75,75,1.18132,390.5492132831632,5.199541995459003,125.35506406579492,0,0,0,0,0,0,0,0,0,0
76,76,76,1.18134,390.451660312757,5.241306969851119,127.14175402355318,0,0,0,0,0,0,0,0,0,0
77,77,77,1.18136,390.3548397526814,5.343565551471693,128.92342464251573,0,0,0,0,0,0,0,0,0,0
78,78,78,1.18138,390.2600524960433,5.441088709639995,130.70000558544183,0,0,0,0,0,0,0,0,0,0
79,79,79,1.1814,390.1669531568485,5.53371313493764,132.4714267159737,0,0,0,0,0,0,0,0,0,0
80,80,80,1.18142,390.0760240369093,5.556272360925879,134.2376181013583,0,0,0,0,0,0,0,0,0,0
81,81,81,1.18144,389.9856669210608,5.638632700294446,135.99851001547967,0,0,0,0,0,0,0,0,0,0
82,82,82,1.18146,389.8972511034802,5.715618234757664,137.75403294126053,0,0,0,0,0,0,0,0,0,0
83,83,83,1.18148,389.8103975634057,5.787054039658826,139.50411757369358,0,0,0,0,0,0,0,0,0,0
84,84,84,1.1815,389.7255790268604,5.787821447763768,141.24869482244995,0,0,0,0,0,0,0,0,0,0
85,85,85,1.18152,389.6411201742496,5.847658388997616,142.9876958145755,0,0,0,0,0,0,0,0,0,0
86,86,86,1.18154,389.5576640283888,5.966357087372651,144.72105189732008,0,0,0,0,0,0,0,0,0,0
87,87,87,1.18156,389.4766569157079,6.078795502628654,146.44869464072227,0,0,0,0,0,0,0,0,0,0
88,88,88,1.18158,389.3983678502635,6.119884691979651,148.1705558404204,0,0,0,0,0,0,0,0,0,0
89,89,89,1.1816,389.321205153982,6.154348547361369,149.88656752029814,0,0,0,0,0,0,0,0,0,0
90,90,90,1.18162,389.2447996574389,6.246874393482302,151.59666193512157,0,0,0,0,0,0,0,0,0,0
91,91,91,1.18164,389.1698182711351,6.3972380683649055,153.30077157332232,0,0,0,0,0,0,0,0,0,0
92,92,92,1.18166,389.09897171890174,6.410677409178759,154.9988291595389,0,0,0,0,0,0,0,0,0,0
93,93,93,1.1816799999999998,389.028961920645,6.416704675823754,156.69076765738086,0,0,0,0,0,0,0,0,0,0
94,94,94,1.1817,388.9593952545577,6.47995117783803,158.3765202720285,0,0,0,0,0,0,0,0,0,0
95,95,95,1.18172,388.8909636228977,6.600187664201024,160.05602045282464,0,0,0,0,0,0,0,0,0,0
96,96,96,1.18174,388.825253285454,6.712378800667104,161.72920189600825,0,0,0,0,0,0,0,0,0,0
97,97,97,1.18176,388.76252544240106,6.751510671723078,163.39599854721064,0,0,0,0,0,0,0,0,0,0
98,98,98,1.18178,388.7009878953791,6.78216601251112,165.05634460418418,0,0,0,0,0,0,0,0,0,0
99,99,99,1.1818,388.64021733951625,6.868903281390368,166.7101745192795,0,0,0,0,0,0,0,0,0,0
100,100,100,1.18182,388.5809255881069,7.011477641799396,168.35742300213838,0,0,0,0,0,0,0,0,0,0
101,101,101,1.18184,388.52530537595584,7.080140376561966,169.99802502222607,0,0,0,0,0,0,0,0,0,0
102,102,102,1.18186,388.47206505099376,7.074671884533613,171.63191581135436,0,0,0,0,0,0,0,0,0,0
103,103,103,1.18188,388.4191361148182,7.124328850089504,173.25903086634202,0,0,0,0,0,0,0,0,0,0
104,104,104,1.1819,388.3672516984751,7.228864129840547,174.8793059514434,0,0,0,0,0,0,0,0,0,0
105,105,105,1.18192,388.3171412753885,7.38801776506196,176.49267710098715,0,0,0,0,0,0,0,0,0,0
106,106,106,1.18194,388.27224747033375,7.342701951189035,178.09908062185744,0,0,0,0,0,0,0,0,0,0
107,107,107,1.18196,388.22711287423056,7.351510207998195,179.69845309596474,0,0,0,0,0,0,0,0,0,0
108,108,108,1.18198,388.1824902015601,7.414195311149735,181.2907313828656,0,0,0,0,0,0,0,0,0,0
109,109,109,1.182,388.13912834175,7.530496469472086,182.8758526220821,0,0,0,0,0,0,0,0,0,0
110,110,110,1.1820199999999998,388.0977721720468,7.700139396861076,184.4537542357565,0,0,0,0,0,0,0,0,0,0
111,111,111,1.18204,388.06199317757887,7.664163576870288,186.0243739310919,0,0,0,0,0,0,0,0,0,0
112,112,112,1.18206,388.0260850901877,7.6809955231844835,187.5876497026408,0,0,0,0,0,0,0,0,0,0
113,113,113,1.18208,387.99081407791937,7.750376209380301,189.143519834995,0,0,0,0,0,0,0,0,0,0
114,114,114,1.1821,387.95694214828166,7.872032377176944,190.69192290503764,0,0,0,0,0,0,0,0,0,0
115,115,115,1.1821199999999998,387.92522694342296,8.04567661689063,192.23279778448097,0,0,0,0,0,0,0,0,0,0
116,116,116,1.18214,387.8993843022116,8.01244540487969,193.76608364223688,0,0,0,0,0,0,0,0,0,0
117,117,117,1.18216,387.8734340037124,8.030630160597507,195.29171994677748,0,0,0,0,0,0,0,0,0,0
118,118,118,1.18218,387.8481529699625,8.09996166190995,196.80964646862128,0,0,0,0,0,0,0,0,0,0
119,119,119,1.1822,387.8243136378328,8.22015581857879,198.3198032826009,0,0,0,0,0,0,0,0,0,0
120,120,120,1.18222,387.8026837361683,8.39091376152916,199.82213077033845,0,0,0,0,0,0,0,0,0,0
121,121,121,1.18224,387.7871183270417,8.353437097989337,201.31656962248988,0,0,0,0,0,0,0,0,0,0
122,122,122,1.18226,387.7713584031749,8.365917206943944,202.80306084118192,0,0,0,0,0,0,0,0,0,0
123,123,123,1.18228,387.7561889435901,8.428076779870596,204.28154574229976,0,0,0,0,0,0,0,0,0,0
124,124,124,1.1823,387.7423901392989,8.539623037826622,205.7519659577644,0,0,0,0,0,0,0,0,0,0
125,125,125,1.18232,387.7307371521509,8.700247829575414,207.21426343793007,0,0,0,0,0,0,0,0,0,0
126,126,126,1.18234,387.7251974598924,8.651186300387748,208.6683804537697,0,0,0,0,0,0,0,0,0,0
127,127,127,1.18236,387.71924993594257,8.65056639965366,210.11425959924648,0,0,0,0,0,0,0,0,0,0
128,128,128,1.18238,387.7136849973848,8.698105394038933,211.55184379354063,0,0,0,0,0,0,0,0,0,0
129,129,129,1.1824,387.7092880051214,8.79350451516095,212.98107628326363,0,0,0,0,0,0,0,0,0,0
130,130,130,1.18242,387.70683900431743,8.93644906634238,214.40190064478983,0,0,0,0,0,0,0,0,0,0
131,131,131,1.18244,387.7093032305271,8.99739643575655,215.81426078638063,0,0,0,0,0,0,0,0,0,0
132,132,132,1.1824599999999998,387.71425999392494,8.975992164304781,217.21810095048883,0,0,0,0,0,0,0,0,0,0
133,133,133,1.18248,387.7192432192071,9.001147793673002,218.6133657159212,0,0,0,0,0,0,0,0,0,0
134,134,134,1.1825,387.7250403446217,9.072561900657211,219.9999999999884,0,0,0,0,0,0,0,0,0,0
135,135,135,1.18252,387.7324332566917,9.189916629594457,221.3779490607685,0,0,0,0,0,0,0,0,0,0
136,136,136,1.18254,387.74219801452233,9.352877812366188,222.74715849916703,0,0,0,0,0,0,0,0,0,0
137,137,137,1.18256,387.75853919674125,9.302636157886337,224.1075742611769,0,0,0,0,0,0,0,0,0,0
138,138,138,1.18258,387.7743822839069,9.297288254871416,225.45914263986384,0,0,0,0,0,0,0,0,0,0
139,139,139,1.1826,387.7905137713166,9.336534055188585,226.80181027763527,0,0,0,0,0,0,0,0,0,0
140,140,140,1.18262,387.80771443548485,9.42005663039363,228.13552416832013,0,0,0,0,0,0,0,0,0,0
141,141,141,1.18264,387.8267590407916,9.547522299235604,229.46023165911728,0,0,0,0,0,0,0,0,0,0
142,142,142,1.18266,387.8497584037587,9.65395369638552,230.77588045287928,0,0,0,0,0,0,0,0,0,0
143,143,143,1.18268,387.8767868522487,9.674331571251749,232.0824186100208,0,0,0,0,0,0,0,0,0,0
144,144,144,1.1827,387.90496735198144,9.672920604873806,233.3797945506644,0,0,0,0,0,0,0,0,0,0
145,145,145,1.18272,387.933494665498,9.714033474253016,234.667957056641,0,0,0,0,0,0,0,0,0,0
146,146,146,1.18274,387.96313874577646,9.797341923152285,235.94685527347727,0,0,0,0,0,0,0,0,0,0
147,147,147,1.18276,387.9946631326357,9.922500715742183,237.21643871248463,0,0,0,0,0,0,0,0,0,0
148,148,148,1.18278,388.03101443847817,9.959830716897558,238.4766572526597,0,0,0,0,0,0,0,0,0,0
149,149,149,1.1828,388.06944346303,9.973588782172518,239.7274611427441,0,0,0,0,0,0,0,0,0,0
150,150,150,1.18282,388.1089057740122,9.963412503485964,240.9688010031529,0,0,0,0,0,0,0,0,0,0
151,151,151,1.18284,388.0551505508273,0.0002422005885935,242.2006278278916,0,0,0,1,0,0,0,0,1,0
152,152,152,1.18286,387.90818692139135,0.0002434228540275,243.42289298656863,0,0,0,1,0,0,0,0,1,0
153,153,153,1.18288,387.7612791972838,0.000244635509544,244.63554822622632,0,0,0,1,0,0,0,0,1,0
154,154,154,1.1828999999999998,387.61442730971567,0.0002458385072696,245.83854567332324,0,0,0,1,0,0,0,0,1,0
155,155,155,1.18292,387.4676312123979,0.0002470317997118,247.03183783559084,0,0,0,1,0,0,0,0,1,0
156,156,156,1.18294,387.320890880722,0.0002482153397615,248.21537760387616,0,0,0,1,0,0,0,0,1,0
157,157,157,1.18296,387.17420616460026,0.0002493890806946,249.38911825407712,0,0,0,1,0,0,0,0,1,0
158,158,158,1.18298,387.0275770007388,0.0002505529761738,250.55301344890145,0,0,0,1,0,0,0,0,1,0
159,159,159,1.183,386.88100336809646,0.0002517069802506,251.70701723978075,0,0,0,1,0,0,0,0,1,0
160,160,160,1.18302,386.73448524563935,0.0002528510473668,252.85108406860044,0,0,0,1,0,0,0,0,1,0
161,161,161,1.18304,386.5880226123418,0.0002539851323565,253.9851687695716,0,0,0,1,0,0,0,0,1,0
162,162,162,1.18306,386.4416154471864,0.0002551091904482,255.10922657098217,0,0,0,1,0,0,0,0,1,0
163,163,163,1.18308,386.29526372916337,0.0002562231772658,256.22321309693456,0,0,0,1,0,0,0,0,1,0
164,164,164,1.1831,386.1489674372711,0.0002573270488311,257.3270843691783,0,0,0,1,0,0,0,0,1,0
165,165,165,1.18312,386.00272655051504,0.0002584207615651,258.4207968087158,0,0,0,1,0,0,0,0,1,0
166,166,166,1.18314,385.8565410479099,0.00025950427229,259.5043072376927,0,0,0,1,0,0,0,0,1,0
167,167,167,1.18316,385.7104109084776,0.0002605775382305,260.57757288098173,0,0,0,1,0,0,0,0,1,0
168,168,168,1.18318,385.5643361112484,0.000261640517016,261.64055136785424,0,0,0,1,0,0,0,0,1,0
169,169,169,1.1832,385.41831663525977,0.0002626931666819,262.6932007337687,0,0,0,1,0,0,0,0,1,0
170,170,170,1.18322,385.2723524595581,0.0002637354456713,263.7354794219116,0,0,0,1,0,0,0,0,1,0
171,171,171,1.1832399999999998,385.12644356319686,0.000264767312837,264.7673462849144,0,0,0,1,0,0,0,0,1,0
172,172,172,1.18326,384.980589925238,0.0002657887274425,265.7887605864494,0,0,0,1,0,0,0,0,1,0
173,173,173,1.18328,384.83479152475087,0.0002667996491641,266.7996820028106,0,0,0,1,0,0,0,0,1,0
174,174,174,1.1833,384.68904834081246,0.0002678000380924,267.8000706245696,0,0,0,1,0,0,0,0,1,0
175,175,175,1.18332,384.5433603525086,0.0002687898547338,268.78988695807845,0,0,0,1,0,0,0,0,1,0
176,176,176,1.1833399999999998,384.3977275389335,0.0002697690600119,269.7690919270924,0,0,0,1,0,0,0,0,1,0
177,177,177,1.18336,384.25214987918736,0.0002707376152695,270.73764687428445,0,0,0,1,0,0,0,0,1,0
178,178,178,1.18338,384.1066273523799,0.0002716954822696,271.6955135627464,0,0,0,1,0,0,0,0,1,0
179,179,179,1.1834,383.96115993762766,0.0002726426231973,272.6426541775586,0,0,0,1,0,0,0,0,1,0
180,180,180,1.18342,383.8157476140567,0.000273579000661,273.57903132721435,0,0,0,1,0,0,0,0,1,0
181,181,181,1.18344,383.6703903607988,0.0002745045776943,274.5046080451641,0,0,0,1,0,0,0,0,1,0
182,182,182,1.18346,383.52508815699525,0.0002754193177568,275.41934779120703,0,0,0,1,0,0,0,0,1,0
183,183,183,1.18348,383.3798409817945,0.0002763231847363,276.3232144529927,0,0,0,1,0,0,0,0,1,0
184,184,184,1.1835,383.2346488143534,0.0002772161429496,277.2161723474211,0,0,0,1,0,0,0,0,1,0
185,185,185,1.18352,383.08951163383625,0.0002780981571442,278.0981862220272,0,0,0,1,0,0,0,0,1,0
186,186,186,1.18354,382.9444294194152,0.0002789691924998,278.9692212564296,0,0,0,1,0,0,0,0,1,0
187,187,187,1.18356,382.79940215027005,0.0002798292146293,279.8292430636407,0,0,0,1,0,0,0,0,1,0
188,188,188,1.18358,382.65442980558913,0.0002806781895806,280.6782176914802,0,0,0,1,0,0,0,0,1,0
189,189,189,1.1836,382.5095123645689,0.0002815160838375,281.51611162389094,0,0,0,1,0,0,0,0,1,0
190,190,190,1.18362,382.36464980641233,0.0002823428643215,282.34289178224003,0,0,0,1,0,0,0,0,1,0
191,191,191,1.18364,382.2198421103319,0.0002831584983927,283.1585255266774,0,0,0,1,0,0,0,0,1,0
192,192,192,1.18366,382.0750892555466,0.0002839629538512,283.9629806573648,0,0,0,1,0,0,0,0,1,0
193,193,193,1.1836799999999998,381.930391221284,0.0002847561989384,284.7562254157984,0,0,0,1,0,0,0,0,1,0
194,194,194,1.1837,381.7857479867792,0.0002855382023386,285.53822848604034,0,0,0,1,0,0,0,0,1,0
195,195,195,1.18372,381.6411595312754,0.0002863089331794,286.3089589959344,0,0,0,1,0,0,0,0,1,0
196,196,196,1.18374,381.4966258340242,0.0002870683610338,287.0683865183806,0,0,0,1,0,0,0,0,1,0
197,197,197,1.18376,381.3521468742827,0.0002878164559208,287.81648107245303,0,0,0,1,0,0,0,0,1,0
198,198,198,1.18378,381.207722631319,0.000288553188307,288.5532131246802,0,0,0,1,0,0,0,0,1,0
199,199,199,1.1838,381.06335308440737,0.0002892785291074,289.2785535901288,0,0,0,1,0,0,0,0,1,0
200,200,200,1.18382,380.91903821283023,0.0002899924496867,289.992473833606,0,0,0,1,0,0,0,0,1,0
201,201,201,1.183830287734613,380.91903821283023,0.0002899924496867,289.992473833606,0,0,0,1,0,0,0,0,1,0
