,Unnamed: 0.1,Unnamed: 0,Time / s,Vo:Measured voltage,IL:Measured current,Vin:Measured voltage,open1:Output,open3:Output,open2:Output,open4:Output,short1:Output,short2:Output,short3:Output,short4:Output,OPEN,SHORT
0,0,0,1.1117554447634912,388.7145766077063,-6.68794442613,-161.72920189599807,0,0,0,0,0,0,0,0,0,0
1,1,1,1.11176,388.6527373075082,-6.663867120133305,-163.39599854720052,0,0,0,0,0,0,0,0,0,0
2,2,2,1.11178,388.59097847700593,-6.696107717711912,-165.0563446041891,0,0,0,0,0,0,0,0,0,0
3,3,3,1.1118,388.5300152338812,-6.784433103484385,-166.7101745192844,0,0,0,0,0,0,0,0,0,0
4,4,4,1.11182,388.4705593812388,-6.9285980390453465,-168.35742300215813,0,0,0,0,0,0,0,0,0,0
5,5,5,1.11184,388.4150225652386,-6.998892343275246,-169.99802502223096,0,0,0,0,0,0,0,0,0,0
6,6,6,1.1118599999999998,388.36162752875134,-6.99508953450766,-171.6319158113592,0,0,0,0,0,0,0,0,0,0
7,7,7,1.11188,388.3085743428685,-7.046414193152136,-173.25903086634685,0,0,0,0,0,0,0,0,0,0
8,8,8,1.1119,388.2565961163948,-7.152618727731952,-174.8793059514482,0,0,0,0,0,0,0,0,0,0
9,9,9,1.11192,388.20642229422407,-7.313442731885232,-176.4926771010065,0,0,0,0,0,0,0,0,0,0
10,10,10,1.11194,388.1608988810446,-7.334559210461637,-178.0990806218622,0,0,0,0,0,0,0,0,0,0
11,11,11,1.11196,388.11662127202095,-7.34510407959591,-179.6984530959839,0,0,0,0,0,0,0,0,0,0
12,12,12,1.11198,388.0728873780424,-7.409512378432659,-181.290731382856,0,0,0,0,0,0,0,0,0,0
13,13,13,1.112,388.030445850013,-7.527522831375368,-182.8758526220725,0,0,0,0,0,0,0,0,0,0
14,14,14,1.11202,387.9910888494241,-7.634206973023935,-184.45375423577548,0,0,0,0,0,0,0,0,0,0
15,15,15,1.11204,387.95535221749407,-7.599985747895246,-186.0243739310824,0,0,0,0,0,0,0,0,0,0
16,16,16,1.11206,387.91951984464,-7.618571323679523,-187.58764970264545,0,0,0,0,0,0,0,0,0,0
17,17,17,1.11208,387.8843578309754,-7.689704139744793,-189.1435198349856,0,0,0,0,0,0,0,0,0,0
18,18,18,1.1121,387.85062810802646,-7.813110404839966,-190.69192290502824,0,0,0,0,0,0,0,0,0,0
19,19,19,1.11212,387.81908823394286,-7.988502177677737,-192.23279778448548,0,0,0,0,0,0,0,0,0,0
20,20,20,1.11214,387.79342038510975,-7.957087053589213,-193.7660836422276,0,0,0,0,0,0,0,0,0,0
21,21,21,1.11216,387.76767996632327,-7.977084674047681,-195.291719946782,0,0,0,0,0,0,0,0,0,0
22,22,22,1.11218,387.7426437941572,-8.048225232162558,-196.80964646861204,0,0,0,0,0,0,0,0,0,0
23,23,23,1.1122,387.7190841909136,-8.170224054864576,-198.3198032825917,0,0,0,0,0,0,0,0,0,0
24,24,24,1.11222,387.6988942645333,-8.278177590145528,-199.82213077032927,0,0,0,0,0,0,0,0,0,0
25,25,25,1.11224,387.68263157471335,-8.242565492520798,-201.31656962248084,0,0,0,0,0,0,0,0,0,0
26,26,26,1.11226,387.6662115696876,-8.256921917370073,-202.80306084118627,0,0,0,0,0,0,0,0,0,0
27,27,27,1.11228,387.6504193539804,-8.320968906932189,-204.2815457422908,0,0,0,0,0,0,0,0,0,0
28,28,28,1.1122999999999998,387.63603523351753,-8.434413031040599,-205.7519659577555,0,0,0,0,0,0,0,0,0,0
29,29,29,1.11232,387.6238344744506,-8.596945485433894,-207.2142634379344,0,0,0,0,0,0,0,0,0,0
30,30,30,1.11234,387.61709317232845,-8.614466829317566,-208.66838045376088,0,0,0,0,0,0,0,0,0,0
31,31,31,1.11236,387.6116711034252,-8.615837823371107,-210.11425959926385,0,0,0,0,0,0,0,0,0,0
32,32,32,1.11238,387.6066711316584,-8.66535787647667,-211.5518437935449,0,0,0,0,0,0,0,0,0,0
33,33,33,1.1124,387.60287839407954,-8.762727510983845,-212.9810762832808,0,0,0,0,0,0,0,0,0,0
34,34,34,1.11242,387.6010727002272,-8.907631325186017,-214.40190064479404,0,0,0,0,0,0,0,0,0,0
35,35,35,1.11244,387.60486629838135,-8.905970432263643,-215.8142607863848,0,0,0,0,0,0,0,0,0,0
36,36,36,1.11246,387.6094330243161,-8.886579100234052,-217.2181009505057,0,0,0,0,0,0,0,0,0,0
37,37,37,1.11248,387.6140675749714,-8.913754548037632,-218.61336571592528,0,0,0,0,0,0,0,0,0,0
38,38,38,1.1125,387.61955743950256,-8.987194577207525,-220.00000000000503,0,0,0,0,0,0,0,0,0,0
39,39,39,1.11252,387.6266845418816,-9.106580556101909,-221.3779490607726,0,0,0,0,0,0,0,0,0,0
40,40,40,1.11254,387.63622496520526,-9.271577540158482,-222.7471584991711,0,0,0,0,0,0,0,0,0,0
41,41,41,1.11256,387.65233513795897,-9.223446880178612,-224.10757426116865,0,0,0,0,0,0,0,0,0,0
42,42,42,1.11258,387.66799121651457,-9.2202139927579,-225.45914263985568,0,0,0,0,0,0,0,0,0,0
43,43,43,1.1126,387.68397969774406,-9.2615779767395,-226.80181027765133,0,0,0,0,0,0,0,0,0,0
44,44,44,1.11262,387.70108134447753,-9.347221050886729,-228.13552416831203,0,0,0,0,0,0,0,0,0,0
45,45,45,1.11264,387.7200708921689,-9.476808681682368,-229.46023165910924,0,0,0,0,0,0,0,0,0,0
46,46,46,1.11266,387.7427577149308,-9.585378055606444,-230.7758804528713,0,0,0,0,0,0,0,0,0,0
47,47,47,1.11268,387.7694972454137,-9.607938420894666,-232.0824186100129,0,0,0,0,0,0,0,0,0,0
48,48,48,1.1127,387.7977168099857,-9.608732841708129,-233.37979455066807,0,0,0,0,0,0,0,0,0,0
49,49,49,1.11272,387.8263297143228,-9.652049824560434,-234.6679570566332,0,0,0,0,0,0,0,0,0,0
50,50,50,1.1127399999999998,387.8561058153996,-9.737560181965588,-235.9468552734696,0,0,0,0,0,0,0,0,0,0
51,51,51,1.11276,387.8878085399033,-9.864917749055984,-237.21643871247693,0,0,0,0,0,0,0,0,0,0
52,52,52,1.11278,387.9237669222746,-9.904476364407168,-238.47665725265213,0,0,0,0,0,0,0,0,0,0
53,53,53,1.1128,387.9621417226686,-9.920490991156711,-239.72746114274776,0,0,0,0,0,0,0,0,0,0
54,54,54,1.11282,388.0018918026211,-9.912589273686349,-240.96880100314536,0,0,0,0,0,0,0,0,0,0
55,55,55,1.11284,388.04186067955845,-9.945083209010324,-242.20062782789523,0,0,0,0,0,0,0,0,0,0
56,56,56,1.11286,388.0828039342112,-10.017637447163017,-243.4228929865613,0,0,0,0,0,0,0,0,0,0
57,57,57,1.11288,388.12547040072207,-10.129899520843177,-244.63554822621896,0,0,0,0,0,0,0,0,0,0
58,58,58,1.1129,388.1717236444426,-10.216817896814067,-245.83854567333765,0,0,0,0,0,0,0,0,0,0
59,59,59,1.11292,388.22183444039865,-10.213298887329223,-247.0318378355836,0,0,0,0,0,0,0,0,0,0
60,60,60,1.11294,388.2729517228288,-10.183629586007184,-248.21537760389032,0,0,0,0,0,0,0,0,0,0
61,61,61,1.11296,388.3238473928741,-10.192162949072795,-249.3891182540806,0,0,0,0,0,0,0,0,0,0
62,62,62,1.11298,388.3752590549378,-10.238563848706876,-250.5530134489049,0,0,0,0,0,0,0,0,0,0
63,63,63,1.113,388.4279173691451,-10.322479998157576,-251.70701723978408,0,0,0,0,0,0,0,0,0,0
64,64,64,1.11302,388.4825457228658,-10.443542118430011,-252.8510840686038,0,0,0,0,0,0,0,0,0,0
65,65,65,1.11304,388.5410222450205,-10.536620982342468,-253.9851687695852,0,0,0,0,0,0,0,0,0,0
66,66,66,1.11306,388.6021819384296,-10.601289897544316,-255.1092265709855,0,0,0,0,0,0,0,0,0,0
67,67,67,1.1130799999999998,388.6670917584888,-10.572381760179132,-256.22321309693785,0,0,0,0,0,0,0,0,0,0
68,68,68,1.1131,388.73175674777127,-10.579015358769109,-257.32708436917164,0,0,0,0,0,0,0,0,0,0
69,69,69,1.11312,388.79688426716393,-10.62084637352824,-258.4207968087191,0,0,0,0,0,0,0,0,0,0
70,70,70,1.11314,388.8631743553464,-10.697513596689245,-259.50430723770563,0,0,0,0,0,0,0,0,0,0
71,71,71,1.11316,388.9313193956573,-10.80863911256418,-260.5775728809752,0,0,0,0,0,0,0,0,0,0
72,72,72,1.11318,389.0037530344897,-10.824189025826495,-261.64055136785737,0,0,0,0,0,0,0,0,0,0
73,73,73,1.1132,389.0768177440068,-10.873372558896165,-262.69320073376235,0,0,0,0,0,0,0,0,0,0
74,74,74,1.11322,389.1526176362447,-10.890976525902714,-263.73547942190527,0,0,0,0,0,0,0,0,0,0
75,75,75,1.11324,389.2298427613886,-10.87657614490734,-264.7673462849174,0,0,0,0,0,0,0,0,0,0
76,76,76,1.11326,389.3070787121063,-10.894647806556518,-265.78876058644323,0,0,0,0,0,0,0,0,0,0
77,77,77,1.11328,389.38499077752255,-10.944831173763331,-266.7996820028136,0,0,0,0,0,0,0,0,0,0
78,78,78,1.1133,389.46423640287566,-11.02674961990501,-267.80007062456355,0,0,0,0,0,0,0,0,0,0
79,79,79,1.11332,389.54546485890825,-11.140010425933824,-268.7898869580725,0,0,0,0,0,0,0,0,0,0
80,80,80,1.11334,389.63113143152265,-11.154357722703557,-269.76909192709525,0,0,0,0,0,0,0,0,0,0
81,81,81,1.11336,389.7173855271376,-11.199188922867457,-270.7376468742786,0,0,0,0,0,0,0,0,0,0
82,82,82,1.11338,389.80486024450016,-11.27412444674246,-271.6955135627492,0,0,0,0,0,0,0,0,0,0
83,83,83,1.1134,389.8964326160976,-11.248834446806658,-272.64265417755286,0,0,0,0,0,0,0,0,0,0
84,84,84,1.11342,389.98774628170105,-11.25280517651296,-273.5790313272087,0,0,0,0,0,0,0,0,0,0
85,85,85,1.11344,390.0794180604135,-11.285673152441696,-274.5046080451585,0,0,0,0,0,0,0,0,0,0
86,86,86,1.11346,390.17205666429817,-11.347059404683446,-275.41934779120146,0,0,0,0,0,0,0,0,0,0
87,87,87,1.11348,390.26626237520975,-11.436569685557595,-276.3232144530035,0,0,0,0,0,0,0,0,0,0
88,88,88,1.1135,390.364492881485,-11.423704105926811,-277.21617234741564,0,0,0,0,0,0,0,0,0,0
89,89,89,1.1135199999999998,390.462703920952,-11.438098060425514,-278.09818622202187,0,0,0,0,0,0,0,0,0,0
90,90,90,1.11354,390.5614778739114,-11.479377101984293,-278.9692212564321,0,0,0,0,0,0,0,0,0,0
91,91,91,1.11356,390.66138868574126,-11.547151983177011,-279.8292430636433,0,0,0,0,0,0,0,0,0,0
92,92,92,1.11358,390.7630015540631,-11.641018875449204,-280.6782176914903,0,0,0,0,0,0,0,0,0,0
93,93,93,1.1136,390.8691878873203,-11.630302078667624,-281.51611162389344,0,0,0,0,0,0,0,0,0,0
94,94,94,1.11362,390.97537689750624,-11.644782413302542,-282.34289178224986,0,0,0,0,0,0,0,0,0,0
95,95,95,1.11364,391.0821141004576,-11.684079912724435,-283.1585255266798,0,0,0,0,0,0,0,0,0,0
96,96,96,1.11366,391.1899363632738,-11.74780057655679,-283.9629806573671,0,0,0,0,0,0,0,0,0,0
97,97,97,1.11368,391.3006963096966,-11.770335580279452,-284.75622541580776,0,0,0,0,0,0,0,0,0,0
98,98,98,1.1137,391.41277133147,-11.75121826640288,-285.5382284860426,0,0,0,0,0,0,0,0,0,0
99,99,99,1.11372,391.5246383659056,-11.75525706169072,-286.3089589959436,0,0,0,0,0,0,0,0,0,0
100,100,100,1.11374,391.6368054562119,-11.782072500470193,-287.06838651837603,0,0,0,0,0,0,0,0,0,0
101,101,101,1.11376,391.7497719138014,-11.83127188827804,-287.8164810724485,0,0,0,0,0,0,0,0,0,0
102,102,102,1.11378,391.8640280315687,-11.902449533907255,-288.5532131246758,0,0,0,0,0,0,0,0,0,0
103,103,103,1.1138,391.9800548024891,-11.995186988384429,-289.27855359012443,0,0,0,0,0,0,0,0,0,0
104,104,104,1.11382,392.09987883336345,-12.043720848625863,-289.99247383360813,0,0,0,0,0,0,0,0,0,0
105,105,105,1.11384,392.2217923819004,-12.047551465196069,-290.69494567076504,0,0,0,0,0,0,0,0,0,0
106,106,106,1.11386,392.3439738693865,-12.07159587713195,-291.3859413692165,0,0,0,0,0,0,0,0,0,0
107,107,107,1.11388,392.46687194532296,-12.11545719392717,-292.06543364964153,0,0,0,0,0,0,0,0,0,0
108,108,108,1.1139,392.5915589005792,-12.113311808710852,-292.73339568683605,0,0,0,0,0,0,0,0,0,0
109,109,109,1.11392,392.716364885346,-12.130141707751978,-293.38980111081474,0,0,0,0,0,0,0,0,0,0
110,110,110,1.11394,392.84308067219496,-12.10009385447081,-294.0346240078035,0,0,0,0,0,0,0,0,0,0
111,111,111,1.1139599999999998,392.9692729120815,-12.088187991718684,-294.66783892130434,0,0,0,0,0,0,0,0,0,0
112,112,112,1.11398,393.09534972899695,-12.094043240877667,-295.28942085308245,0,0,0,0,0,0,0,0,0,0
113,113,113,1.114,393.2217103135288,-12.11726783796012,-295.8993452641362,0,0,0,0,0,0,0,0,0,0
114,114,114,1.11402,393.34874468163775,-12.1574593761923,-296.49758807570515,0,0,0,0,0,0,0,0,0,0
115,115,115,1.11404,393.47683343910967,-12.214205054569428,-297.0841256701767,0,0,0,0,0,0,0,0,0,0
116,116,116,1.11406,393.60634755181286,-12.287081932237664,-297.6589348920667,0,0,0,0,0,0,0,0,0,0
117,117,117,1.11408,393.7376481218869,-12.375657188554998,-298.2219930488705,0,0,0,0,0,0,0,0,0,0
118,118,118,1.1141,393.8710861699839,-12.479488388680448,-298.7732779120217,0,0,0,0,0,0,0,0,0,0
119,119,119,1.11412,394.0094630064693,-12.466822400730086,-299.3127677177575,0,0,0,0,0,0,0,0,0,0
120,120,120,1.11414,394.1476616208076,-12.46844040338379,-299.8404411679196,0,0,0,0,0,0,0,0,0,0
121,121,121,1.11416,394.2860064379561,-12.483947428037236,-300.3562774308782,0,0,0,0,0,0,0,0,0,0
122,122,122,1.11418,394.4262287469467,-12.447218930923276,-300.8602561422915,0,0,0,0,0,0,0,0,0,0
123,123,123,1.1142,394.5656995646804,-12.42352877571052,-301.35235740594766,0,0,0,0,0,0,0,0,0,0
124,124,124,1.11422,394.7033075503564,-12.47826236220168,-301.8325617945357,0,0,0,0,0,0,0,0,0,0
125,125,125,1.11424,394.8429228601423,-12.479507504881107,-302.3008503504,0,0,0,0,0,0,0,0,0,0
126,126,126,1.11426,394.9840621463941,-12.42678796228838,-302.7572045863185,0,0,0,0,0,0,0,0,0,0
127,127,127,1.11428,395.12341397000125,-12.451313611570074,-303.20160648619924,0,0,0,0,0,0,0,0,0,0
128,128,128,1.1142999999999998,395.26264517978495,-12.48689081138585,-303.6340385058203,0,0,0,0,0,0,0,0,0,0
129,129,129,1.11432,395.40418647666746,-12.467234379351916,-304.05448357350974,0,0,0,0,0,0,0,0,0,0
130,130,130,1.11434,395.54533543159926,-12.457766555962277,-304.4629250908086,0,0,0,0,0,0,0,0,0,0
131,131,131,1.11436,395.68568300051294,-12.524023008815613,-304.8593469331526,0,0,0,0,0,0,0,0,0,0
132,132,132,1.11438,395.8282759459863,-12.533735429963388,-305.2437334504789,0,0,0,0,0,0,0,0,0,0
133,133,133,1.1144,395.9711468380988,-12.552395858691163,-305.61606946787293,0,0,0,0,0,0,0,0,0,0
134,134,134,1.11442,396.1144995125322,-12.579591923863166,-305.97634028613965,0,0,0,0,0,0,0,0,0,0
135,135,135,1.11444,396.2585280422514,-12.614905697373146,-306.3245316824073,0,0,0,0,0,0,0,0,0,0
136,136,136,1.11446,396.403416614688,-12.657913962612684,-306.6606299106789,0,0,0,0,0,0,0,0,0,0
137,137,137,1.11448,396.5493394152746,-12.708188486008128,-306.9846217023657,0,0,0,0,0,0,0,0,0,0
138,138,138,1.1145,396.6964605173867,-12.765296291461702,-307.29649426683244,0,0,0,0,0,0,0,0,0,0
139,139,139,1.11452,396.84493377876265,-12.82879993753028,-307.5962352918786,0,0,0,0,0,0,0,0,0,0
140,140,140,1.11454,396.9949027444603,-12.898257797174256,-307.88383294424466,0,0,0,0,0,0,0,0,0,0
141,141,141,1.11456,397.1481538125217,-12.907051722070127,-308.15927587007013,0,0,0,0,0,0,0,0,0,0
142,142,142,1.11458,397.302480110332,-12.854662612809998,-308.42255319533507,0,0,0,0,0,0,0,0,0,0
143,143,143,1.1146,397.4547066312968,-12.873079158528334,-308.67365452630617,0,0,0,0,0,0,0,0,0,0
144,144,144,1.11462,397.6082198439897,-12.829472869118623,-308.91256994992824,0,0,0,0,0,0,0,0,0,0
145,145,145,1.11464,397.7598360108408,-12.855928636725766,-309.13929003423186,0,0,0,0,0,0,0,0,0,0
146,146,146,1.11466,397.9129153387783,-12.819510581160948,-309.35380582870005,0,0,0,0,0,0,0,0,0,0
147,147,147,1.11468,398.0642601634777,-12.852400369800709,-309.556108864607,0,0,0,0,0,0,0,0,0,0
148,148,148,1.1147,398.2172086793934,-12.82155612588215,-309.7461911553862,0,0,0,0,0,0,0,0,0,0
149,149,149,1.11472,398.36776271855024,-12.859256064506695,-309.92404519690564,0,0,0,0,0,0,0,0,0,0
150,150,150,1.1147399999999998,398.5208071017574,-12.83237593668314,-310.0896639677958,0,0,0,0,0,0,0,0,0,0
151,151,151,1.11476,398.6810863154384,-12.474702809549232,-310.2430409297124,1,0,0,0,0,0,0,0,1,0
152,152,152,1.11478,398.86337534074175,-9.525867576072374,-310.384170027593,1,0,0,0,0,0,0,0,1,0
153,153,153,1.1148,398.956244242253,-6.576946557473152,-310.51304568990486,1,0,0,0,0,0,0,0,1,0
154,154,154,1.11482,398.95976306362127,-3.630510938960344,-310.62966282885526,1,0,0,0,0,0,0,0,1,0
155,155,155,1.11484,398.8740797325004,-0.6891281113678297,-310.73401684060144,1,0,0,0,0,0,0,0,1,0
156,156,156,1.11486,398.72522134952936,0.0729403159570301,-310.8261036054236,1,0,0,0,0,0,0,0,1,0
157,157,157,1.11488,398.57401768551085,0.028912069935576,-310.9059194878951,1,0,0,0,0,0,0,0,1,0
158,158,158,1.1149,398.4230383217886,-0.0003109734563842,-310.97346133702206,1,0,0,0,0,0,0,0,1,0
159,159,159,1.11492,398.2721490835556,-0.0003110287219013,-311.0287264863668,1,0,0,0,0,0,0,0,1,0
160,160,160,1.11494,398.1213169895131,-0.0003110717085371,-311.0717127541567,1,0,0,0,0,0,0,0,1,0
161,161,161,1.11496,397.97054201802047,-0.0003111024145944,-311.1024184433668,1,0,0,0,0,0,0,0,1,0
162,162,162,1.11498,397.81982414744414,-0.0003111208388611,-311.1208423417895,1,0,0,0,0,0,0,0,1,0
163,163,163,1.115,397.6691633561594,-0.0003111269806098,-311.12698372208087,1,0,0,0,0,0,0,0,1,0
164,164,164,1.11502,397.5185596225495,-0.0003111208395981,-311.1208423417897,1,0,0,0,0,0,0,0,1,0
165,165,165,1.11504,397.3680129250049,-0.0003111024160683,-311.10241844336684,1,0,0,0,0,0,0,0,1,0
166,166,166,1.11506,397.2175232419256,-0.0003110717107478,-311.0717127541568,1,0,0,0,0,0,0,0,1,0
167,167,167,1.1150799999999998,397.0670905517193,-0.0003110287248489,-311.02872648636736,1,0,0,0,0,0,0,0,1,0
168,168,168,1.1151,396.9167148328019,-0.0003109734600684,-310.9734613370223,1,0,0,0,0,0,0,0,1,0
169,169,169,1.11512,396.7663960635978,-0.0003109059185882,-310.905919487896,1,0,0,0,0,0,0,0,1,0
170,170,170,1.11514,396.61613422253856,-0.0003108261030747,-310.82610360542384,1,0,0,0,0,0,0,0,1,0
171,171,171,1.11516,396.4659292880653,-0.0003107340166789,-310.73401684060167,1,0,0,0,0,0,0,0,1,0
172,172,172,1.11518,396.3157812386257,-0.0003106296630361,-310.6296628288546,1,0,0,0,0,0,0,0,1,0
173,173,173,1.1152,396.1656900526776,-0.0003105130462662,-310.5130456899052,1,0,0,0,0,0,0,0,1,0
174,174,174,1.11522,396.01565570868496,-0.0003103841709729,-310.3841700275945,1,0,0,0,0,0,0,0,1,0
175,175,175,1.11524,395.8656781851212,-0.0003102430422439,-310.24304092971147,1,0,0,0,0,0,0,0,1,0
176,176,176,1.11526,395.7157574604676,-0.0003100896656509,-310.0896639677962,1,0,0,0,0,0,0,0,1,0
177,177,177,1.11528,395.5658935132127,-0.0003099240472488,-309.92404519690456,1,0,0,0,0,0,0,0,1,0
178,178,178,1.1153,395.4160863218553,-0.000309746193576,-309.7461911553851,1,0,0,0,0,0,0,0,1,0
179,179,179,1.11532,395.2663358648997,-0.0003095561116539,-309.55610886460926,1,0,0,0,0,0,0,0,1,0
180,180,180,1.11534,395.1166421208605,-0.0003093538089865,-309.3538058286987,1,0,0,0,0,0,0,0,1,0
181,181,181,1.11536,394.96700506825925,-0.0003091392935604,-309.1392900342345,1,0,0,0,0,0,0,0,1,0
182,182,182,1.11538,394.81742468562646,-0.0003089125738444,-308.91256994992887,1,0,0,0,0,0,0,0,1,0
183,183,183,1.1154,394.6679009514999,-0.0003086736587889,-308.6736545263068,1,0,0,0,0,0,0,0,1,0
184,184,184,1.11542,394.51843384442606,-0.0003084225578258,-308.4225531953381,1,0,0,0,0,0,0,0,1,0
185,185,185,1.11544,394.3690233429588,-0.0003081592808683,-308.15927587007087,1,0,0,0,0,0,0,0,1,0
186,186,186,1.11546,394.21966942566127,-0.0003078838383101,-307.883832944248,1,0,0,0,0,0,0,0,1,0
187,187,187,1.11548,394.0703720711039,-0.0003075962410251,-307.5962352918794,1,0,0,0,0,0,0,0,1,0
188,188,188,1.1155,393.9211312578658,-0.0003072965003671,-307.29649426683324,1,0,0,0,0,0,0,0,1,0
189,189,189,1.1155199999999998,393.7719469645336,-0.0003069846281696,-306.98462170236945,1,0,0,0,0,0,0,0,1,0
190,190,190,1.11554,393.62281916970153,-0.0003066606367445,-306.66062991067975,1,0,0,0,0,0,0,0,1,0
191,191,191,1.11556,393.47374785197377,-0.0003063245388826,-306.32453168241136,1,0,0,0,0,0,0,0,1,0
192,192,192,1.11558,393.324732989961,-0.0003059763478524,-305.9763402861406,1,0,0,0,0,0,0,0,1,0
193,193,193,1.1156,393.1757745622826,-0.0003056160773999,-305.6160694678739,1,0,0,0,0,0,0,0,1,0
194,194,194,1.11562,393.0268725475666,-0.000305243741748,-305.24373345047985,1,0,0,0,0,0,0,0,1,0
195,195,195,1.11564,392.87802692444814,-0.0003048593555958,-304.85934693315363,1,0,0,0,0,0,0,0,1,0
196,196,196,1.11566,392.72923767157033,-0.0003044629341182,-304.46292509081337,1,0,0,0,0,0,0,0,1,0
197,197,197,1.11568,392.5805047675855,-0.0003040544929654,-304.0544835735109,1,0,0,0,0,0,0,0,1,0
198,198,198,1.1157,392.4318281911532,-0.0003036340482617,-303.6340385058253,1,0,0,0,0,0,0,0,1,0
199,199,199,1.11572,392.2832079209407,-0.0003032016166058,-303.2016064862004,1,0,0,0,0,0,0,0,1,0
200,200,200,1.11574,392.1346439356247,-0.0003027572150692,-302.7572045863197,1,0,0,0,0,0,0,0,1,0
201,201,201,1.115755444763491,392.1346439356247,-0.0003027572150692,-302.7572045863197,1,0,0,0,0,0,0,0,1,0
