,Unnamed: 0.1,Unnamed: 0,Time / s,Vo:Measured voltage,IL:Measured current,Vin:Measured voltage,open1:Output,open3:Output,open2:Output,open4:Output,short1:Output,short2:Output,short3:Output,short4:Output,OPEN,SHORT
0,0,0,1.1069384444673047,411.14811770895375,10.611963478674266,256.22321309694894,0,0,0,0,0,0,0,0,0,0
1,1,1,1.10694,411.19123055833984,10.63531002688774,255.1092265709865,0,0,0,0,0,0,0,0,0,0
2,2,2,1.10696,411.234410945297,10.620462392650726,253.9851687695862,0,0,0,0,0,0,0,0,0,0
3,3,3,1.10698,411.2769383543112,10.567096504825326,252.8510840686152,0,0,0,0,0,0,0,0,0,0
4,4,4,1.107,411.3180866096928,10.474904767755488,251.7070172397852,0,0,0,0,0,0,0,0,0,0
5,5,5,1.10702,411.3571241883821,10.34359618608579,250.55301344891643,0,0,0,0,0,0,0,0,0,0
6,6,6,1.10704,411.3918971321265,10.241446645331065,249.3891182540817,0,0,0,0,0,0,0,0,0,0
7,7,7,1.10706,411.4225772041472,10.236779536754424,248.21537760389143,0,0,0,0,0,0,0,0,0,0
8,8,8,1.1070799999999998,411.45238607694034,10.26077599352174,247.03183783560613,0,0,0,0,0,0,0,0,0,0
9,9,9,1.1071,411.48225848319487,10.244560060794756,245.8385456733279,0,0,0,0,0,0,0,0,0,0
10,10,10,1.10712,411.5114605639753,10.187818885769708,244.63554822624192,0,0,0,0,0,0,0,0,0,0
11,11,11,1.10714,411.539253199394,10.090255963247367,243.4228929865624,0,0,0,0,0,0,0,0,0,0
12,12,12,1.10716,411.5648923088039,9.951591248406492,242.2006278278964,0,0,0,0,0,0,0,0,0,0
13,13,13,1.10718,411.5852685194631,9.90873060235628,240.96880100314647,0,0,0,0,0,0,0,0,0,0
14,14,14,1.1072,411.6037492501737,9.892858636280426,239.7274611427489,0,0,0,0,0,0,0,0,0,0
15,15,15,1.10722,411.62117126024367,9.903693493259048,238.4766572526647,0,0,0,0,0,0,0,0,0,0
16,16,16,1.10724,411.638410557552,9.87234318279059,237.21643871247807,0,0,0,0,0,0,0,0,0,0
17,17,17,1.10726,411.6547233153887,9.798511354297585,235.94685527348224,0,0,0,0,0,0,0,0,0,0
18,18,18,1.10728,411.6693609225951,9.681917789462538,234.6679570566344,0,0,0,0,0,0,0,0,0,0
19,19,19,1.1073,411.68025494802725,9.590897869738225,233.3797945506694,0,0,0,0,0,0,0,0,0,0
20,20,20,1.10732,411.68748820207645,9.59381882110076,232.08241861002583,0,0,0,0,0,0,0,0,0,0
21,21,21,1.10734,411.6944028691125,9.553209586622453,230.77588045287257,0,0,0,0,0,0,0,0,0,0
22,22,22,1.10736,411.69985436572586,9.537391568884958,229.46023165912243,0,0,0,0,0,0,0,0,0,0
23,23,23,1.10738,411.7046654815911,9.477476239835289,228.13552416831328,0,0,0,0,0,0,0,0,0,0
24,24,24,1.1074,411.70808594758313,9.3731879521674,226.8018102776526,0,0,0,0,0,0,0,0,0,0
25,25,25,1.1074199999999998,411.7093612360069,9.22426689220204,225.4591426398691,0,0,0,0,0,0,0,0,0,0
26,26,26,1.10744,411.70485934106256,9.236289025699856,224.10757426116987,0,0,0,0,0,0,0,0,0,0
27,27,27,1.10746,411.699799085006,9.271802475719502,222.7471584991848,0,0,0,0,0,0,0,0,0,0
28,28,28,1.10748,411.69495444735696,9.26190825405414,221.37794906077391,0,0,0,0,0,0,0,0,0,0
29,29,29,1.1075,411.68958014520126,9.206323943456567,220.0000000000063,0,0,0,0,0,0,0,0,0,0
30,30,30,1.10752,411.68292668230464,9.10478242975604,218.61336571592656,0,0,0,0,0,0,0,0,0,0
31,31,31,1.10754,411.6742406017563,8.957031984538233,217.21810095050697,0,0,0,0,0,0,0,0,0,0
32,32,32,1.10756,411.6609019986115,8.900035218538827,215.81426078639885,0,0,0,0,0,0,0,0,0,0
33,33,33,1.10758,411.6453666156437,8.864957748817238,214.4019006447953,0,0,0,0,0,0,0,0,0,0
34,34,34,1.1076,411.6285342476394,8.851544894085484,212.98107628328208,0,0,0,0,0,0,0,0,0,0
35,35,35,1.10762,411.6111292350124,8.790932675424921,211.55184379354623,0,0,0,0,0,0,0,0,0,0
36,36,36,1.10764,411.59240617858137,8.682865715476199,210.1142595992652,0,0,0,0,0,0,0,0,0,0
37,37,37,1.10766,411.57161605505615,8.527103514839105,208.66838045378847,0,0,0,0,0,0,0,0,0,0
38,38,38,1.10768,411.5453687990122,8.529163940360515,207.21426343792257,0,0,0,0,0,0,0,0,0,0
39,39,39,1.1077,411.5184307926848,8.551643158570373,205.75196595778337,0,0,0,0,0,0,0,0,0,0
40,40,40,1.10772,411.4914807349044,8.525692091232967,204.2815457422922,0,0,0,0,0,0,0,0,0,0
41,41,41,1.10774,411.463783045008,8.451055366958824,202.8030608411877,0,0,0,0,0,0,0,0,0,0
42,42,42,1.10776,411.4345986602436,8.327491885027232,201.3165696224957,0,0,0,0,0,0,0,0,0,0
43,43,43,1.10778,411.40207827771087,8.22333022131671,199.8221307703308,0,0,0,0,0,0,0,0,0,0
44,44,44,1.1078,411.36705184759984,8.138349130120579,198.3198032826068,0,0,0,0,0,0,0,0,0,0
45,45,45,1.10782,411.32921949088416,8.14085663732006,196.8096464686135,0,0,0,0,0,0,0,0,0,0
46,46,46,1.10784,411.2910793732142,8.093506786819272,195.29171994678345,0,0,0,0,0,0,0,0,0,0
47,47,47,1.1078599999999998,411.251904817661,7.9960609832762035,193.76608364224285,0,0,0,0,0,0,0,0,0,0
48,48,48,1.10788,411.2109660520499,7.848294325959452,192.23279778448693,0,0,0,0,0,0,0,0,0,0
49,49,49,1.1079,411.1651137605032,7.855552035343253,190.6919229050437,0,0,0,0,0,0,0,0,0,0
50,50,50,1.10792,411.11867778558775,7.880549852229997,189.14351983498696,0,0,0,0,0,0,0,0,0,0
51,51,51,1.10794,411.0722561023656,7.854520865823407,187.58764970264687,0,0,0,0,0,0,0,0,0,0
52,52,52,1.10796,411.025135932761,7.777231645453838,186.02437393108383,0,0,0,0,0,0,0,0,0,0
53,53,53,1.10798,410.9766016060732,7.648461805281989,184.45375423577696,0,0,0,0,0,0,0,0,0,0
54,54,54,1.108,410.92492973848135,7.536481015221786,182.8758526220883,0,0,0,0,0,0,0,0,0,0
55,55,55,1.10802,410.8700549114284,7.5095473181004415,181.29073138285744,0,0,0,0,0,0,0,0,0,0
56,56,56,1.10804,410.8141523446824,7.498948139010682,179.6984530959854,0,0,0,0,0,0,0,0,0,0
57,57,57,1.10806,410.75778441620207,7.435984092758717,178.0990806218637,0,0,0,0,0,0,0,0,0,0
58,58,58,1.10808,410.7002518137404,7.320441504072327,176.492677101008,0,0,0,0,0,0,0,0,0,0
59,59,59,1.1081,410.64085272404594,7.152119120842553,174.87930595146432,0,0,0,0,0,0,0,0,0,0
60,60,60,1.10812,410.5767011749367,7.13609350834155,173.25903086634835,0,0,0,0,0,0,0,0,0,0
61,61,61,1.10814,410.5117064212268,7.135277962423368,171.63191581137545,0,0,0,0,0,0,0,0,0,0
62,62,62,1.10816,410.4463896242834,7.0810290029628735,169.99802502223247,0,0,0,0,0,0,0,0,0,0
63,63,63,1.10818,410.3800696696292,6.973141471262336,168.35742300215963,0,0,0,0,0,0,0,0,0,0
64,64,64,1.1082,410.3120631646696,6.811421953404156,166.71017451930086,0,0,0,0,0,0,0,0,0,0
65,65,65,1.10822,410.2396114198562,6.80078709286991,165.05634460419066,0,0,0,0,0,0,0,0,0,0
66,66,66,1.10824,410.1664152546098,6.804260091148612,163.39599854723215,0,0,0,0,0,0,0,0,0,0
67,67,67,1.10826,410.0929624019288,6.753262353763788,161.72920189599964,0,0,0,0,0,0,0,0,0,0
68,68,68,1.10828,410.01859165167485,6.6475986995577845,160.05602045284633,0,0,0,0,0,0,0,0,0,0
69,69,69,1.1082999999999998,409.9426397456256,6.487085012855801,158.3765202720503,0,0,0,0,0,0,0,0,0,0
70,70,70,1.10832,409.8624706281197,6.476459369192332,156.69076765738745,0,0,0,0,0,0,0,0,0,0
71,71,71,1.10834,409.7815860496016,6.478870245763494,154.99882915954552,0,0,0,0,0,0,0,0,0,0
72,72,72,1.10836,409.7004439879568,6.425811869359194,153.30077157331357,0,0,0,0,0,0,0,0,0,0
73,73,73,1.10838,409.61840486684525,6.317100180457621,151.59666193512822,0,0,0,0,0,0,0,0,0,0
74,74,74,1.1084,409.534827292722,6.1525615079717095,149.88656752028933,0,0,0,0,0,0,0,0,0,0
75,75,75,1.10842,409.4476322070208,6.06850073954675,148.1705558404271,0,0,0,0,0,0,0,0,0,0
76,76,76,1.10844,409.35852530699526,6.064693003495649,146.448694640729,0,0,0,0,0,0,0,0,0,0
77,77,77,1.10846,409.2691062626105,6.004470848306293,144.72105189731118,0,0,0,0,0,0,0,0,0,0
78,78,78,1.10848,409.1787589416056,5.887662186908523,142.98769581458225,0,0,0,0,0,0,0,0,0,0
79,79,79,1.1085,409.0868656209472,5.714104648388802,141.248694822441,0,0,0,0,0,0,0,0,0,0
80,80,80,1.10852,408.99082996864655,5.756286473011056,139.5041175737004,0,0,0,0,0,0,0,0,0,0
81,81,81,1.10854,408.8949739456312,5.741307702685166,137.75403294126738,0,0,0,0,0,0,0,0,0,0
82,82,82,1.10856,408.7987078015536,5.668999807988505,135.99851001547063,0,0,0,0,0,0,0,0,0,0
83,83,83,1.10858,408.7014403197782,5.5392032944099485,134.23761810138112,0,0,0,0,0,0,0,0,0,0
84,84,84,1.1086,408.60198919227577,5.419862348070497,132.47142671596464,0,0,0,0,0,0,0,0,0,0
85,85,85,1.10862,408.5001363222878,5.378869402468646,130.7000055854648,0,0,0,0,0,0,0,0,0,0
86,86,86,1.1086399999999998,408.3972720767134,5.347928018026281,128.92342464253875,0,0,0,0,0,0,0,0,0,0
87,87,87,1.10866,408.2938677172264,5.258795568107487,127.14175402354398,0,0,0,0,0,0,0,0,0,0
88,88,88,1.10868,408.189358569297,5.111325547399384,125.35506406581808,0,0,0,0,0,0,0,0,0,0
89,89,89,1.1087,408.08240234250974,5.04140008783473,123.56342530478888,0,0,0,0,0,0,0,0,0,0
90,90,90,1.10872,407.97391565114185,4.980793316757198,121.76690847131935,0,0,0,0,0,0,0,0,0,0
91,91,91,1.10874,407.86431344116966,4.929324401409001,119.96558448878544,0,0,0,0,0,0,0,0,0,0
92,92,92,1.10876,407.7540196083716,4.818850255892072,118.1595244704062,0,0,0,0,0,0,0,0,0,0
93,93,93,1.10878,407.64175035250224,4.7851115388157845,116.34879971632245,0,0,0,0,0,0,0,0,0,0
94,94,94,1.1088,407.5289679516226,4.6920410006878415,114.53348171083051,0,0,0,0,0,0,0,0,0,0
95,95,95,1.10882,407.4142492325312,4.67530475201162,112.71364211960982,0,0,0,0,0,0,0,0,0,0
96,96,96,1.10884,407.2991816246376,4.598916037354722,110.88935278676188,0,0,0,0,0,0,0,0,0,0
97,97,97,1.10886,407.18325867543257,4.46274768313889,109.06068573217192,0,0,0,0,0,0,0,0,0,0
98,98,98,1.10888,407.0652832543135,4.40236239767914,107.22771314846771,0,0,0,0,0,0,0,0,0,0
99,99,99,1.1089,406.94661412606126,4.281893888031336,105.39050739820183,0,0,0,0,0,0,0,0,0,0
100,100,100,1.10892,406.8259561890681,4.236826983407352,103.54914101119458,0,0,0,0,0,0,0,0,0,0
101,101,101,1.10894,406.7042860716807,4.199159018334668,101.70368668138804,0,0,0,0,0,0,0,0,0,0
102,102,102,1.10896,406.58193028084406,4.1687241759527085,99.85421726419264,0,0,0,0,0,0,0,0,0,0
103,103,103,1.10898,406.4591617415806,4.077610746158252,98.00080577347744,0,0,0,0,0,0,0,0,0,0
104,104,104,1.109,406.3355205940841,3.9257090844043634,96.14352537873783,0,0,0,0,0,0,0,0,0,0
105,105,105,1.10902,406.20982453610577,3.848313167685724,94.28244940225714,0,0,0,0,0,0,0,0,0,0
106,106,106,1.10904,406.0827775634922,3.8452112438422192,92.4176513160946,0,0,0,0,0,0,0,0,0,0
107,107,107,1.10906,405.9555448671274,3.780871555263376,90.54920473931936,0,0,0,0,0,0,0,0,0,0
108,108,108,1.1090799999999998,405.8276994341416,3.655192505982853,88.67718343498609,0,0,0,0,0,0,0,0,0,0
109,109,109,1.1091,405.6983699054056,3.5356904193370093,86.80166130727353,0,0,0,0,0,0,0,0,0,0
110,110,110,1.10912,405.5672811864216,3.557404904014995,84.92271239861782,0,0,0,0,0,0,0,0,0,0
111,111,111,1.10914,405.4361848166079,3.5173515636203287,83.04041088667054,0,0,0,0,0,0,0,0,0,0
112,112,112,1.10916,405.3046875089228,3.415437590615604,81.15483108150643,0,0,0,0,0,0,0,0,0,0
113,113,113,1.10918,405.17239555146926,3.2515754348911785,79.2660474225535,0,0,0,0,0,0,0,0,0,0
114,114,114,1.1092,405.0381754899428,3.1606890100386305,77.37413447579065,0,0,0,0,0,0,0,0,0,0
115,115,115,1.10922,404.90292018860464,3.1425843507908486,75.47916693068444,0,0,0,0,0,0,0,0,0,0
116,116,116,1.10924,404.76743339175874,3.0621347482607257,73.58121959729169,0,0,0,0,0,0,0,0,0,0
117,117,117,1.10926,404.6313560719952,2.9192615714720995,71.68036740335765,0,0,0,0,0,0,0,0,0,0
118,118,118,1.10928,404.49401786353576,2.7813041196591226,69.77668539123775,0,0,0,0,0,0,0,0,0,0
119,119,119,1.1093,404.35515949894886,2.7829150571769734,67.87024871507266,0,0,0,0,0,0,0,0,0,0
120,120,120,1.10932,404.21620114402594,2.721728515126825,65.9611326377008,0,0,0,0,0,0,0,0,0,0
121,121,121,1.10934,404.07681921670167,2.5976753030064934,64.04941252773868,0,0,0,0,0,0,0,0,0,0
122,122,122,1.10936,403.9362829229184,2.545334390157389,62.13516385665741,0,0,0,0,0,0,0,0,0,0
123,123,123,1.10938,403.795393265546,2.4299179419266896,60.21846219568221,0,0,0,0,0,0,0,0,0,0
124,124,124,1.1094,403.6534168773964,2.3859148024425743,58.299383212947376,0,0,0,0,0,0,0,0,0,0
125,125,125,1.10942,403.5111512443745,2.2786357430720647,56.378002670387865,0,0,0,0,0,0,0,0,0,0
126,126,126,1.10944,403.3679486687088,2.242480366130593,54.45439642078272,0,0,0,0,0,0,0,0,0,0
127,127,127,1.10946,403.2245123791416,2.142856942890119,52.52864040489996,0,0,0,0,0,0,0,0,0,0
128,128,128,1.10948,403.08032391730654,2.046892999157529,50.60081064818517,0,0,0,0,0,0,0,0,0,0
129,129,129,1.1095,402.9355580623615,1.9544778861154768,48.67098325814334,0,0,0,0,0,0,0,0,0,0
130,130,130,1.1095199999999998,402.7900477112449,1.9326301259098624,46.73923442102056,0,0,0,0,0,0,0,0,0,0
131,131,131,1.10954,402.6443970218167,1.8469578033092688,44.80564039893573,0,0,0,0,0,0,0,0,0,0
132,132,132,1.10956,402.4981600776284,1.76450180829353,42.87027752690501,0,0,0,0,0,0,0,0,0,0
133,133,133,1.10958,402.3514842072868,1.685159783768361,40.93322220970568,0,0,0,0,0,0,0,0,0,0
134,134,134,1.1096,402.2042168964274,1.6758615709217357,38.994550918999934,0,0,0,0,0,0,0,0,0,0
135,135,135,1.10962,402.0568800204561,1.6024184873954357,37.05434019017573,0,0,0,0,0,0,0,0,0,0
136,136,136,1.10964,401.9092792174389,1.4648002989263536,35.112666619465564,0,0,0,0,0,0,0,0,0,0
137,137,137,1.10966,401.7610696936208,1.32993934125538,33.16960686079979,0,0,0,0,0,0,0,0,0,0
138,138,138,1.10968,401.61215643718447,1.3316161255173504,31.22523762283303,0,0,0,0,0,0,0,0,0,0
139,139,139,1.1097,401.4632255637092,1.2688663060832064,29.279635665968687,0,0,0,0,0,0,0,0,0,0
140,140,140,1.10972,401.3141208990809,1.141670088163609,27.332877799205413,0,0,0,0,0,0,0,0,0,0
141,141,141,1.10974,401.1645719252838,1.016870983706739,25.385040877245626,0,0,0,0,0,0,0,0,0,0
142,142,142,1.10976,401.01457548474576,0.9612226113929226,23.43620179733816,0,0,0,0,0,0,0,0,0,0
143,143,143,1.10978,400.8644145626052,0.9077621964208904,21.486437496295306,0,0,0,0,0,0,0,0,0,0
144,144,144,1.1098,400.71415453681885,0.7896225765563919,19.535824947508416,0,0,0,0,0,0,0,0,0,0
145,145,145,1.10982,400.56356798412367,0.7403204072537527,17.584441157785637,0,0,0,0,0,0,0,0,0,0
146,146,146,1.10984,400.4129144592265,0.6262372171115326,15.63236316445299,0,0,0,0,0,0,0,0,0,0
147,147,147,1.1098599999999998,400.2620103876872,0.5807945327395861,13.679668032189507,0,0,0,0,0,0,0,0,0,0
148,148,148,1.10988,400.1110690826664,0.470478940656322,11.72643285003779,0,0,0,0,0,0,0,0,0,0
149,149,149,1.1099,399.95995551088646,0.4286170188756255,9.772734728413694,0,0,0,0,0,0,0,0,0,0
150,150,150,1.10992,399.8088314497554,0.3218003319750557,7.818650795938447,0,0,0,0,0,0,0,0,0,0
151,151,151,1.10994,399.65761756179177,0.2166484609543098,5.864258196535128,0,0,0,0,0,0,0,1,0,1
152,152,152,1.10996,399.506347485812,0.1796885460561632,3.909634086224063,0,0,0,0,0,0,0,1,0,1
153,153,153,1.10998,399.3550989731771,0.144231565186253,1.9548556303066904,0,0,0,0,0,0,0,1,0,1
154,154,154,1.11,399.2038870879884,0.0436866540516791,1.8598815560528056e-11,0,0,0,0,0,0,0,1,0,1
155,155,155,1.11002,19.549795453313887,-3.932122139464262,-1.954855630304864,0,0,0,0,0,0,0,1,0,1
156,156,156,1.11004,0.9405765738640982,-4.128753879743264,-3.9096340862399206,0,0,0,0,0,0,0,1,0,1
157,157,157,1.11006,0.0450620518242671,-4.291726317748881,-5.864258196533301,0,0,0,0,0,0,0,1,0,1
158,158,158,1.11008,0.0021156198148019,-4.5197753576993405,-7.8186507959366205,0,0,0,0,0,0,0,1,0,1
159,159,159,1.1101,0.0001035929686373,-4.812965923415618,-9.772734728394193,0,0,0,0,0,0,0,1,0,1
160,160,160,1.11012,9.639307422289138e-06,-5.1712863955293775,-11.726432850035966,0,0,0,0,0,0,0,1,0,1
161,161,161,1.11014,5.619874885583629e-06,-5.594722623991825,-13.679668032170014,0,0,0,0,0,0,0,1,0,1
162,162,162,1.11016,6.0832407948032295e-06,-6.083258066365441,-15.632363164451164,0,0,0,0,0,0,0,1,0,1
163,163,163,1.11018,6.636853655424403e-06,-6.636873081191956,-17.58444115778381,0,0,0,0,0,0,0,1,0,1
164,164,164,1.1102,7.255524406868926e-06,-7.2555459868913506,-19.535824947488944,0,0,0,0,0,0,0,1,0,1
165,165,165,1.11022,7.939228622897486e-06,-7.9392523571392655,-21.486437496293483,0,0,0,0,0,0,0,1,0,1
166,166,166,1.11024,8.687939309861036e-06,-8.687965198201615,-23.436201797318702,0,0,0,0,0,0,0,1,0,1
167,167,167,1.11026,9.50162690776634e-06,-9.501654950000114,-25.385040877243807,0,0,0,0,0,0,0,1,0,1
168,168,168,1.11028,1.0380259291442906e-05,-10.380289487279244,-27.3328777992036,0,0,0,0,0,0,0,1,0,1
169,169,169,1.1102999999999998,1.132380177181142e-05,-11.323834120874668,-29.279635665949264,0,0,0,0,0,0,0,1,0,1
170,170,170,1.11032,1.2332217097252972e-05,-12.332251599082474,-31.225237622831216,0,0,0,0,0,0,0,1,0,1
171,171,171,1.11034,1.3405465455079906e-05,-13.405502109130012,-33.16960686078039,0,0,0,0,0,0,0,1,0,1
172,172,172,1.11036,1.4543504473107429e-05,-14.543543278747526,-35.11266661946375,0,0,0,0,0,0,0,1,0,1
173,173,173,1.11038,1.5746289221326387e-05,-15.746330177840925,-37.05434019017391,0,0,0,0,0,0,0,1,0,1
174,174,174,1.1104,1.7013772213677098e-05,-17.013815320265607,-38.99455091899812,0,0,0,0,0,0,0,1,0,1
175,175,175,1.11042,1.8345903409924032e-05,-18.34594866570117,-40.93322220970386,0,0,0,0,0,0,0,1,0,1
176,176,176,1.11044,1.9742630217631148e-05,-19.74267762162672,-42.87027752688568,0,0,0,0,0,0,0,1,0,1
177,177,177,1.11046,2.1203897494238365e-05,-21.20394704539736,-44.80564039893392,0,0,0,0,0,0,0,1,0,1
178,178,178,1.11048,2.2729647549238367e-05,-22.72969924642102,-46.739234421001264,0,0,0,0,0,0,0,1,0,1
179,179,179,1.1105,2.4319820146454103e-05,-24.31987398843593,-48.670983258141526,0,0,0,0,0,0,0,1,0,1
180,180,180,1.11052,2.5974352506416952e-05,-25.97440849188879,-50.60081064818337,0,0,0,0,0,0,0,1,0,1
181,181,181,1.11054,2.769317930884508e-05,-27.69323743641313,-52.528640404863296,0,0,0,0,0,0,0,1,0,1
182,182,182,1.11056,2.947623269522204e-05,-29.476292963407968,-54.45439642078092,0,0,0,0,0,0,0,1,0,1
183,183,183,1.11058,3.132344227147588e-05,-31.323504678716827,-56.37800267035128,0,0,0,0,0,0,0,1,0,1
184,184,184,1.1106,3.323473511075814e-05,-33.23479965540679,-58.29938321294559,0,0,0,0,0,0,0,1,0,1
185,185,185,1.11062,3.521003575632284e-05,-35.21010243664752,-60.21846219568042,0,0,0,0,0,0,0,1,0,1
186,186,186,1.1106399999999998,3.724926622450556e-05,-37.24933503869026,-62.13516385662098,0,0,0,0,0,0,0,1,0,1
187,187,187,1.11066,3.9352346007801646e-05,-39.35241695394614,-64.04941252773689,0,0,0,0,0,0,0,1,0,1
188,188,188,1.11068,4.151919207804508e-05,-41.51926515416496,-65.96113263768174,0,0,0,0,0,0,0,1,0,1
189,189,189,1.1107,4.374971888968593e-05,-43.74979409371269,-67.87024871507089,0,0,0,0,0,0,0,1,0,1
190,190,190,1.11072,4.604383838316753e-05,-46.04391571294868,-69.77668539123597,0,0,0,0,0,0,0,1,0,1
191,191,191,1.11074,4.840145998840307e-05,-48.4015394417022,-71.68036740335587,0,0,0,0,0,0,0,1,0,1
192,192,192,1.11076,5.082249062835132e-05,-50.82257220284814,-73.5812195972899,0,0,0,0,0,0,0,1,0,1
193,193,193,1.11078,5.330683472269076e-05,-53.30691841598129,-75.4791669306655,0,0,0,0,0,0,0,1,0,1
194,194,194,1.1108,5.5854394191592885e-05,-55.854480001189486,-77.37413447578886,0,0,0,0,0,0,0,1,0,1
195,195,195,1.11082,5.846506845959472e-05,-58.46515638292621,-79.26604742255175,0,0,0,0,0,0,0,1,0,1
196,196,196,1.11084,6.113875445956917e-05,-61.13884449398092,-81.15483108150467,0,0,0,0,0,0,0,1,0,1
197,197,197,1.11086,6.38753466367936e-05,-63.875438779547615,-83.04041088666878,0,0,0,0,0,0,0,1,0,1
198,198,198,1.11088,6.667473695311753e-05,-66.6748312013926,-84.92271239859905,0,0,0,0,0,0,0,1,0,1
199,199,199,1.1109,6.953681489122697e-05,-69.53691124211878,-86.80166130727181,0,0,0,0,0,0,0,1,0,1
200,200,200,1.11092,7.24614674590084e-05,-72.46156590952958,-88.67718343496739,0,0,0,0,0,0,0,1,0,1
201,201,201,1.1109384444673045,7.24614674590084e-05,-72.46156590952958,-88.67718343496739,0,0,0,0,0,0,0,1,0,1
