,Unnamed: 0.1,Unnamed: 0,Time / s,Vo:Measured voltage,IL:Measured current,Vin:Measured voltage,open1:Output,open3:Output,open2:Output,open4:Output,short1:Output,short2:Output,short3:Output,short4:Output,OPEN,SHORT
0,0,0,1.1192151216026391,405.0642471581004,-3.129220144935088,-77.3741344757939,0,0,0,0,0,0,0,0,0,0
1,1,1,1.11922,404.92898427274736,-3.110964805480525,-75.4791669306877,0,0,0,0,0,0,0,0,0,0
2,2,2,1.11924,404.79348422124815,-3.0303645178465164,-73.58121959729495,0,0,0,0,0,0,0,0,0,0
3,3,3,1.11926,404.65738797113016,-2.8873406868087987,-71.68036740336092,0,0,0,0,0,0,0,0,0,0
4,4,4,1.11928,404.5197142177008,-2.816654144576394,-69.77668539122378,0,0,0,0,0,0,0,0,0,0
5,5,5,1.1193,404.38128246164496,-2.7507159485271444,-67.87024871505868,0,0,0,0,0,0,0,0,0,0
6,6,6,1.11932,404.2423085686936,-2.689395325922272,-65.96113263770408,0,0,0,0,0,0,0,0,0,0
7,7,7,1.11934,404.1029055803086,-2.565208072230367,-64.04941252772466,0,0,0,0,0,0,0,0,0,0
8,8,8,1.11936,403.96219366379233,-2.5127389479255857,-62.135163856643366,0,0,0,0,0,0,0,0,0,0
9,9,9,1.11938,403.8211278175296,-2.3971952186899714,-60.21846219566815,0,0,0,0,0,0,0,0,0,0
10,10,10,1.1194,403.6791346854419,-2.353077012652603,-58.29938321293331,0,0,0,0,0,0,0,0,0,0
11,11,11,1.11942,403.53684693140497,-2.2456829240104907,-56.37800267037377,0,0,0,0,0,0,0,0,0,0
12,12,12,1.11944,403.3934873698773,-2.209418365136603,-54.45439642078601,0,0,0,0,0,0,0,0,0,0
13,13,13,1.11946,403.2498936814184,-2.1096864904717934,-52.52864040488584,0,0,0,0,0,0,0,0,0,0
14,14,14,1.11948,403.1056171749668,-2.013620432693352,-50.60081064818848,0,0,0,0,0,0,0,0,0,0
15,15,15,1.1195,402.96054082715926,-1.9882660582389464,-48.670983258146656,0,0,0,0,0,0,0,0,0,0
16,16,16,1.1195199999999998,402.8151372670845,-1.9663088237443191,-46.739234421023866,0,0,0,0,0,0,0,0,0,0
17,17,17,1.11954,402.66959292085846,-1.8805266069005613,-44.805640398939055,0,0,0,0,0,0,0,0,0,0
18,18,18,1.11956,402.5236757204196,-1.7308789288651616,-42.870277526908325,0,0,0,0,0,0,0,0,0,0
19,19,19,1.11958,402.37672824364296,-1.7185166110693202,-40.933222209709,0,0,0,0,0,0,0,0,0,0
20,20,20,1.1196,402.2295468197669,-1.7091244333871736,-38.99455091900326,0,0,0,0,0,0,0,0,0,0
21,21,21,1.11962,402.0822955066238,-1.6355871090731202,-37.054340190179055,0,0,0,0,0,0,0,0,0,0
22,22,22,1.11964,401.9347799417825,-1.4978744050144754,-35.1126666194689,0,0,0,0,0,0,0,0,0,0
23,23,23,1.11966,401.78660809132896,-1.362921642891282,-33.16960686080313,0,0,0,0,0,0,0,0,0,0
24,24,24,1.11968,401.637803359287,-1.2975783609062894,-31.225237622836367,0,0,0,0,0,0,0,0,0,0
25,25,25,1.1197,401.4887757047079,-1.2347708636564243,-29.27963566597203,0,0,0,0,0,0,0,0,0,0
26,26,26,1.11972,401.3395741516701,-1.1075172316911968,-27.33287779920876,0,0,0,0,0,0,0,0,0,0
27,27,27,1.11974,401.1898146726453,-1.0495297077670334,-25.385040877248965,0,0,0,0,0,0,0,0,0,0
28,28,28,1.11976,401.0399250326817,-0.9269749658000712,-23.436201797341507,0,0,0,0,0,0,0,0,0,0
29,29,29,1.11978,400.889688759116,-0.8734747061213651,-21.48643749629865,0,0,0,0,0,0,0,0,0,0
30,30,30,1.1198,400.7393533352405,-0.7552953977867025,-19.535824947511763,0,0,0,0,0,0,0,0,0,0
31,31,31,1.11982,400.5886554401477,-0.7059601785308726,-17.584441157788984,0,0,0,0,0,0,0,0,0,0
32,32,32,1.11984,400.4378954908859,-0.5918441804164662,-15.63236316445634,0,0,0,0,0,0,0,0,0,0
33,33,33,1.11986,400.2869379035706,-0.5463792306878505,-13.67966803219286,0,0,0,0,0,0,0,0,0,0
34,34,34,1.11988,400.1358723999247,-0.5027300119061541,-11.726432850023468,0,0,0,0,0,0,0,0,0,0
35,35,35,1.1199,399.98474980471497,-0.460831044903876,-9.772734728417047,0,0,0,0,0,0,0,0,0,0
36,36,36,1.11992,399.8336216222448,-0.3539773845618025,-7.8186507959241185,0,0,0,0,0,0,0,0,0,0
37,37,37,1.11994,399.6824288213055,-0.1821784918862869,-5.864258196520799,0,0,0,0,0,0,0,0,0,0
38,38,38,1.1199599999999998,399.5311113450836,-0.2118065419524746,-3.909634086245101,0,0,0,0,0,0,0,0,0,0
39,39,39,1.11998,399.3798551737484,-0.1763291166730691,-1.9548556302923592,0,0,0,0,0,0,0,0,0,0
40,40,40,1.12,399.2286405620177,-0.0757638222005799,-4.267431445128511e-12,0,0,0,0,0,0,0,0,0,0
41,41,41,1.12002,399.077432824506,-0.1096739090066511,1.9548556303015097,0,0,0,0,0,0,0,0,0,0
42,42,42,1.12004,398.926255415204,-0.1448880081484234,3.9096340862365664,0,0,0,0,0,0,0,0,0,0
43,43,43,1.12006,398.77513451905423,-0.1148939226437593,5.864258196529949,0,0,0,0,0,0,0,0,0,0
44,44,44,1.12008,398.6240898667362,-0.0197200542959338,7.818650795933268,0,0,0,0,0,0,0,0,0,0
45,45,45,1.1201,398.4731392304036,0.1406037757733874,9.77273472839084,0,0,0,0,0,0,0,0,0,0
46,46,46,1.12012,398.322306192452,0.3660433853101158,11.726432850032612,0,0,0,0,0,0,0,0,0,0
47,47,47,1.12014,398.1716858104308,0.5902020333768287,13.679668032166663,0,0,0,0,0,0,0,0,0,0
48,48,48,1.12016,398.0214647741552,0.6804373088716916,15.632363164447812,0,0,0,0,0,0,0,0,0,0
49,49,49,1.12018,397.8714124247165,0.8358627763188419,17.584441157780464,0,0,0,0,0,0,0,0,0,0
50,50,50,1.1202,397.7217909884079,0.9238606169458774,19.5358249474856,0,0,0,0,0,0,0,0,0,0
51,51,51,1.12022,397.5725050459324,1.0107913897457963,21.486437496290137,0,0,0,0,0,0,0,0,0,0
52,52,52,1.12024,397.4235277640354,1.096675936044032,23.43620179731536,0,0,0,0,0,0,0,0,0,0
53,53,53,1.12026,397.2750164706637,1.1153225475445596,25.38504087724046,0,0,0,0,0,0,0,0,0,0
54,54,54,1.12028,397.1266546143341,1.199194798312385,27.33287779920025,0,0,0,0,0,0,0,0,0,0
55,55,55,1.1203,396.9787258080149,1.2820751653558058,29.279635665945925,0,0,0,0,0,0,0,0,0,0
56,56,56,1.12032,396.831181841688,1.3639731211940804,31.22523762282788,0,0,0,0,0,0,0,0,0,0
57,57,57,1.12034,396.68420459080335,1.3787845242520724,33.16960686077705,0,0,0,0,0,0,0,0,0,0
58,58,58,1.12036,396.5373978970581,1.4587638265198772,35.11266661946041,0,0,0,0,0,0,0,0,0,0
59,59,59,1.12038,396.3909195699245,1.6038454599433851,37.054340190170585,0,0,0,0,0,0,0,0,0,0
60,60,60,1.1203999999999998,396.24546816719766,1.6158407080527823,38.99455091897725,0,0,0,0,0,0,0,0,0,0
61,61,61,1.12042,396.1002974798532,1.6269133310242994,40.93322220970054,0,0,0,0,0,0,0,0,0,0
62,62,62,1.12044,395.95531391038674,1.7030521593545382,42.870277526882354,0,0,0,0,0,0,0,0,0,0
63,63,63,1.12046,395.81071440726566,1.8441815919019813,44.80564039894811,0,0,0,0,0,0,0,0,0,0
64,64,64,1.12048,395.6669361244211,1.984280201903312,46.73923442101543,0,0,0,0,0,0,0,0,0,0
65,65,65,1.1205,395.5242958780031,1.9914913147798805,48.67098325815569,0,0,0,0,0,0,0,0,0,0
66,66,66,1.12052,395.3818539145252,2.063620830436491,50.60081064819752,0,0,0,0,0,0,0,0,0,0
67,67,67,1.12054,395.23984602661113,2.200583135557854,52.52864040487743,0,0,0,0,0,0,0,0,0,0
68,68,68,1.12056,395.0987892884637,2.336441657741274,54.45439642079504,0,0,0,0,0,0,0,0,0,0
69,69,69,1.12058,394.9590501319348,2.339516760513604,56.378002670365376,0,0,0,0,0,0,0,0,0,0
70,70,70,1.1206,394.8195142535623,2.4073167521058743,58.299383212942296,0,0,0,0,0,0,0,0,0,0
71,71,71,1.12062,394.6804559135184,2.5397460482205427,60.21846219567713,0,0,0,0,0,0,0,0,0,0
72,72,72,1.12064,394.5426242982668,2.6051936280048227,62.13516385663502,0,0,0,0,0,0,0,0,0,0
73,73,73,1.12066,394.4056291399058,2.6694197849454127,64.04941252773361,0,0,0,0,0,0,0,0,0,0
74,74,74,1.12068,394.26932497927584,2.732380516577938,65.96113263767846,0,0,0,0,0,0,0,0,0,0
75,75,75,1.1207,394.1338622087085,2.794034942280952,67.8702487150676,0,0,0,0,0,0,0,0,0,0
76,76,76,1.12072,393.9990829638559,2.854333235010387,69.7766853912327,0,0,0,0,0,0,0,0,0,0
77,77,77,1.1207399999999998,393.86483000827945,2.978870516425125,71.6803674033354,0,0,0,0,0,0,0,0,0,0
78,78,78,1.12076,393.732036274452,3.036292510563385,73.58121959728666,0,0,0,0,0,0,0,0,0,0
79,79,79,1.12078,393.6001412933788,3.092202007978761,75.47916693066227,0,0,0,0,0,0,0,0,0,0
80,80,80,1.1208,393.4689641475811,3.146537017848344,77.37413447578564,0,0,0,0,0,0,0,0,0,0
81,81,81,1.12082,393.3383326056738,3.264792813989672,79.26604742254851,0,0,0,0,0,0,0,0,0,0
82,82,82,1.12084,393.20904854410446,3.3813138409222105,81.15483108150146,0,0,0,0,0,0,0,0,0,0
83,83,83,1.12086,393.08151407578873,3.365003499539285,83.04041088666554,0,0,0,0,0,0,0,0,0,0
84,84,84,1.12088,392.9541258210045,3.4123797026231326,84.92271239859582,0,0,0,0,0,0,0,0,0,0
85,85,85,1.1209,392.827288517649,3.523312740490296,86.80166130726857,0,0,0,0,0,0,0,0,0,0
86,86,86,1.12092,392.7014059083365,3.697667633805559,88.67718343496419,0,0,0,0,0,0,0,0,0,0
87,87,87,1.12094,392.5780283723692,3.7390252354499394,90.54920473931442,0,0,0,0,0,0,0,0,0,0
88,88,88,1.12096,392.4554500994971,3.7782211220234543,92.41765131608966,0,0,0,0,0,0,0,0,0,0
89,89,89,1.12098,392.3334103942064,3.880557709503512,94.28244940223534,0,0,0,0,0,0,0,0,0,0
90,90,90,1.121,392.21234854166926,4.045890152928438,96.14352537873287,0,0,0,0,0,0,0,0,0,0
91,91,91,1.12102,392.09395248016,4.078032325954038,98.00080577345577,0,0,0,0,0,0,0,0,0,0
92,92,92,1.12104,391.97635398389673,4.107641203613288,99.85421726420444,0,0,0,0,0,0,0,0,0,0
93,93,93,1.12106,391.8592606123504,4.199927864870091,101.70368668139984,0,0,0,0,0,0,0,0,0,0
94,94,94,1.12108,391.743146337658,4.354737854628544,103.549141011173,0,0,0,0,0,0,0,0,0,0
95,95,95,1.1211,391.6292488724623,4.441374023502568,105.3905073982136,0,0,0,0,0,0,0,0,0,0
96,96,96,1.12112,391.5172196790516,4.459776794576248,107.22771314844624,0,0,0,0,0,0,0,0,0,0
97,97,97,1.12114,391.405636597114,4.540343915732024,109.06068573218364,0,0,0,0,0,0,0,0,0,0
98,98,98,1.12116,391.29553177213495,4.617700777806846,110.8893527867736,0,0,0,0,0,0,0,0,0,0
99,99,99,1.1211799999999998,391.186622139651,4.691723807816973,112.7136421195885,0,0,0,0,0,0,0,0,0,0
100,100,100,1.1212,391.0792621668873,4.76229627331062,114.5334817108257,0,0,0,0,0,0,0,0,0,0
101,101,101,1.12122,390.9731563220212,4.829287397295556,116.34879971630124,0,0,0,0,0,0,0,0,0,0
102,102,102,1.12124,390.8684992520356,4.892571940564098,118.15952447040142,0,0,0,0,0,0,0,0,0,0
103,103,103,1.12126,390.7649787301052,4.952014367433932,119.96558448878066,0,0,0,0,0,0,0,0,0,0
104,104,104,1.12128,390.6623129575773,5.072590338052472,121.76690847131458,0,0,0,0,0,0,0,0,0,0
105,105,105,1.1213,390.56209753777495,5.12393829883262,123.56342530478412,0,0,0,0,0,0,0,0,0,0
106,106,106,1.12132,390.463265116056,5.171030514506293,125.35506406579714,0,0,0,0,0,0,0,0,0,0
107,107,107,1.12134,390.3654727526415,5.213719912249933,127.14175402353924,0,0,0,0,0,0,0,0,0,0
108,108,108,1.12136,390.2684218638312,5.316905212623905,128.92342464251794,0,0,0,0,0,0,0,0,0,0
109,109,109,1.12138,390.1734094635037,5.415371685074025,130.7000055854601,0,0,0,0,0,0,0,0,0,0
110,110,110,1.1214,390.08009061308667,5.5089560363468095,132.47142671595995,0,0,0,0,0,0,0,0,0,0
111,111,111,1.12142,389.9889444672892,5.532506281849895,134.23761810136048,0,0,0,0,0,0,0,0,0,0
112,112,112,1.12144,389.898380627687,5.615859823732531,135.99851001546594,0,0,0,0,0,0,0,0,0,0
113,113,113,1.12146,389.8097651079274,5.693855170932896,137.75403294124686,0,0,0,0,0,0,0,0,0,0
114,114,114,1.12148,389.7227193641508,5.766317381917202,139.5041175736958,0,0,0,0,0,0,0,0,0,0
115,115,115,1.1215,389.6374326069287,5.833078497214244,141.2486948224364,0,0,0,0,0,0,0,0,0,0
116,116,116,1.12152,389.5535064606692,5.89396024427684,142.98769581456193,0,0,0,0,0,0,0,0,0,0
117,117,117,1.12154,389.4705941788161,6.013697066798158,144.7210518973066,0,0,0,0,0,0,0,0,0,0
118,118,118,1.12156,389.3905846996352,6.062287592061724,146.44869464070882,0,0,0,0,0,0,0,0,0,0
119,119,119,1.12158,389.3121468117682,6.104456953780987,148.1705558404381,0,0,0,0,0,0,0,0,0,0
120,120,120,1.1216,389.2348454583261,6.1400169092702095,149.8865675202848,0,0,0,0,0,0,0,0,0,0
121,121,121,1.1216199999999998,389.1583139849965,6.233640304846478,151.59666193510824,0,0,0,0,0,0,0,0,0,0
122,122,122,1.12164,389.0832193132381,6.3851028175599245,153.30077157332445,0,0,0,0,0,0,0,0,0,0
123,123,123,1.12166,389.012267169876,6.399685420235918,154.99882915952568,0,0,0,0,0,0,0,0,0,0
124,124,124,1.12168,388.942164018054,6.406871468338707,156.69076765739825,0,0,0,0,0,0,0,0,0,0
125,125,125,1.1217,388.8725180826879,6.471277670784914,158.3765202720306,0,0,0,0,0,0,0,0,0,0
126,126,126,1.12172,388.8040212706988,6.592674588564856,160.05602045284186,0,0,0,0,0,0,0,0,0,0
127,127,127,1.12174,388.7382588829252,6.706041187947102,161.72920189601032,0,0,0,0,0,0,0,0,0,0
128,128,128,1.12176,388.67549187539686,6.746377888353464,163.3959985472127,0,0,0,0,0,0,0,0,0,0
129,129,129,1.12178,388.6139297350072,6.778252764081521,165.05634460418625,0,0,0,0,0,0,0,0,0,0
130,130,130,1.1218,388.5531501137309,6.866209567724999,166.71017451928157,0,0,0,0,0,0,0,0,0,0
131,131,131,1.12182,388.4938648175974,7.010003245399662,168.3574230021553,0,0,0,0,0,0,0,0,0,0
132,132,132,1.12184,388.438266498354,7.079913875437777,169.99802502222812,0,0,0,0,0,0,0,0,0,0
133,133,133,1.12186,388.3850646249919,7.075721615858551,171.6319158113564,0,0,0,0,0,0,0,0,0,0
134,134,134,1.12188,388.3321911331586,7.126653887122496,173.25903086634406,0,0,0,0,0,0,0,0,0,0
135,135,135,1.1219,388.280379133453,7.232463296955711,174.8793059514454,0,0,0,0,0,0,0,0,0,0
136,136,136,1.12192,388.2303580755416,7.392889638119201,176.49267710100375,0,0,0,0,0,0,0,0,0,0
137,137,137,1.12194,388.1855742975629,7.348902683789581,178.09908062185946,0,0,0,0,0,0,0,0,0,0
138,138,138,1.1219599999999998,388.14056819277135,7.359037732441739,179.6984530959667,0,0,0,0,0,0,0,0,0,0
139,139,139,1.12198,388.0960924378675,7.423047277299881,181.2907313828532,0,0,0,0,0,0,0,0,0,0
140,140,140,1.122,388.0528958805838,7.540670245416433,182.8758526220698,0,0,0,0,0,0,0,0,0,0
141,141,141,1.12202,388.01172335256416,7.711632069631256,184.4537542357728,0,0,0,0,0,0,0,0,0,0
142,142,142,1.12204,387.9761540692944,7.677029268784451,186.02437393107968,0,0,0,0,0,0,0,0,0,0
143,143,143,1.12206,387.940475554182,7.695230482221538,187.58764970264272,0,0,0,0,0,0,0,0,0,0
144,144,144,1.12208,387.90545391088375,7.765976366928587,189.14351983498287,0,0,0,0,0,0,0,0,0,0
145,145,145,1.1221,387.87185107794494,7.888993349155853,190.6919229050256,0,0,0,0,0,0,0,0,0,0
146,146,146,1.12212,387.84042462400026,8.063993704945025,192.23279778448287,0,0,0,0,0,0,0,0,0,0
147,147,147,1.12214,387.81490224683375,8.032170055603121,193.7660836422249,0,0,0,0,0,0,0,0,0,0
148,148,148,1.12216,387.7892933706557,8.05175662568359,195.2917199467931,0,0,0,0,0,0,0,0,0,0
149,149,149,1.12218,387.76437481975125,8.122483842208906,196.80964646860943,0,0,0,0,0,0,0,0,0,0
150,150,150,1.1222,387.74091892797566,8.244067265828788,198.3198032825892,0,0,0,0,0,0,0,0,0,0
151,151,151,1.12222,387.69338227883225,0.0001998220838197,199.82213077034027,0,0,0,1,0,0,0,0,1,0
152,152,152,1.12224,387.5465556015742,0.0002013165228944,201.31656962249176,0,0,0,1,0,0,0,0,1,0
153,153,153,1.12226,387.3997847066554,0.0002028030143376,202.8030608411972,0,0,0,1,0,0,0,0,1,0
154,154,154,1.12228,387.2530695977369,0.0002042814994649,204.28154574230163,0,0,0,1,0,0,0,0,1,0
155,155,155,1.1223,387.1064102778652,0.0002057519199085,205.75196595776623,0,0,0,1,0,0,0,0,1,0
156,156,156,1.12232,386.95980672182463,0.0002072142176186,207.2142634379319,0,0,0,1,0,0,0,0,1,0
157,157,157,1.12234,386.8132587420623,0.0002086683348662,208.66838045377148,0,0,0,1,0,0,0,0,1,0
158,158,158,1.12236,386.6667662628633,0.0002101142142452,210.11425959926137,0,0,0,1,0,0,0,0,1,0
159,159,159,1.12238,386.5203292632047,0.0002115517986748,211.55184379354247,0,0,0,1,0,0,0,0,1,0
160,160,160,1.1223999999999998,386.3739477220732,0.0002129810314016,212.98107628326545,0,0,0,1,0,0,0,0,1,0
161,161,161,1.12242,386.2276216184634,0.000214401856002,214.4019006447916,0,0,0,1,0,0,0,0,1,0
162,162,162,1.12244,386.08135093137673,0.0002158142163842,215.8142607863824,0,0,0,1,0,0,0,0,1,0
163,163,163,1.12246,385.9351356398242,0.0002172180567908,217.21810095050324,0,0,0,1,0,0,0,0,1,0
164,164,164,1.12248,385.788975722824,0.0002186133218003,218.6133657159229,0,0,0,1,0,0,0,0,1,0
165,165,165,1.1225,385.6428711594015,0.0002199999563303,220.00000000000264,0,0,0,1,0,0,0,0,1,0
166,166,166,1.12252,385.49682192859103,0.0002213779056386,221.37794906077025,0,0,0,1,0,0,0,0,1,0
167,167,167,1.12254,385.35082800943474,0.0002227471153263,222.7471584991688,0,0,0,1,0,0,0,0,1,0
168,168,168,1.12256,385.20488938098185,0.0002241075313393,224.1075742611663,0,0,0,1,0,0,0,0,1,0
169,169,169,1.12258,385.0590060222905,0.0002254590999707,225.45914263985333,0,0,0,1,0,0,0,0,1,0
170,170,170,1.1226,384.9131779124268,0.0002268017678629,226.80181027764905,0,0,0,1,0,0,0,0,1,0
171,171,171,1.12262,384.7674050304637,0.0002281354820096,228.13552416830976,0,0,0,1,0,0,0,0,1,0
172,172,172,1.12264,384.6216873554828,0.0002294601897581,229.460231659107,0,0,0,1,0,0,0,0,1,0
173,173,173,1.12266,384.47602486657365,0.0002307758388113,230.77588045286907,0,0,0,1,0,0,0,0,1,0
174,174,174,1.12268,384.3304175428343,0.0002320823772295,232.08241861001065,0,0,0,1,0,0,0,0,1,0
175,175,175,1.1227,384.18486536336894,0.0002333797534328,233.379794550666,0,0,0,1,0,0,0,0,1,0
176,176,176,1.12272,384.0393683072912,0.000234667916203,234.66795705663097,0,0,0,1,0,0,0,0,1,0
177,177,177,1.1227399999999998,383.89392635372207,0.0002359468146858,235.9468552734673,0,0,0,1,0,0,0,0,1,0
178,178,178,1.12276,383.7485394817903,0.0002372163983923,237.2164387124748,0,0,0,1,0,0,0,0,1,0
179,179,179,1.12278,383.6032076706322,0.0002384766172015,238.47665725265,0,0,0,1,0,0,0,0,1,0
180,180,180,1.1228,383.4579308993938,0.0002397274213623,239.72746114275688,0,0,0,1,0,0,0,0,1,0
181,181,181,1.12282,383.3127091472271,0.0002409687614949,240.96880100315445,0,0,0,1,0,0,0,0,1,0
182,182,182,1.1228399999999998,383.1675423932919,0.0002422005885935,242.20062782788204,0,0,0,1,0,0,0,0,1,0
183,183,183,1.12286,383.0224306167581,0.0002434228540275,243.42289298657016,0,0,0,1,0,0,0,0,1,0
184,184,184,1.12288,382.8773737968007,0.000244635509544,244.6355482262278,0,0,0,1,0,0,0,0,1,0
185,185,185,1.1229,382.7323719126047,0.0002458385072696,245.8385456733356,0,0,0,1,0,0,0,0,1,0
186,186,186,1.12292,382.58742494336144,0.0002470317997118,247.0318378355923,0,0,0,1,0,0,0,0,1,0
187,187,187,1.12294,382.44253286827086,0.0002482153397615,248.21537760388827,0,0,0,1,0,0,0,0,1,0
188,188,188,1.12296,382.297695666541,0.0002493890806946,249.38911825407865,0,0,0,1,0,0,0,0,1,0
189,189,189,1.12298,382.152913317387,0.0002505529761738,250.5530134489029,0,0,0,1,0,0,0,0,1,0
190,190,190,1.123,382.0081858000327,0.0002517069802506,251.7070172397821,0,0,0,1,0,0,0,0,1,0
191,191,191,1.12302,381.8635130937095,0.0002528510473668,252.85108406860184,0,0,0,1,0,0,0,0,1,0
192,192,192,1.12304,381.7188951776562,0.0002539851323565,253.9851687695832,0,0,0,1,0,0,0,0,1,0
193,193,193,1.12306,381.57433203112015,0.0002551091904482,255.1092265709836,0,0,0,1,0,0,0,0,1,0
194,194,194,1.12308,381.4298236333559,0.0002562231772658,256.223213096936,0,0,0,1,0,0,0,0,1,0
195,195,195,1.1231,381.285369963627,0.0002573270488311,257.32708436916965,0,0,0,1,0,0,0,0,1,0
196,196,196,1.12312,381.140971001203,0.0002584207615651,258.4207968087172,0,0,0,1,0,0,0,0,1,0
197,197,197,1.12314,380.9966267253628,0.00025950427229,259.50430723770376,0,0,0,1,0,0,0,0,1,0
198,198,198,1.12316,380.8523371153926,0.0002605775382305,260.5775728809734,0,0,0,1,0,0,0,0,1,0
199,199,199,1.1231799999999998,380.7081021505868,0.000261640517016,261.640551367846,0,0,0,1,0,0,0,0,1,0
200,200,200,1.1232,380.5639218102467,0.0002626931666818,262.69320073376053,0,0,0,1,0,0,0,0,1,0
201,201,201,1.1232151216026387,380.5639218102467,0.0002626931666818,262.69320073376053,0,0,0,1,0,0,0,0,1,0
