,Unnamed: 0.1,Unnamed: 0,Time / s,Vo:Measured voltage,IL:Measured current,Vin:Measured voltage,open1:Output,open3:Output,open2:Output,open4:Output,short1:Output,short2:Output,short3:Output,short4:Output,OPEN,SHORT
0,0,0,1.1129405659674838,388.2729517228288,-10.183629586007184,-248.21537760389032,0,0,0,0,0,0,0,0,0,0
1,1,1,1.11296,388.3238473928741,-10.192162949072795,-249.3891182540806,0,0,0,0,0,0,0,0,0,0
2,2,2,1.11298,388.3752590549378,-10.238563848706876,-250.5530134489049,0,0,0,0,0,0,0,0,0,0
3,3,3,1.113,388.4279173691451,-10.322479998157576,-251.70701723978408,0,0,0,0,0,0,0,0,0,0
4,4,4,1.11302,388.4825457228658,-10.443542118430011,-252.8510840686038,0,0,0,0,0,0,0,0,0,0
5,5,5,1.11304,388.5410222450205,-10.536620982342468,-253.9851687695852,0,0,0,0,0,0,0,0,0,0
6,6,6,1.11306,388.6021819384296,-10.601289897544316,-255.1092265709855,0,0,0,0,0,0,0,0,0,0
7,7,7,1.1130799999999998,388.6670917584888,-10.572381760179132,-256.22321309693785,0,0,0,0,0,0,0,0,0,0
8,8,8,1.1131,388.73175674777127,-10.579015358769109,-257.32708436917164,0,0,0,0,0,0,0,0,0,0
9,9,9,1.11312,388.79688426716393,-10.62084637352824,-258.4207968087191,0,0,0,0,0,0,0,0,0,0
10,10,10,1.11314,388.8631743553464,-10.697513596689245,-259.50430723770563,0,0,0,0,0,0,0,0,0,0
11,11,11,1.11316,388.9313193956573,-10.80863911256418,-260.5775728809752,0,0,0,0,0,0,0,0,0,0
12,12,12,1.11318,389.0037530344897,-10.824189025826495,-261.64055136785737,0,0,0,0,0,0,0,0,0,0
13,13,13,1.1132,389.0768177440068,-10.873372558896165,-262.69320073376235,0,0,0,0,0,0,0,0,0,0
14,14,14,1.11322,389.1526176362447,-10.890976525902714,-263.73547942190527,0,0,0,0,0,0,0,0,0,0
15,15,15,1.11324,389.2298427613886,-10.87657614490734,-264.7673462849174,0,0,0,0,0,0,0,0,0,0
16,16,16,1.11326,389.3070787121063,-10.894647806556518,-265.78876058644323,0,0,0,0,0,0,0,0,0,0
17,17,17,1.11328,389.38499077752255,-10.944831173763331,-266.7996820028136,0,0,0,0,0,0,0,0,0,0
18,18,18,1.1133,389.46423640287566,-11.02674961990501,-267.80007062456355,0,0,0,0,0,0,0,0,0,0
19,19,19,1.11332,389.54546485890825,-11.140010425933824,-268.7898869580725,0,0,0,0,0,0,0,0,0,0
20,20,20,1.11334,389.63113143152265,-11.154357722703557,-269.76909192709525,0,0,0,0,0,0,0,0,0,0
21,21,21,1.11336,389.7173855271376,-11.199188922867457,-270.7376468742786,0,0,0,0,0,0,0,0,0,0
22,22,22,1.11338,389.80486024450016,-11.27412444674246,-271.6955135627492,0,0,0,0,0,0,0,0,0,0
23,23,23,1.1134,389.8964326160976,-11.248834446806658,-272.64265417755286,0,0,0,0,0,0,0,0,0,0
24,24,24,1.11342,389.98774628170105,-11.25280517651296,-273.5790313272087,0,0,0,0,0,0,0,0,0,0
25,25,25,1.11344,390.0794180604135,-11.285673152441696,-274.5046080451585,0,0,0,0,0,0,0,0,0,0
26,26,26,1.11346,390.17205666429817,-11.347059404683446,-275.41934779120146,0,0,0,0,0,0,0,0,0,0
27,27,27,1.11348,390.26626237520975,-11.436569685557595,-276.3232144530035,0,0,0,0,0,0,0,0,0,0
28,28,28,1.1135,390.364492881485,-11.423704105926811,-277.21617234741564,0,0,0,0,0,0,0,0,0,0
29,29,29,1.1135199999999998,390.462703920952,-11.438098060425514,-278.09818622202187,0,0,0,0,0,0,0,0,0,0
30,30,30,1.11354,390.5614778739114,-11.479377101984293,-278.9692212564321,0,0,0,0,0,0,0,0,0,0
31,31,31,1.11356,390.66138868574126,-11.547151983177011,-279.8292430636433,0,0,0,0,0,0,0,0,0,0
32,32,32,1.11358,390.7630015540631,-11.641018875449204,-280.6782176914903,0,0,0,0,0,0,0,0,0,0
33,33,33,1.1136,390.8691878873203,-11.630302078667624,-281.51611162389344,0,0,0,0,0,0,0,0,0,0
34,34,34,1.11362,390.97537689750624,-11.644782413302542,-282.34289178224986,0,0,0,0,0,0,0,0,0,0
35,35,35,1.11364,391.0821141004576,-11.684079912724435,-283.1585255266798,0,0,0,0,0,0,0,0,0,0
36,36,36,1.11366,391.1899363632738,-11.74780057655679,-283.9629806573671,0,0,0,0,0,0,0,0,0,0
37,37,37,1.11368,391.3006963096966,-11.770335580279452,-284.75622541580776,0,0,0,0,0,0,0,0,0,0
38,38,38,1.1137,391.41277133147,-11.75121826640288,-285.5382284860426,0,0,0,0,0,0,0,0,0,0
39,39,39,1.11372,391.5246383659056,-11.75525706169072,-286.3089589959436,0,0,0,0,0,0,0,0,0,0
40,40,40,1.11374,391.6368054562119,-11.782072500470193,-287.06838651837603,0,0,0,0,0,0,0,0,0,0
41,41,41,1.11376,391.7497719138014,-11.83127188827804,-287.8164810724485,0,0,0,0,0,0,0,0,0,0
42,42,42,1.11378,391.8640280315687,-11.902449533907255,-288.5532131246758,0,0,0,0,0,0,0,0,0,0
43,43,43,1.1138,391.9800548024891,-11.995186988384429,-289.27855359012443,0,0,0,0,0,0,0,0,0,0
44,44,44,1.11382,392.09987883336345,-12.043720848625863,-289.99247383360813,0,0,0,0,0,0,0,0,0,0
45,45,45,1.11384,392.2217923819004,-12.047551465196069,-290.69494567076504,0,0,0,0,0,0,0,0,0,0
46,46,46,1.11386,392.3439738693865,-12.07159587713195,-291.3859413692165,0,0,0,0,0,0,0,0,0,0
47,47,47,1.11388,392.46687194532296,-12.11545719392717,-292.06543364964153,0,0,0,0,0,0,0,0,0,0
48,48,48,1.1139,392.5915589005792,-12.113311808710852,-292.73339568683605,0,0,0,0,0,0,0,0,0,0
49,49,49,1.11392,392.716364885346,-12.130141707751978,-293.38980111081474,0,0,0,0,0,0,0,0,0,0
50,50,50,1.11394,392.84308067219496,-12.10009385447081,-294.0346240078035,0,0,0,0,0,0,0,0,0,0
51,51,51,1.1139599999999998,392.9692729120815,-12.088187991718684,-294.66783892130434,0,0,0,0,0,0,0,0,0,0
52,52,52,1.11398,393.09534972899695,-12.094043240877667,-295.28942085308245,0,0,0,0,0,0,0,0,0,0
53,53,53,1.114,393.2217103135288,-12.11726783796012,-295.8993452641362,0,0,0,0,0,0,0,0,0,0
54,54,54,1.11402,393.34874468163775,-12.1574593761923,-296.49758807570515,0,0,0,0,0,0,0,0,0,0
55,55,55,1.11404,393.47683343910967,-12.214205054569428,-297.0841256701767,0,0,0,0,0,0,0,0,0,0
56,56,56,1.11406,393.60634755181286,-12.287081932237664,-297.6589348920667,0,0,0,0,0,0,0,0,0,0
57,57,57,1.11408,393.7376481218869,-12.375657188554998,-298.2219930488705,0,0,0,0,0,0,0,0,0,0
58,58,58,1.1141,393.8710861699839,-12.479488388680448,-298.7732779120217,0,0,0,0,0,0,0,0,0,0
59,59,59,1.11412,394.0094630064693,-12.466822400730086,-299.3127677177575,0,0,0,0,0,0,0,0,0,0
60,60,60,1.11414,394.1476616208076,-12.46844040338379,-299.8404411679196,0,0,0,0,0,0,0,0,0,0
61,61,61,1.11416,394.2860064379561,-12.483947428037236,-300.3562774308782,0,0,0,0,0,0,0,0,0,0
62,62,62,1.11418,394.4262287469467,-12.447218930923276,-300.8602561422915,0,0,0,0,0,0,0,0,0,0
63,63,63,1.1142,394.5656995646804,-12.42352877571052,-301.35235740594766,0,0,0,0,0,0,0,0,0,0
64,64,64,1.11422,394.7033075503564,-12.47826236220168,-301.8325617945357,0,0,0,0,0,0,0,0,0,0
65,65,65,1.11424,394.8429228601423,-12.479507504881107,-302.3008503504,0,0,0,0,0,0,0,0,0,0
66,66,66,1.11426,394.9840621463941,-12.42678796228838,-302.7572045863185,0,0,0,0,0,0,0,0,0,0
67,67,67,1.11428,395.12341397000125,-12.451313611570074,-303.20160648619924,0,0,0,0,0,0,0,0,0,0
68,68,68,1.1142999999999998,395.26264517978495,-12.48689081138585,-303.6340385058203,0,0,0,0,0,0,0,0,0,0
69,69,69,1.11432,395.40418647666746,-12.467234379351916,-304.05448357350974,0,0,0,0,0,0,0,0,0,0
70,70,70,1.11434,395.54533543159926,-12.457766555962277,-304.4629250908086,0,0,0,0,0,0,0,0,0,0
71,71,71,1.11436,395.68568300051294,-12.524023008815613,-304.8593469331526,0,0,0,0,0,0,0,0,0,0
72,72,72,1.11438,395.8282759459863,-12.533735429963388,-305.2437334504789,0,0,0,0,0,0,0,0,0,0
73,73,73,1.1144,395.9711468380988,-12.552395858691163,-305.61606946787293,0,0,0,0,0,0,0,0,0,0
74,74,74,1.11442,396.1144995125322,-12.579591923863166,-305.97634028613965,0,0,0,0,0,0,0,0,0,0
75,75,75,1.11444,396.2585280422514,-12.614905697373146,-306.3245316824073,0,0,0,0,0,0,0,0,0,0
76,76,76,1.11446,396.403416614688,-12.657913962612684,-306.6606299106789,0,0,0,0,0,0,0,0,0,0
77,77,77,1.11448,396.5493394152746,-12.708188486008128,-306.9846217023657,0,0,0,0,0,0,0,0,0,0
78,78,78,1.1145,396.6964605173867,-12.765296291461702,-307.29649426683244,0,0,0,0,0,0,0,0,0,0
79,79,79,1.11452,396.84493377876265,-12.82879993753028,-307.5962352918786,0,0,0,0,0,0,0,0,0,0
80,80,80,1.11454,396.9949027444603,-12.898257797174256,-307.88383294424466,0,0,0,0,0,0,0,0,0,0
81,81,81,1.11456,397.1481538125217,-12.907051722070127,-308.15927587007013,0,0,0,0,0,0,0,0,0,0
82,82,82,1.11458,397.302480110332,-12.854662612809998,-308.42255319533507,0,0,0,0,0,0,0,0,0,0
83,83,83,1.1146,397.4547066312968,-12.873079158528334,-308.67365452630617,0,0,0,0,0,0,0,0,0,0
84,84,84,1.11462,397.6082198439897,-12.829472869118623,-308.91256994992824,0,0,0,0,0,0,0,0,0,0
85,85,85,1.11464,397.7598360108408,-12.855928636725766,-309.13929003423186,0,0,0,0,0,0,0,0,0,0
86,86,86,1.11466,397.9129153387783,-12.819510581160948,-309.35380582870005,0,0,0,0,0,0,0,0,0,0
87,87,87,1.11468,398.0642601634777,-12.852400369800709,-309.556108864607,0,0,0,0,0,0,0,0,0,0
88,88,88,1.1147,398.2172086793934,-12.82155612588215,-309.7461911553862,0,0,0,0,0,0,0,0,0,0
89,89,89,1.11472,398.36776271855024,-12.859256064506695,-309.92404519690564,0,0,0,0,0,0,0,0,0,0
90,90,90,1.1147399999999998,398.5208071017574,-12.83237593668314,-310.0896639677958,0,0,0,0,0,0,0,0,0,0
91,91,91,1.11476,398.67317514772793,-12.80684405866216,-310.2430409297124,0,0,0,0,0,0,0,0,0,0
92,92,92,1.11478,398.82404580931455,-12.848722743163036,-310.384170027593,0,0,0,0,0,0,0,0,0,0
93,93,93,1.1148,398.9767051572024,-12.82471025104252,-310.51304568990486,0,0,0,0,0,0,0,0,0,0
94,94,94,1.11482,399.1271069680739,-12.867332957131865,-310.62966282885526,0,0,0,0,0,0,0,0,0,0
95,95,95,1.11484,399.280091859165,-12.843209709571742,-310.73401684060144,0,0,0,0,0,0,0,0,0,0
96,96,96,1.11486,399.4324413937063,-12.818392901000172,-310.8261036054236,0,0,0,0,0,0,0,0,0,0
97,97,97,1.11488,399.58328659658633,-12.85907027847304,-310.9059194878951,0,0,0,0,0,0,0,0,0,0
98,98,98,1.1149,399.7358675431883,-12.831687225828428,-310.97346133702206,0,0,0,0,0,0,0,0,0,0
99,99,99,1.11492,399.88687262551326,-12.869025753732329,-311.0287264863668,0,0,0,0,0,0,0,0,0,0
100,100,100,1.11494,400.0395257937912,-12.837432054511853,-311.0717127541567,0,0,0,0,0,0,0,0,0,0
101,101,101,1.11496,400.190494034784,-12.86979179133698,-311.1024184433668,0,0,0,0,0,0,0,0,0,0
102,102,102,1.11498,400.3413438676888,-12.899058204088467,-311.1208423417895,0,0,0,0,0,0,0,0,0,0
103,103,103,1.115,400.4944263885533,-12.858096783716157,-311.12698372208087,0,0,0,0,0,0,0,0,0,0
104,104,104,1.11502,400.6455863685058,-12.879929004925332,-311.1208423417897,0,0,0,0,0,0,0,0,0,0
105,105,105,1.11504,400.79636616098486,-12.897438847811095,-311.10241844336684,0,0,0,0,0,0,0,0,0,0
106,106,106,1.11506,400.9474453797086,-12.91022947020136,-311.0717127541568,0,0,0,0,0,0,0,0,0,0
107,107,107,1.1150799999999998,401.0987082256055,-12.91788560661436,-311.02872648636736,0,0,0,0,0,0,0,0,0,0
108,108,108,1.1151,401.2500292298606,-12.919995187628883,-310.9734613370223,0,0,0,0,0,0,0,0,0,0
109,109,109,1.11512,401.4012733357413,-12.916149604552208,-310.905919487896,0,0,0,0,0,0,0,0,0,0
110,110,110,1.11514,401.5522959865687,-12.905943971872452,-310.82610360542384,0,0,0,0,0,0,0,0,0,0
111,111,111,1.11516,401.70294321979407,-12.888977387336404,-310.73401684060167,0,0,0,0,0,0,0,0,0,0
112,112,112,1.11518,401.8538362709052,-12.864854249402857,-310.6296628288546,0,0,0,0,0,0,0,0,0,0
113,113,113,1.1152,402.0023776418382,-12.900143150650504,-310.5130456899052,0,0,0,0,0,0,0,0,0,0
114,114,114,1.11522,402.1532384084723,-12.860509554109754,-310.3841700275945,0,0,0,0,0,0,0,0,0,0
115,115,115,1.11524,402.3013765893856,-12.879527446068616,-310.24304092971147,0,0,0,0,0,0,0,0,0,0
116,116,116,1.11526,402.4498013550135,-12.889829426427896,-310.0896639677962,0,0,0,0,0,0,0,0,0,0
117,117,117,1.11528,402.59830443791776,-12.891003312708047,-309.92404519690456,0,0,0,0,0,0,0,0,0,0
118,118,118,1.1153,402.746668099862,-12.88264263106938,-309.7461911553851,0,0,0,0,0,0,0,0,0,0
119,119,119,1.11532,402.8946652715725,-12.86434687327257,-309.55610886460926,0,0,0,0,0,0,0,0,0,0
120,120,120,1.11534,403.0420596984089,-12.835721749947789,-309.3538058286987,0,0,0,0,0,0,0,0,0,0
121,121,121,1.11536,403.1886060918401,-12.796379440021186,-309.1392900342345,0,0,0,0,0,0,0,0,0,0
122,122,122,1.11538,403.3340502866354,-12.745938836150996,-308.91256994992887,0,0,0,0,0,0,0,0,0,0
123,123,123,1.1154,403.47812940367055,-12.684025786027057,-308.6736545263068,0,0,0,0,0,0,0,0,0,0
124,124,124,1.11542,403.6205720182576,-12.61027332939092,-308.4225531953381,0,0,0,0,0,0,0,0,0,0
125,125,125,1.11544,403.7610983338863,-12.524321930635727,-308.15927587007087,0,0,0,0,0,0,0,0,0,0
126,126,126,1.11546,403.89738440788096,-12.560418026879145,-307.883832944248,0,0,0,0,0,0,0,0,0,0
127,127,127,1.11548,404.0343025268476,-12.583666476926604,-307.5962352918794,0,0,0,0,0,0,0,0,0,0
128,128,128,1.1155,404.1715518007423,-12.593651134360035,-307.29649426683324,0,0,0,0,0,0,0,0,0,0
129,129,129,1.1155199999999998,404.30882196480496,-12.589964013880255,-306.98462170236945,0,0,0,0,0,0,0,0,0,0
130,130,130,1.11554,404.4457935739157,-12.572205541659386,-306.66062991067975,0,0,0,0,0,0,0,0,0,0
131,131,131,1.11556,404.5805309610169,-12.607396977758658,-306.32453168241136,0,0,0,0,0,0,0,0,0,0
132,132,132,1.11558,404.7158538363692,-12.627782292629655,-305.9763402861406,0,0,0,0,0,0,0,0,0,0
133,133,133,1.1156,404.8514185696295,-12.632949403704764,-305.6160694678739,0,0,0,0,0,0,0,0,0,0
134,134,134,1.11562,404.98764354308463,-12.622496896399912,-305.24373345047985,0,0,0,0,0,0,0,0,0,0
135,135,135,1.11564,405.1217771642209,-12.663512934262004,-304.85934693315363,0,0,0,0,0,0,0,0,0,0
136,136,136,1.11566,405.2574584179906,-12.620623768531718,-304.46292509081337,0,0,0,0,0,0,0,0,0,0
137,137,137,1.11568,405.39107137215314,-12.628472911494107,-304.0544835735109,0,0,0,0,0,0,0,0,0,0
138,138,138,1.1157,405.5246176215428,-12.619166964746992,-303.6340385058253,0,0,0,0,0,0,0,0,0,0
139,139,139,1.11572,405.65770289758905,-12.592314108317282,-303.2016064862004,0,0,0,0,0,0,0,0,0,0
140,140,140,1.11574,405.78992429726566,-12.54753308076817,-302.7572045863197,0,0,0,0,0,0,0,0,0,0
141,141,141,1.11576,405.9208705288853,-12.484453406872056,-302.30085035040537,0,0,0,0,0,0,0,0,0,0
142,142,142,1.11578,406.050122162892,-12.402715619034726,-301.832561794537,0,0,0,0,0,0,0,0,0,0
143,143,143,1.1158,406.1758661962624,-12.369651154111684,-301.35235740595334,0,0,0,0,0,0,0,0,0,0
144,144,144,1.11582,406.2999707208536,-12.384973653023891,-300.86025614228834,0,0,0,0,0,0,0,0,0,0
145,145,145,1.11584,406.4241513726308,-12.380631163265516,-300.35627743087497,0,0,0,0,0,0,0,0,0,0
146,146,146,1.11586,406.54796282122845,-12.356233417704788,-299.8404411679257,0,0,0,0,0,0,0,0,0,0
147,147,147,1.11588,406.6709512869765,-12.311401943109267,-299.3127677177541,0,0,0,0,0,0,0,0,0,0
148,148,148,1.1159,406.79107724897335,-12.313551264379738,-298.7732779120281,0,0,0,0,0,0,0,0,0,0
149,149,149,1.11592,406.9109712380368,-12.294580458418062,-298.22199304886686,0,0,0,0,0,0,0,0,0,0
150,150,150,1.11594,407.02933115911696,-12.32193247786904,-297.65893489206303,0,0,0,0,0,0,0,0,0,0
151,151,151,1.1159599999999998,406.8863408442977,0.0001098022001824,-297.08412567018354,0,1,0,0,0,0,0,0,1,0
152,152,152,1.11598,406.7322458020957,0.0001102346423713,-296.4975880757067,0,1,0,0,0,0,0,0,1,0
153,153,153,1.116,406.5782093165196,0.0001106784949814,-295.8993452641432,0,1,0,0,0,0,0,0,1,0
154,154,154,1.11602,406.4242313501252,0.0001097933386292,-295.2894208530841,0,1,0,0,0,0,0,0,1,0
155,155,155,1.11604,406.27031188134447,-0.0002946678547958,-294.66783892131167,0,1,0,0,0,0,0,0,1,0
156,156,156,1.11606,406.1164507538992,-0.0002940346402372,-294.0346240078051,0,1,0,0,0,0,0,0,1,0
157,157,157,1.11608,405.9626478961474,-0.0002933898176945,-293.38980111081645,0,1,0,0,0,0,0,0,1,0
158,158,158,1.1161,405.8089032860213,-0.0002927334126242,-292.73339568684383,0,1,0,0,0,0,0,0,1,0
159,159,159,1.11612,405.6552169014616,-0.00029206545094,-292.0654336496433,0,1,0,0,0,0,0,0,1,0
160,160,160,1.11614,405.50158872041686,-0.0002913859590119,-291.3859413692245,0,1,0,0,0,0,0,0,1,0
161,161,161,1.11616,405.3480187208457,-0.000290694963665,-290.69494567076686,0,1,0,0,0,0,0,0,1,0
162,162,162,1.11618,405.1945068807127,-0.0002899924921788,-289.99247383361,0,1,0,0,0,0,0,0,1,0
163,163,163,1.1162,405.04105317799264,-0.0002892785722855,-289.27855359013284,0,1,0,0,0,0,0,0,1,0
164,164,164,1.11622,404.8876575906674,-0.0002885532321694,-288.55321312467765,0,1,0,0,0,0,0,0,1,0
165,165,165,1.11624,404.7343200967284,-0.0002878165004659,-287.81648107245724,0,1,0,0,0,0,0,0,1,0
166,166,166,1.11626,404.5810406741744,-0.0002870684062597,-287.068386518378,0,1,0,0,0,0,0,0,1,0
167,167,167,1.11628,404.42781930101216,-0.0002863089790845,-286.30895899594566,0,1,0,0,0,0,0,0,1,0
168,168,168,1.1162999999999998,404.2746559552588,-0.0002855382489209,-285.5382284860517,0,1,0,0,0,0,0,0,1,0
169,169,169,1.11632,404.1215506149373,-0.0002847562461962,-284.75622541580987,0,1,0,0,0,0,0,0,1,0
170,170,170,1.11634,403.9685032580809,-0.0002839630017825,-283.9629806573765,0,1,0,0,0,0,0,0,1,0
171,171,171,1.11636,403.8155138627303,-0.0002831585469957,-283.1585255266746,0,1,0,0,0,0,0,0,1,0
172,172,172,1.11638,403.66258240693367,-0.0002823429135943,-282.3428917822521,0,1,0,0,0,0,0,0,1,0
173,173,173,1.1164,403.5097088687488,-0.0002815161337781,-281.5161116238881,0,1,0,0,0,0,0,0,1,0
174,174,174,1.11642,403.35689322624177,-0.000280678240187,-280.67821769148486,0,1,0,0,0,0,0,0,1,0
175,175,175,1.11644,403.204135457486,-0.0002798292658996,-279.8292430636455,0,1,0,0,0,0,0,0,1,0
176,176,176,1.11646,403.05143554056417,-0.0002789692444319,-278.9692212564266,0,1,0,0,0,0,0,0,1,0
177,177,177,1.11648,402.8987934535664,-0.0002780982097361,-278.0981862220321,0,1,0,0,0,0,0,0,1,0
178,178,178,1.1165,402.7462091745918,-0.0002772161961991,-277.216172347418,0,1,0,0,0,0,0,0,1,0
179,179,179,1.11652,402.5936826817477,-0.0002763232386414,-276.3232144529978,0,1,0,0,0,0,0,0,1,0
180,180,180,1.11654,402.44121395314926,-0.0002754193723154,-275.41934779121215,0,1,0,0,0,0,0,0,1,0
181,181,181,1.11656,402.28880296692006,-0.0002745046329042,-274.50460804516086,0,1,0,0,0,0,0,0,1,0
182,182,182,1.11658,402.1364497011927,-0.00027357905652,-273.5790313272196,0,1,0,0,0,0,0,0,1,0
183,183,183,1.1166,401.98415413410726,-0.0002726426797032,-272.64265417755536,0,1,0,0,0,0,0,0,1,0
184,184,184,1.11662,401.83191624381175,-0.0002716955394202,-271.69551356275167,0,1,0,0,0,0,0,0,1,0
185,185,185,1.11664,401.67973600846426,-0.0002707376730625,-270.73764687428985,0,1,0,0,0,0,0,0,1,0
186,186,186,1.11666,401.5276134062288,-0.0002697691184451,-269.76909192709786,0,1,0,0,0,0,0,0,1,0
187,187,187,1.11668,401.3755484152791,-0.0002687899138048,-268.789886958084,0,1,0,0,0,0,0,0,1,0
188,188,188,1.1167,401.2235410137976,-0.000267800097799,-267.80007062456616,0,1,0,0,0,0,0,0,1,0
189,189,189,1.11672,401.07159117997327,-0.0002667997095038,-266.7996820028162,0,1,0,0,0,0,0,0,1,0
190,190,190,1.1167399999999998,400.9196988920047,-0.0002657887884129,-265.7887605864551,0,1,0,0,0,0,0,0,1,0
191,191,191,1.11676,400.7678641280981,-0.0002647673744358,-264.76734628492005,0,1,0,0,0,0,0,0,1,0
192,192,192,1.11678,400.61608686646827,-0.0002637355078961,-263.7354794219174,0,1,0,0,0,0,0,0,1,0
193,193,193,1.1168,400.46436708533855,-0.0002626932295301,-262.69320073376514,0,1,0,0,0,0,0,0,1,0
194,194,194,1.11682,400.3127047629399,-0.0002616405804852,-261.64055136786016,0,1,0,0,0,0,0,0,1,0
195,195,195,1.11684,400.1610998775117,-0.0002605776023182,-260.57757288097804,0,1,0,0,0,0,0,0,1,0
196,196,196,1.11686,400.00955240730167,-0.0002595043369937,-259.5043072377085,0,1,0,0,0,0,0,0,1,0
197,197,197,1.11688,399.8580623305656,-0.0002584208268822,-258.4207968087318,0,1,0,0,0,0,0,0,1,0
198,198,198,1.1169,399.70662962556816,-0.000257327114759,-257.32708436917454,0,1,0,0,0,0,0,0,1,0
199,199,199,1.11692,399.5552542705816,-0.000256223243802,-256.2232130969509,0,1,0,0,0,0,0,0,1,0
200,200,200,1.11694,399.4039362438856,-0.0002551092575899,-255.1092265709784,0,1,0,0,0,0,0,0,1,0
201,201,201,1.1169405659674836,399.4039362438856,-0.0002551092575899,-255.1092265709784,0,1,0,0,0,0,0,0,1,0
