,Unnamed: 0.1,Unnamed: 0,Time / s,Vo:Measured voltage,IL:Measured current,Vin:Measured voltage,open1:Output,open3:Output,open2:Output,open4:Output,short1:Output,short2:Output,short3:Output,short4:Output,OPEN,SHORT
0,0,0,1.1170314922893672,411.3832315958941,-10.28122492014358,-250.553013448908,0,0,0,0,0,0,0,0,0,0
1,1,1,1.11704,411.4181513274672,-10.178603211626816,-249.3891182540731,0,0,0,0,0,0,0,0,0,0
2,2,2,1.11706,411.44985556238913,-10.173471525630534,-248.2153776038828,0,0,0,0,0,0,0,0,0,0
3,3,3,1.11708,411.4797406385924,-10.196984361781247,-247.03183783559749,0,0,0,0,0,0,0,0,0,0
4,4,4,1.1171,411.50967433661634,-10.180283251485866,-245.83854567333,0,0,0,0,0,0,0,0,0,0
5,5,5,1.11712,411.5389227285045,-10.12305563903276,-244.63554822623308,0,0,0,0,0,0,0,0,0,0
6,6,6,1.11714,411.5667466310263,-10.025005317602838,-243.42289298656448,0,0,0,0,0,0,0,0,0,0
7,7,7,1.11716,411.5924019058912,-9.885852541929232,-242.2006278278985,0,0,0,0,0,0,0,0,0,0
8,8,8,1.1171799999999998,411.6127991387923,-9.842512421747529,-240.96880100315985,0,0,0,0,0,0,0,0,0,0
9,9,9,1.1172,411.63220651010727,-9.826167994902026,-239.72746114275108,0,0,0,0,0,0,0,0,0,0
10,10,10,1.11722,411.6496396171219,-9.836513724468851,-238.4766572526668,0,0,0,0,0,0,0,0,0,0
11,11,11,1.11724,411.66687499496703,-9.804674028785415,-237.21643871248028,0,0,0,0,0,0,0,0,0,0
12,12,12,1.11726,411.6831687732836,-9.730352846104712,-235.94685527348443,0,0,0,0,0,0,0,0,0,0
13,13,13,1.11728,411.6977723026185,-9.613270247695672,-234.66795705663657,0,0,0,0,0,0,0,0,0,0
14,14,14,1.1173,411.7099324406144,-9.453162537500354,-233.3797945506716,0,0,0,0,0,0,0,0,0,0
15,15,15,1.11732,411.71557474694936,-9.524214773330575,-232.0824186100281,0,0,0,0,0,0,0,0,0,0
16,16,16,1.11734,411.7220487233146,-9.551746735142734,-230.7758804528748,0,0,0,0,0,0,0,0,0,0
17,17,17,1.11736,411.7286130239738,-9.535451666435849,-229.46023165912467,0,0,0,0,0,0,0,0,0,0
18,18,18,1.11738,411.7345215121371,-9.475038463470629,-228.1355241683156,0,0,0,0,0,0,0,0,0,0
19,19,19,1.1174,411.7390235281825,-9.370231771853607,-226.80181027765488,0,0,0,0,0,0,0,0,0,0
20,20,20,1.11742,411.74136415936016,-9.220772078017852,-225.45914263987143,0,0,0,0,0,0,0,0,0,0
21,21,21,1.11744,411.73982810502713,-9.095028189619592,-224.10757426117223,0,0,0,0,0,0,0,0,0,0
22,22,22,1.11746,411.7335568712254,-9.129991692299704,-222.7471584991871,0,0,0,0,0,0,0,0,0,0
23,23,23,1.11748,411.7274859315037,-9.119569272966498,-221.37794906077625,0,0,0,0,0,0,0,0,0,0
24,24,24,1.1175,411.7208703226128,-9.063478782247945,-220.0000000000087,0,0,0,0,0,0,0,0,0,0
25,25,25,1.1175199999999998,411.7129608724709,-8.961453368018395,-218.6133657159416,0,0,0,0,0,0,0,0,0,0
26,26,26,1.11754,411.7030044527135,-8.813241557999348,-217.21810095050927,0,0,0,0,0,0,0,0,0,0
27,27,27,1.11756,411.68897191908746,-8.755817884577278,-215.8142607864013,0,0,0,0,0,0,0,0,0,0
28,28,28,1.11758,411.6718414085042,-8.788930595032529,-214.401900644785,0,0,0,0,0,0,0,0,0,0
29,29,29,1.1176,411.6548662773613,-8.775116272458222,-212.98107628327165,0,0,0,0,0,0,0,0,0,0
30,30,30,1.11762,411.6373049841786,-8.714104967344305,-211.5518437935357,0,0,0,0,0,0,0,0,0,0
31,31,31,1.11764,411.6184121320289,-8.605641534591513,-210.11425959925464,0,0,0,0,0,0,0,0,0,0
32,32,32,1.11766,411.5974387038202,-8.449485706954388,-208.6683804537778,0,0,0,0,0,0,0,0,0,0
33,33,33,1.11768,411.5712930842312,-8.451168133663625,-207.21426343792507,0,0,0,0,0,0,0,0,0,0
34,34,34,1.1177,411.5441923395367,-8.473271232408985,-205.75196595777263,0,0,0,0,0,0,0,0,0,0
35,35,35,1.11772,411.51706645535774,-8.446946654520707,-204.2815457422947,0,0,0,0,0,0,0,0,0,0
36,36,36,1.11774,411.4891798563832,-8.371939244722665,-202.80306084119024,0,0,0,0,0,0,0,0,0,0
37,37,37,1.11776,411.4597934887788,-8.24800811825783,-201.3165696224983,0,0,0,0,0,0,0,0,0,0
38,38,38,1.11778,411.4273229527449,-8.14348855417222,-199.8221307703333,0,0,0,0,0,0,0,0,0,0
39,39,39,1.1178,411.39149706051495,-8.126706352289219,-198.31980328260937,0,0,0,0,0,0,0,0,0,0
40,40,40,1.11782,411.354469616464,-8.128857158240292,-196.80964646861608,0,0,0,0,0,0,0,0,0,0
41,41,41,1.11784,411.31712111488,-8.081137621299957,-195.291719946786,0,0,0,0,0,0,0,0,0,0
42,42,42,1.11786,411.2787246576208,-7.983309361456758,-193.76608364224543,0,0,0,0,0,0,0,0,0,0
43,43,43,1.11788,411.2385502548436,-7.835147696788638,-192.2327977844896,0,0,0,0,0,0,0,0,0,0
44,44,44,1.1179,411.19402202314575,-7.773486470414487,-190.6919229050463,0,0,0,0,0,0,0,0,0,0
45,45,45,1.11792,411.1473758537613,-7.798093758055718,-189.1435198349897,0,0,0,0,0,0,0,0,0,0
46,46,46,1.11794,411.1007307351288,-7.771677363434016,-187.58764970264951,0,0,0,0,0,0,0,0,0,0
47,47,47,1.1179599999999998,411.053373901646,-7.694004056916194,-186.0243739311007,0,0,0,0,0,0,0,0,0,0
48,48,48,1.11798,411.0045896981948,-7.564853653453492,-184.45375423577968,0,0,0,0,0,0,0,0,0,0
49,49,49,1.118,410.9536597633932,-7.384019062835662,-182.87585262209103,0,0,0,0,0,0,0,0,0,0
50,50,50,1.11802,410.8973009778538,-7.425206961869185,-181.29073138286017,0,0,0,0,0,0,0,0,0,0
51,51,51,1.11804,410.84116081169,-7.414259234430518,-179.69845309598813,0,0,0,0,0,0,0,0,0,0
52,52,52,1.11806,410.7845426326184,-7.350950010780584,-178.09908062186642,0,0,0,0,0,0,0,0,0,0
53,53,53,1.11808,410.7267471437944,-7.23506579922808,-176.4926771010108,0,0,0,0,0,0,0,0,0,0
54,54,54,1.1181,410.667072550131,-7.066405530969913,-174.87930595146707,0,0,0,0,0,0,0,0,0,0
55,55,55,1.11812,410.602356523969,-7.118486512548193,-173.25903086633645,0,0,0,0,0,0,0,0,0,0
56,56,56,1.11814,410.53798451562096,-7.117341934593518,-171.63191581137826,0,0,0,0,0,0,0,0,0,0
57,57,57,1.11816,410.4732776958437,-7.062755111541878,-169.99802502222045,0,0,0,0,0,0,0,0,0,0
58,58,58,1.11818,410.40755480982176,-6.954521065011345,-168.35742300214764,0,0,0,0,0,0,0,0,0,0
59,59,59,1.1182,410.3401323273099,-6.792446563316398,-166.71017451928876,0,0,0,0,0,0,0,0,0,0
60,60,60,1.11822,410.2687369237648,-6.713089585921041,-165.0563446041785,0,0,0,0,0,0,0,0,0,0
61,61,61,1.11824,410.1952818750789,-6.716222175873365,-163.39599854721996,0,0,0,0,0,0,0,0,0,0
62,62,62,1.11826,410.1215576787968,-6.664887371615533,-161.7292018960025,0,0,0,0,0,0,0,0,0,0
63,63,63,1.11828,410.0469031386904,-6.558890156333129,-160.05602045283402,0,0,0,0,0,0,0,0,0,0
64,64,64,1.1182999999999998,409.970655012769,-6.39804657846603,-158.37652027203796,0,0,0,0,0,0,0,0,0,0
65,65,65,1.11832,409.8901741910631,-6.387108004903303,-156.69076765739032,0,0,0,0,0,0,0,0,0,0
66,66,66,1.11834,409.8090233391299,-6.389214411036024,-154.99882915954842,0,0,0,0,0,0,0,0,0,0
67,67,67,1.11836,409.7276030098201,-6.335854821018823,-153.30077157331647,0,0,0,0,0,0,0,0,0,0
68,68,68,1.11838,409.6452736390706,-6.226845325569736,-151.59666193513115,0,0,0,0,0,0,0,0,0,0
69,69,69,1.1183999999999998,409.5613938476752,-6.062012403647125,-149.88656752030775,0,0,0,0,0,0,0,0,0,0
70,70,70,1.11842,409.47345006080303,-6.045910231861787,-148.17055584043007,0,0,0,0,0,0,0,0,0,0
71,71,71,1.11844,409.38481706687287,-6.041818645200976,-146.44869464073196,0,0,0,0,0,0,0,0,0,0
72,72,72,1.11846,409.29585986613694,-5.981306838946706,-144.72105189731414,0,0,0,0,0,0,0,0,0,0
73,73,73,1.11848,409.20596223950383,-5.8642028716908055,-142.98769581458524,0,0,0,0,0,0,0,0,0,0
74,74,74,1.1185,409.1145063790793,-5.690344519185743,-141.24869482244398,0,0,0,0,0,0,0,0,0,0
75,75,75,1.11852,409.0191240332797,-5.664071015799776,-139.5041175737034,0,0,0,0,0,0,0,0,0,0
76,76,76,1.11854,408.922993846496,-5.648815198783698,-137.75403294127037,0,0,0,0,0,0,0,0,0,0
77,77,77,1.11856,408.82644191042624,-5.57623325232205,-135.99851001547364,0,0,0,0,0,0,0,0,0,0
78,78,78,1.11858,408.7288770171586,-5.446165812224053,-134.23761810138413,0,0,0,0,0,0,0,0,0,0
79,79,79,1.1186,408.6289632717743,-5.326559468516644,-132.47142671596768,0,0,0,0,0,0,0,0,0,0
80,80,80,1.11862,408.5266660010507,-5.2853157107726245,-130.70000558546784,0,0,0,0,0,0,0,0,0,0
81,81,81,1.11864,408.42352707699285,-5.254133681202555,-128.92342464254182,0,0,0,0,0,0,0,0,0,0
82,82,82,1.11866,408.3198368005285,-5.164763400348996,-127.14175402354704,0,0,0,0,0,0,0,0,0,0
83,83,83,1.11868,408.214317455052,-5.085086600273409,-125.35506406582113,0,0,0,0,0,0,0,0,0,0
84,84,84,1.1187,408.10740656882086,-5.014922602525321,-123.56342530477572,0,0,0,0,0,0,0,0,0,0
85,85,85,1.11872,407.9991168714662,-4.954082804514371,-121.76690847132244,0,0,0,0,0,0,0,0,0,0
86,86,86,1.1187399999999998,407.88985992545287,-4.902384054973764,-119.96558448880484,0,0,0,0,0,0,0,0,0,0
87,87,87,1.11876,407.7798999769655,-4.791676513072568,-118.15952447039297,0,0,0,0,0,0,0,0,0,0
88,88,88,1.11878,407.66766562412977,-4.757705936744053,-116.34879971630914,0,0,0,0,0,0,0,0,0,0
89,89,89,1.1188,407.5549114626491,-4.664403124161924,-114.53348171081718,0,0,0,0,0,0,0,0,0,0
90,90,90,1.11882,407.44067413907607,-4.579540492056652,-112.71364211959646,0,0,0,0,0,0,0,0,0,0
91,91,91,1.11884,407.3253364205164,-4.5029451853762765,-110.88935278676504,0,0,0,0,0,0,0,0,0,0
92,92,92,1.11886,407.2085056829729,-4.434434067089311,-109.06068573217507,0,0,0,0,0,0,0,0,0,0
93,93,93,1.11888,407.0905500514275,-4.373838850681359,-107.22771314845426,0,0,0,0,0,0,0,0,0,0
94,94,94,1.1189,406.9718943232595,-4.253160157470841,-105.390507398205,0,0,0,0,0,0,0,0,0,0
95,95,95,1.11892,406.8515162408231,-4.207894282654909,-103.54914101119772,0,0,0,0,0,0,0,0,0,0
96,96,96,1.11894,406.7299905099821,-4.1700270751627,-101.7036866813912,0,0,0,0,0,0,0,0,0,0
97,97,97,1.11896,406.6076472505034,-4.139394464888097,-99.8542172641958,0,0,0,0,0,0,0,0,0,0
98,98,98,1.11898,406.4848850374784,-4.04808309473048,-98.00080577348064,0,0,0,0,0,0,0,0,0,0
99,99,99,1.119,406.36124400269415,-3.895983371617621,-96.143525378741,0,0,0,0,0,0,0,0,0,0
100,100,100,1.11902,406.23579163848575,-3.8184008478624887,-94.28244940226034,0,0,0,0,0,0,0,0,0,0
101,101,101,1.11904,406.1087511712559,-3.8151155276510575,-92.4176513160978,0,0,0,0,0,0,0,0,0,0
102,102,102,1.11906,405.9815189624912,-3.7505923305417705,-90.5492047393226,0,0,0,0,0,0,0,0,0,0
103,103,103,1.11908,405.85366799205616,-3.6247297064966326,-88.67718343498933,0,0,0,0,0,0,0,0,0,0
104,104,104,1.1191,405.7244418980882,-3.5050500260716384,-86.8016613072768,0,0,0,0,0,0,0,0,0,0
105,105,105,1.11912,405.5933549075428,-3.5265970437839846,-84.92271239862104,0,0,0,0,0,0,0,0,0,0
106,106,106,1.11914,405.4622544305538,-3.486376167115544,-83.04041088667378,0,0,0,0,0,0,0,0,0,0
107,107,107,1.11916,405.3307471737753,-3.3842946291973486,-81.1548310815097,0,0,0,0,0,0,0,0,0,0
108,108,108,1.1191799999999998,405.1984394194578,-3.220264920623244,-79.26604742257386,0,0,0,0,0,0,0,0,0,0
109,109,109,1.1192,405.0642471581004,-3.129220144935088,-77.3741344757939,0,0,0,0,0,0,0,0,0,0
110,110,110,1.11922,404.92898427274736,-3.110964805480525,-75.4791669306877,0,0,0,0,0,0,0,0,0,0
111,111,111,1.11924,404.79348422124815,-3.0303645178465164,-73.58121959729495,0,0,0,0,0,0,0,0,0,0
112,112,112,1.11926,404.65738797113016,-2.8873406868087987,-71.68036740336092,0,0,0,0,0,0,0,0,0,0
113,113,113,1.11928,404.5197142177008,-2.816654144576394,-69.77668539122378,0,0,0,0,0,0,0,0,0,0
114,114,114,1.1193,404.38128246164496,-2.7507159485271444,-67.87024871505868,0,0,0,0,0,0,0,0,0,0
115,115,115,1.11932,404.2423085686936,-2.689395325922272,-65.96113263770408,0,0,0,0,0,0,0,0,0,0
116,116,116,1.11934,404.1029055803086,-2.565208072230367,-64.04941252772466,0,0,0,0,0,0,0,0,0,0
117,117,117,1.11936,403.96219366379233,-2.5127389479255857,-62.135163856643366,0,0,0,0,0,0,0,0,0,0
118,118,118,1.11938,403.8211278175296,-2.3971952186899714,-60.21846219566815,0,0,0,0,0,0,0,0,0,0
119,119,119,1.1194,403.6791346854419,-2.353077012652603,-58.29938321293331,0,0,0,0,0,0,0,0,0,0
120,120,120,1.11942,403.53684693140497,-2.2456829240104907,-56.37800267037377,0,0,0,0,0,0,0,0,0,0
121,121,121,1.11944,403.3934873698773,-2.209418365136603,-54.45439642078601,0,0,0,0,0,0,0,0,0,0
122,122,122,1.11946,403.2498936814184,-2.1096864904717934,-52.52864040488584,0,0,0,0,0,0,0,0,0,0
123,123,123,1.11948,403.1056171749668,-2.013620432693352,-50.60081064818848,0,0,0,0,0,0,0,0,0,0
124,124,124,1.1195,402.96054082715926,-1.9882660582389464,-48.670983258146656,0,0,0,0,0,0,0,0,0,0
125,125,125,1.1195199999999998,402.8151372670845,-1.9663088237443191,-46.739234421023866,0,0,0,0,0,0,0,0,0,0
126,126,126,1.11954,402.66959292085846,-1.8805266069005613,-44.805640398939055,0,0,0,0,0,0,0,0,0,0
127,127,127,1.11956,402.5236757204196,-1.7308789288651616,-42.870277526908325,0,0,0,0,0,0,0,0,0,0
128,128,128,1.11958,402.37672824364296,-1.7185166110693202,-40.933222209709,0,0,0,0,0,0,0,0,0,0
129,129,129,1.1196,402.2295468197669,-1.7091244333871736,-38.99455091900326,0,0,0,0,0,0,0,0,0,0
130,130,130,1.11962,402.0822955066238,-1.6355871090731202,-37.054340190179055,0,0,0,0,0,0,0,0,0,0
131,131,131,1.11964,401.9347799417825,-1.4978744050144754,-35.1126666194689,0,0,0,0,0,0,0,0,0,0
132,132,132,1.11966,401.78660809132896,-1.362921642891282,-33.16960686080313,0,0,0,0,0,0,0,0,0,0
133,133,133,1.11968,401.637803359287,-1.2975783609062894,-31.225237622836367,0,0,0,0,0,0,0,0,0,0
134,134,134,1.1197,401.4887757047079,-1.2347708636564243,-29.27963566597203,0,0,0,0,0,0,0,0,0,0
135,135,135,1.11972,401.3395741516701,-1.1075172316911968,-27.33287779920876,0,0,0,0,0,0,0,0,0,0
136,136,136,1.11974,401.1898146726453,-1.0495297077670334,-25.385040877248965,0,0,0,0,0,0,0,0,0,0
137,137,137,1.11976,401.0399250326817,-0.9269749658000712,-23.436201797341507,0,0,0,0,0,0,0,0,0,0
138,138,138,1.11978,400.889688759116,-0.8734747061213651,-21.48643749629865,0,0,0,0,0,0,0,0,0,0
139,139,139,1.1198,400.7393533352405,-0.7552953977867025,-19.535824947511763,0,0,0,0,0,0,0,0,0,0
140,140,140,1.11982,400.5886554401477,-0.7059601785308726,-17.584441157788984,0,0,0,0,0,0,0,0,0,0
141,141,141,1.11984,400.4378954908859,-0.5918441804164662,-15.63236316445634,0,0,0,0,0,0,0,0,0,0
142,142,142,1.11986,400.2869379035706,-0.5463792306878505,-13.67966803219286,0,0,0,0,0,0,0,0,0,0
143,143,143,1.11988,400.1358723999247,-0.5027300119061541,-11.726432850023468,0,0,0,0,0,0,0,0,0,0
144,144,144,1.1199,399.98474980471497,-0.460831044903876,-9.772734728417047,0,0,0,0,0,0,0,0,0,0
145,145,145,1.11992,399.8336216222448,-0.3539773845618025,-7.8186507959241185,0,0,0,0,0,0,0,0,0,0
146,146,146,1.11994,399.6824288213055,-0.1821784918862869,-5.864258196520799,0,0,0,0,0,0,0,0,0,0
147,147,147,1.1199599999999998,399.5311113450836,-0.2118065419524746,-3.909634086245101,0,0,0,0,0,0,0,0,0,0
148,148,148,1.11998,399.3798551737484,-0.1763291166730691,-1.9548556302923592,0,0,0,0,0,0,0,0,0,0
149,149,149,1.12,399.2286405620177,-0.0757638222005799,-4.267431445128511e-12,0,0,0,0,0,0,0,0,0,0
150,150,150,1.12002,399.077432824506,-0.1096739090066511,1.9548556303015097,0,0,0,0,0,0,0,0,0,0
151,151,151,1.12004,398.92627685473775,-0.0783997854936306,3.9096340862365664,1,0,0,0,0,0,0,0,1,0
152,152,152,1.12006,398.7751969461952,0.0461593675367194,5.864258196529949,1,0,0,0,0,0,0,0,1,0
153,153,153,1.12008,398.6241744106346,0.0633645516241926,7.818650795933268,1,0,0,0,0,0,0,0,1,0
154,154,154,1.1201,398.4732091296435,0.0798574409845166,9.77273472839084,1,0,0,0,0,0,0,0,1,0
155,155,155,1.12012,398.3223010808837,0.0963469745534793,11.726432850032612,1,0,0,0,0,0,0,0,1,0
156,156,156,1.12014,398.17145024266745,0.1128326886769039,13.679668032166663,1,0,0,0,0,0,0,0,1,0
157,157,157,1.12016,398.020656593314,0.1293139325824848,15.632363164447812,1,0,0,0,0,0,0,0,1,0
158,158,158,1.12018,397.869920111148,0.1457900556248971,17.584441157780464,1,0,0,0,0,0,0,0,1,0
159,159,159,1.1202,397.7192407745002,0.1622604073609852,19.5358249474856,1,0,0,0,0,0,0,0,1,0
160,160,160,1.12022,397.5686185617072,0.1787243375754686,21.486437496290137,1,0,0,0,0,0,0,0,1,0
161,161,161,1.12024,397.41805345111095,0.1951811963064999,23.43620179731536,1,0,0,0,0,0,0,0,1,0
162,162,162,1.12026,397.26754542106,0.21163033387147,25.38504087724046,1,0,0,0,0,0,0,0,1,0
163,163,163,1.12028,397.1170944499078,0.2280711008925341,27.33287779920025,1,0,0,0,0,0,0,0,1,0
164,164,164,1.1203,396.9667005160152,0.2445028483223367,29.279635665945925,1,0,0,0,0,0,0,0,1,0
165,165,165,1.12032,396.8163635977471,0.2609249274695839,31.22523762282788,1,0,0,0,0,0,0,0,1,0
166,166,166,1.12034,396.6660836734754,0.2773366900246638,33.16960686077705,1,0,0,0,0,0,0,0,1,0
167,167,167,1.12036,396.5158607215778,0.2937374880852553,35.11266661946041,1,0,0,0,0,0,0,0,1,0
168,168,168,1.12038,396.36569472043766,0.3101266741818518,37.054340190170585,1,0,0,0,0,0,0,0,1,0
169,169,169,1.1203999999999998,396.21558564844406,0.3265036013034532,38.99455091897725,1,0,0,0,0,0,0,0,1,0
170,170,170,1.12042,396.0655334839924,0.3428676229229173,40.93322220970054,1,0,0,0,0,0,0,0,1,0
171,171,171,1.12044,395.91553820548313,0.3592180930226706,42.870277526882354,1,0,0,0,0,0,0,0,1,0
172,172,172,1.12046,395.7655997913236,0.3755543661200773,44.80564039894811,1,0,0,0,0,0,0,0,1,0
173,173,173,1.12048,395.615718219926,0.3918757972929681,46.73923442101543,1,0,0,0,0,0,0,0,1,0
174,174,174,1.1205,395.46589346970944,0.4081817422051779,48.67098325815569,1,0,0,0,0,0,0,0,1,0
175,175,175,1.12052,395.3161255190981,0.4244715571318111,50.60081064819752,1,0,0,0,0,0,0,0,1,0
176,176,176,1.12054,395.16641434652223,0.4407445989848224,52.52864040487743,1,0,0,0,0,0,0,0,1,0
177,177,177,1.12056,395.01675993041766,0.4570002253383115,54.45439642079504,1,0,0,0,0,0,0,0,1,0
178,178,178,1.12058,394.8671622492269,0.4732377944539044,56.378002670365376,1,0,0,0,0,0,0,0,1,0
179,179,179,1.1206,394.7176212813972,0.4894566653061281,58.299383212942296,1,0,0,0,0,0,0,0,1,0
180,180,180,1.12062,394.56813700538265,0.5056561976076333,60.21846219567713,1,0,0,0,0,0,0,0,1,0
181,181,181,1.12064,394.4187093996436,0.5218357518345611,62.13516385663502,1,0,0,0,0,0,0,0,1,0
182,182,182,1.12066,394.2693384426445,0.5379946892517101,64.04941252773361,1,0,0,0,0,0,0,0,1,0
183,183,183,1.12068,394.12002411285664,0.5541323719378529,65.96113263767846,1,0,0,0,0,0,0,0,1,0
184,184,184,1.1207,393.9707663887572,0.5702481628108041,67.8702487150676,1,0,0,0,0,0,0,0,1,0
185,185,185,1.12072,393.8215652488303,0.586341425652652,69.7766853912327,1,0,0,0,0,0,0,0,1,0
186,186,186,1.1207399999999998,393.67242067156366,0.6024115251348625,71.6803674033354,1,0,0,0,0,0,0,0,1,0
187,187,187,1.12076,393.5233326354528,0.6184578268432892,73.58121959728666,1,0,0,0,0,0,0,0,1,0
188,188,188,1.12078,393.3743011189975,0.6344796973033894,75.47916693066227,1,0,0,0,0,0,0,0,1,0
189,189,189,1.1208,393.2253261007045,0.650476504005002,77.37413447578564,1,0,0,0,0,0,0,0,1,0
190,190,190,1.12082,393.0764075590869,0.6664476154275174,79.26604742254851,1,0,0,0,0,0,0,0,1,0
191,191,191,1.12084,392.9275454726628,0.682392401064703,81.15483108150146,1,0,0,0,0,0,0,0,1,0
192,192,192,1.12086,392.77873981995606,0.6983102314496038,83.04041088666554,1,0,0,0,0,0,0,0,1,0
193,193,193,1.12088,392.6299905794962,0.7142004781794569,84.92271239859582,1,0,0,0,0,0,0,0,1,0
194,194,194,1.1209,392.4812977298194,0.7300625139404008,86.80166130726857,1,0,0,0,0,0,0,0,1,0
195,195,195,1.12092,392.332661249468,0.7458957125323294,88.67718343496419,1,0,0,0,0,0,0,0,1,0
196,196,196,1.12094,392.1840811169896,0.7616994488935493,90.54920473931442,1,0,0,0,0,0,0,0,1,0
197,197,197,1.12096,392.03555731093695,0.7774730991255038,92.41765131608966,1,0,0,0,0,0,0,0,1,0
198,198,198,1.12098,391.8870898098701,0.7932160405173851,94.28244940223534,1,0,0,0,0,0,0,0,1,0
199,199,199,1.121,391.73867859235406,0.8089276515706862,96.14352537873287,1,0,0,0,0,0,0,0,1,0
200,200,200,1.12102,391.5903236369597,0.8246073120238091,98.00080577345577,1,0,0,0,0,0,0,0,1,0
201,201,201,1.1210314922893667,391.5903236369597,0.8246073120238091,98.00080577345577,1,0,0,0,0,0,0,0,1,0
