,Unnamed: 0.1,Unnamed: 0,Time / s,Vo:Measured voltage,IL:Measured current,Vin:Measured voltage,open1:Output,open3:Output,open2:Output,open4:Output,short1:Output,short2:Output,short3:Output,short4:Output,OPEN,SHORT
0,0,0,1.191163359940714,391.3891484417665,-4.517110215401205,-110.88935278676816,0,0,0,0,0,0,0,0,0,0
1,1,1,1.19118,391.2799228261173,-4.590301117850153,-112.71364211958311,0,0,0,0,0,0,0,0,0,0
2,2,2,1.1912,391.1716280409652,-4.725218335694165,-114.53348171082033,0,0,0,0,0,0,0,0,0,0
3,3,3,1.19122,391.06546106061,-4.79133782430682,-116.34879971629586,0,0,0,0,0,0,0,0,0,0
4,4,4,1.19124,390.960882620418,-4.853738478034871,-118.15952447037972,0,0,0,0,0,0,0,0,0,0
5,5,5,1.19126,390.85758344669847,-4.912282696300994,-119.96558448879162,0,0,0,0,0,0,0,0,0,0
6,6,6,1.19128,390.7551398474841,-5.031958668628624,-121.76690847129298,0,0,0,0,0,0,0,0,0,0
7,7,7,1.1913,390.65482529219673,-5.082370951252007,-123.56342530479502,0,0,0,0,0,0,0,0,0,0
8,8,8,1.19132,390.55604085743096,-5.128515689771519,-125.35506406580802,0,0,0,0,0,0,0,0,0,0
9,9,9,1.1913399999999998,390.45844649177246,-5.170243490006981,-127.14175402353398,0,0,0,0,0,0,0,0,0,0
10,10,10,1.19136,390.3615931741913,-5.272465529550256,-128.92342464252877,0,0,0,0,0,0,0,0,0,0
11,11,11,1.19138,390.2666066371339,-5.3699496209079935,-130.70000558545485,0,0,0,0,0,0,0,0,0,0
12,12,12,1.1914,390.17313816856057,-5.462535240597366,-132.4714267159707,0,0,0,0,0,0,0,0,0,0
13,13,13,1.19142,390.08215944183047,-5.485061492580029,-134.23761810137125,0,0,0,0,0,0,0,0,0,0
14,14,14,1.19144,389.99176127422623,-5.5673896168289225,-135.99851001547665,0,0,0,0,0,0,0,0,0,0
15,15,15,1.19146,389.90255842448255,-5.709318604818302,-137.75403294125752,0,0,0,0,0,0,0,0,0,0
16,16,16,1.19148,389.81680444664,-5.71574851432074,-139.5041175736906,0,0,0,0,0,0,0,0,0,0
17,17,17,1.1915,389.73192730488506,-5.71647772101252,-141.24869482244696,0,0,0,0,0,0,0,0,0,0
18,18,18,1.19152,389.6474182165298,-5.7762773691723455,-142.9876958145725,0,0,0,0,0,0,0,0,0,0
19,19,19,1.19154,389.5639201821394,-5.894939581541798,-144.72105189731712,0,0,0,0,0,0,0,0,0,0
20,20,20,1.19156,389.4826843930187,-6.007339164876793,-146.4486946407193,0,0,0,0,0,0,0,0,0,0
21,21,21,1.19158,389.4041524072363,-6.048392081194988,-148.17055584041745,0,0,0,0,0,0,0,0,0,0
22,22,22,1.1916,389.3269297783351,-6.082823202678456,-149.8865675202952,0,0,0,0,0,0,0,0,0,0
23,23,23,1.19162,389.2504726111838,-6.175317283441183,-151.59666193511865,0,0,0,0,0,0,0,0,0,0
24,24,24,1.19164,389.17544779353256,-6.325650055934667,-153.3007715733194,0,0,0,0,0,0,0,0,0,0
25,25,25,1.19166,389.1043395803399,-6.339056128986165,-154.998829159536,0,0,0,0,0,0,0,0,0,0
26,26,26,1.19168,389.03425962160514,-6.345054078624047,-156.69076765737796,0,0,0,0,0,0,0,0,0,0
27,27,27,1.1917,388.9646309585432,-6.408272413394958,-158.3765202720256,0,0,0,0,0,0,0,0,0,0
28,28,28,1.19172,388.8961454720599,-6.528481772397157,-160.05602045282174,0,0,0,0,0,0,0,0,0,0
29,29,29,1.19174,388.8294919322648,-6.705441422998308,-161.72920189600538,0,0,0,0,0,0,0,0,0,0
30,30,30,1.19176,388.76782149606805,-6.679750870049063,-163.39599854720777,0,0,0,0,0,0,0,0,0,0
31,31,31,1.1917799999999998,388.7062109248184,-6.71037631287715,-165.05634460416633,0,0,0,0,0,0,0,0,0,0
32,32,32,1.1918,388.6453753215629,-6.797084925015192,-166.71017451927665,0,0,0,0,0,0,0,0,0,0
33,33,33,1.19182,388.5860264784535,-6.93963175709506,-168.35742300213556,0,0,0,0,0,0,0,0,0,0
34,34,34,1.19184,388.53057888141535,-7.008268429679801,-169.9980250222381,0,0,0,0,0,0,0,0,0,0
35,35,35,1.19186,388.47725376188106,-7.002768663190775,-171.63191581135155,0,0,0,0,0,0,0,0,0,0
36,36,36,1.19188,388.4242478406628,-7.052395821604913,-173.25903086635392,0,0,0,0,0,0,0,0,0,0
37,37,37,1.1919,388.3722942301266,-7.1569026457285245,-174.87930595145522,0,0,0,0,0,0,0,0,0,0
38,38,38,1.19192,388.32212238315554,-7.31602906133599,-176.49267710099895,0,0,0,0,0,0,0,0,0,0
39,39,39,1.19194,388.2765787078637,-7.335390568457367,-178.0990806218692,0,0,0,0,0,0,0,0,0,0
40,40,40,1.19196,388.2322565155201,-7.344162000939469,-179.69845309597642,0,0,0,0,0,0,0,0,0,0
41,41,41,1.19198,388.1884533470165,-7.406798055183949,-181.2907313828629,0,0,0,0,0,0,0,0,0,0
42,42,42,1.192,388.14591788185743,-7.523037833731459,-182.8758526220794,0,0,0,0,0,0,0,0,0,0
43,43,43,1.19202,388.10539478567233,-7.692606947435466,-184.4537542357681,0,0,0,0,0,0,0,0,0,0
44,44,44,1.19204,388.0704507545319,-7.656540487871543,-186.0243739310892,0,0,0,0,0,0,0,0,0,0
45,45,45,1.19206,388.0353837587671,-7.6732686860780035,-187.5876497026381,0,0,0,0,0,0,0,0,0,0
46,46,46,1.19208,388.00095973539385,-7.74253242038216,-189.1435198349924,0,0,0,0,0,0,0,0,0,0
47,47,47,1.1921,387.967940459308,-7.8640583409737665,-190.69192290503497,0,0,0,0,0,0,0,0,0,0
48,48,48,1.1921199999999998,387.93817252261687,-7.972914548176004,-192.2327977844783,0,0,0,0,0,0,0,0,0,0
49,49,49,1.19214,387.91220844176064,-7.939519876463764,-193.76608364223424,0,0,0,0,0,0,0,0,0,0
50,50,50,1.19216,387.8861419568176,-7.957543464718927,-195.29171994677483,0,0,0,0,0,0,0,0,0,0
51,51,51,1.19218,387.8607499829674,-8.026716001514426,-196.80964646861867,0,0,0,0,0,0,0,0,0,0
52,52,52,1.1922,387.8368049485711,-8.146753307456537,-198.31980328259831,0,0,0,0,0,0,0,0,0,0
53,53,53,1.1922199999999998,387.8150745723148,-8.317356424480051,-199.8221307703223,0,0,0,0,0,0,0,0,0,0
54,54,54,1.19224,387.7993691912894,-8.279719552125371,-201.3165696224873,0,0,0,0,0,0,0,0,0,0
55,55,55,1.19226,387.7834743124088,-8.292042145651045,-202.80306084117936,0,0,0,0,0,0,0,0,0,0
56,56,56,1.19228,387.7681749141164,-8.354046807638126,-204.28154574229723,0,0,0,0,0,0,0,0,0,0
57,57,57,1.1923,387.7542511851448,-8.465440670280907,-205.75196595776188,0,0,0,0,0,0,0,0,0,0
58,58,58,1.19232,387.74247828337343,-8.625915493542772,-207.2142634379276,0,0,0,0,0,0,0,0,0,0
59,59,59,1.19234,387.7367784631881,-8.576699407815694,-208.6683804537672,0,0,0,0,0,0,0,0,0,0
60,60,60,1.19236,387.730675629186,-8.575928097141942,-210.1142595992441,0,0,0,0,0,0,0,0,0,0
61,61,61,1.19238,387.7249602055064,-8.623318739312962,-211.5518437935382,0,0,0,0,0,0,0,0,0,0
62,62,62,1.1924,387.7204175583661,-8.718572476968804,-212.9810762832612,0,0,0,0,0,0,0,0,0,0
63,63,63,1.19242,387.7178277364972,-8.861374524383221,-214.40190064480024,0,0,0,0,0,0,0,0,0,0
64,64,64,1.19244,387.7201331293263,-8.922178844530332,-215.8142607863909,0,0,0,0,0,0,0,0,0,0
65,65,65,1.19246,387.7249129165394,-8.90063160058982,-217.2181009504864,0,0,0,0,0,0,0,0,0,0
66,66,66,1.19248,387.72972384041134,-8.925647818147066,-218.6133657159313,0,0,0,0,0,0,0,0,0,0
67,67,67,1.1925,387.7353533535082,-8.996925984374958,-219.9999999999985,0,0,0,0,0,0,0,0,0,0
68,68,68,1.19252,387.7425833548624,-9.114148153745012,-221.3779490607786,0,0,0,0,0,0,0,0,0,0
69,69,69,1.19254,387.75218991428574,-9.276980068064509,-222.7471584991771,0,0,0,0,0,0,0,0,0,0
70,70,70,1.1925599999999998,387.768331396883,-9.226606453894178,-224.10757426116228,0,0,0,0,0,0,0,0,0,0
71,71,71,1.19258,387.7839793589376,-9.221130702123167,-225.4591426398616,0,0,0,0,0,0,0,0,0,0
72,72,72,1.1926,387.79992032052655,-9.260252673568612,-226.80181027764507,0,0,0,0,0,0,0,0,0,0
73,73,73,1.19262,387.8169350810626,-9.343655348282969,-228.13552416831783,0,0,0,0,0,0,0,0,0,0
74,74,74,1.19264,387.8357984259371,-9.471004953095427,-229.460231659115,0,0,0,0,0,0,0,0,0,0
75,75,75,1.19266,387.8572788355663,-9.641951094852931,-230.77588045287703,0,0,0,0,0,0,0,0,0,0
76,76,76,1.19268,387.8856699008157,-9.59758647438448,-232.0824186100185,0,0,0,0,0,0,0,0,0,0
77,77,77,1.1927,387.91363619587673,-9.596061439957534,-233.37979455066213,0,0,0,0,0,0,0,0,0,0
78,78,78,1.19272,387.9419538140856,-9.637064762210528,-234.6679570566388,0,0,0,0,0,0,0,0,0,0
79,79,79,1.19274,387.97139274129137,-9.720268091897667,-235.9468552734751,0,0,0,0,0,0,0,0,0,0
80,80,80,1.19276,388.0027165482177,-9.845326099550896,-237.21643871248247,0,0,0,0,0,0,0,0,0,0
81,81,81,1.19278,388.0377699580608,-9.947216390342492,-238.4766572526576,0,0,0,0,0,0,0,0,0,0
82,82,82,1.1928,388.077585711446,-9.896213008779036,-239.727461142742,0,0,0,0,0,0,0,0,0,0
83,83,83,1.19282,388.11681367866805,-9.885933993675192,-240.9688010031508,0,0,0,0,0,0,0,0,0,0
84,84,84,1.19284,388.1562160917288,-9.916062180793949,-242.2006278278895,0,0,0,0,0,0,0,0,0,0
85,85,85,1.19286,388.1965487736815,-9.986263132764517,-243.42289298656647,0,0,0,0,0,0,0,0,0,0
86,86,86,1.19288,388.2385608179966,-10.096185289581248,-244.63554822622424,0,0,0,0,0,0,0,0,0,0
87,87,87,1.1928999999999998,388.28299427093737,-10.245460125742616,-245.8385456733212,0,0,0,0,0,0,0,0,0,0
88,88,88,1.19292,388.3335912448798,-10.23957732139408,-247.0318378355888,0,0,0,0,0,0,0,0,0,0
89,89,89,1.19294,388.3851525719684,-10.2075160459864,-248.2153776038741,0,0,0,0,0,0,0,0,0,0
90,90,90,1.19296,388.4364456516354,-10.2136487467548,-249.3891182540752,0,0,0,0,0,0,0,0,0,0
91,91,91,1.19298,388.4882079471448,-10.257641293283568,-250.55301344889943,0,0,0,0,0,0,0,0,0,0
92,92,92,1.1929999999999998,388.54116999690245,-10.339142398908283,-251.7070172397684,0,0,0,0,0,0,0,0,0,0
93,93,93,1.19302,388.59605508601936,-10.457783786990497,-252.8510840686088,0,0,0,0,0,0,0,0,0,0
94,94,94,1.19304,388.6547430495286,-10.54841830062297,-253.9851687695696,0,0,0,0,0,0,0,0,0,0
95,95,95,1.19306,388.7160677141226,-10.610620157699016,-255.1092265709904,0,0,0,0,0,0,0,0,0,0
96,96,96,1.19308,388.78109590273806,-10.579204224130631,-256.22321309694274,0,0,0,0,0,0,0,0,0,0
97,97,97,1.1931,388.8458290498024,-10.583328259025135,-257.3270843691764,0,0,0,0,0,0,0,0,0,0
98,98,98,1.19312,388.9109745109236,-10.622649047469697,-258.4207968087238,0,0,0,0,0,0,0,0,0,0
99,99,99,1.19314,388.9772323415942,-10.696806486318126,-259.5043072377006,0,0,0,0,0,0,0,0,0,0
100,100,100,1.19316,389.0452949640416,-10.805423763765742,-260.5775728809799,0,0,0,0,0,0,0,0,0,0
101,101,101,1.19318,389.11759434625526,-10.818430119604646,-261.6405513678524,0,0,0,0,0,0,0,0,0,0
102,102,102,1.1932,389.1904732550218,-10.865073948996171,-262.69320073376696,0,0,0,0,0,0,0,0,0,0
103,103,103,1.19322,389.2646105557505,-10.944986035712017,-263.73547942190976,0,0,0,0,0,0,0,0,0,0
104,104,104,1.19324,389.34287968823503,-10.928029591602876,-264.7673462849126,0,0,0,0,0,0,0,0,0,0
105,105,105,1.19326,389.4211063536627,-10.94352240298111,-265.78876058644767,0,0,0,0,0,0,0,0,0,0
106,106,106,1.19328,389.49995540437976,-10.991105348089729,-266.7996820028089,0,0,0,0,0,0,0,0,0,0
107,107,107,1.1933,389.58008387414753,-11.070403025119512,-267.80007062456787,0,0,0,0,0,0,0,0,0,0
108,108,108,1.19332,389.6633787053675,-11.116094731563404,-268.7898869580768,0,0,0,0,0,0,0,0,0,0
109,109,109,1.1933399999999998,389.74847238358177,-11.127739101433344,-269.7690919270907,0,0,0,0,0,0,0,0,0,0
110,110,110,1.19336,389.83409744187486,-11.169881476102036,-270.7376468742828,0,0,0,0,0,0,0,0,0,0
111,111,111,1.19338,389.92088730850367,-11.24214356191183,-271.6955135627447,0,0,0,0,0,0,0,0,0,0
112,112,112,1.1934,390.0109366307991,-11.279146026579928,-272.6426541775569,0,0,0,0,0,0,0,0,0,0
113,113,113,1.19342,390.10282137032,-11.280435325464468,-273.5790313272128,0,0,0,0,0,0,0,0,0,0
114,114,114,1.19344,390.1950070048592,-11.31060948136344,-274.50460804516246,0,0,0,0,0,0,0,0,0,0
115,115,115,1.19346,390.28810201958817,-11.36929086333054,-275.41934779120544,0,0,0,0,0,0,0,0,0,0
116,116,116,1.19348,390.3827064980047,-11.456086567475548,-276.3232144529912,0,0,0,0,0,0,0,0,0,0
117,117,117,1.1935,390.4812830417426,-11.440459178300475,-277.2161723474196,0,0,0,0,0,0,0,0,0,0
118,118,118,1.19352,390.579780497965,-11.45208410628666,-278.0981862220257,0,0,0,0,0,0,0,0,0,0
119,119,119,1.19354,390.6787811294994,-11.490588317467534,-278.9692212564359,0,0,0,0,0,0,0,0,0,0
120,120,120,1.19356,390.7788587947229,-11.555583979802892,-279.82924306363924,0,0,0,0,0,0,0,0,0,0
121,121,121,1.19358,390.88057863474927,-11.646668681685307,-280.6782176914788,0,0,0,0,0,0,0,0,0,0
122,122,122,1.1936,390.9868128945667,-11.633128941293332,-281.5161116238971,0,0,0,0,0,0,0,0,0,0
123,123,123,1.19362,391.092988229028,-11.644786184840818,-282.34289178224606,0,0,0,0,0,0,0,0,0,0
124,124,124,1.19364,391.1996501902054,-11.68126192372735,-283.1585255266834,0,0,0,0,0,0,0,0,0,0
125,125,125,1.19366,391.3073357136496,-11.742163634211364,-283.9629806573706,0,0,0,0,0,0,0,0,0,0
126,126,126,1.19368,391.4178962417032,-11.761864418423333,-284.75622541580407,0,0,0,0,0,0,0,0,0,0
127,127,127,1.1937,391.52970801327217,-11.739899205593456,-285.538228486046,0,0,0,0,0,0,0,0,0,0
128,128,128,1.19372,391.6412489894647,-11.741097528216278,-286.30895899594003,0,0,0,0,0,0,0,0,0,0
129,129,129,1.19374,391.75302741839937,-11.765081445786114,-287.06838651837927,0,0,0,0,0,0,0,0,0,0
130,130,130,1.19376,391.8655428499936,-11.811459783474453,-287.8164810724518,0,0,0,0,0,0,0,0,0,0
131,131,131,1.1937799999999998,391.97928584909806,-11.879828363361783,-288.5532131246723,0,0,0,0,0,0,0,0,0,0
132,132,132,1.1938,392.0947377139336,-11.969770242603248,-289.2785535901276,0,0,0,0,0,0,0,0,0,0
133,133,133,1.19382,392.21392111592354,-12.015504461700848,-289.99247383360483,0,0,0,0,0,0,0,0,0,0
134,134,134,1.19384,392.33512741933856,-12.016533196572489,-290.6949456707681,0,0,0,0,0,0,0,0,0,0
135,135,135,1.19386,392.4565393154152,-12.03779418406554,-291.3859413692195,0,0,0,0,0,0,0,0,0,0
136,136,136,1.19388,392.5786059082593,-12.078892064346029,-292.06543364964443,0,0,0,0,0,0,0,0,0,0
137,137,137,1.1939,392.701767134788,-12.13941964523557,-292.73339568683895,0,0,0,0,0,0,0,0,0,0
138,138,138,1.19392,392.82845587952096,-12.088048935829962,-293.3898011108117,0,0,0,0,0,0,0,0,0,0
139,139,139,1.19394,392.953522405752,-12.120690489874164,-294.03462400780626,0,0,0,0,0,0,0,0,0,0
140,140,140,1.19396,393.0801094072461,-12.106016916878604,-294.66783892130707,0,0,0,0,0,0,0,0,0,0
141,141,141,1.19398,393.2065178421347,-12.109095606702438,-295.2894208530851,0,0,0,0,0,0,0,0,0,0
142,142,142,1.194,393.3331467418007,-12.129536376685405,-295.8993452641388,0,0,0,0,0,0,0,0,0,0
143,143,143,1.19402,393.46038599903454,-12.166938404779089,-296.4975880757024,0,0,0,0,0,0,0,0,0,0
144,144,144,1.19404,393.5886161325368,-12.220890477200134,-297.0841256701792,0,0,0,0,0,0,0,0,0,0
145,145,145,1.19406,393.71820805721205,-12.290971241909425,-297.6589348920589,0,0,0,0,0,0,0,0,0,0
146,146,146,1.19408,393.84952286036497,-12.376749467769775,-298.2219930488679,0,0,0,0,0,0,0,0,0,0
147,147,147,1.1941,393.9829115839355,-12.477784309231804,-298.77327791202407,0,0,0,0,0,0,0,0,0,0
148,148,148,1.1941199999999998,394.121174226962,-12.462286969480068,-299.3127677177502,0,0,0,0,0,0,0,0,0,0
149,149,149,1.19414,394.2591935387903,-12.461077564552586,-299.8404411679172,0,0,0,0,0,0,0,0,0,0
150,150,150,1.19416,394.3972940788293,-12.47376277326968,-300.3562774308712,0,0,0,0,0,0,0,0,0,0
151,151,151,1.19418,394.57840842765694,-9.344212627185506,-300.8602561422937,1,0,0,0,0,0,0,0,1,0
152,152,152,1.1942,394.66481273946806,-6.2268063455472165,-301.3523574059498,1,0,0,0,0,0,0,0,1,0
153,153,153,1.1942199999999998,394.6569523247255,-3.12429749872128,-301.8325617945292,1,0,0,0,0,0,0,0,1,0
154,154,154,1.19424,394.5553556828865,-0.0394227855462259,-302.300850350402,1,0,0,0,0,0,0,0,1,0
155,155,155,1.19426,394.4056343821189,0.0760765686060231,-302.7572045863164,1,0,0,0,0,0,0,0,1,0
156,156,156,1.19428,394.2560582312757,0.0300491581392718,-303.2016064862012,1,0,0,0,0,0,0,0,1,0
157,157,157,1.1943,394.10671288090737,-0.0003036340226753,-303.63403850582216,1,0,0,0,0,0,0,0,1,0
158,158,158,1.19432,393.9574583048176,-0.0003040544680986,-304.0544835735116,1,0,0,0,0,0,0,0,1,0
159,159,159,1.19434,393.8082602538457,-0.0003044629099722,-304.4629250908104,1,0,0,0,0,0,0,0,1,0
160,160,160,1.19436,393.6591187065848,-0.0003048593321714,-304.8593469331508,1,0,0,0,0,0,0,0,1,0
161,161,161,1.19438,393.51003364163626,-0.0003052437190461,-305.24373345048053,1,0,0,0,0,0,0,0,1,0
162,162,162,1.1944,393.3610050376093,-0.0003056160554216,-305.6160694678712,1,0,0,0,0,0,0,0,1,0
163,163,163,1.19442,393.21203287312096,-0.0003059763265984,-305.9763402861412,1,0,0,0,0,0,0,0,1,0
164,164,164,1.19444,393.0631171267973,-0.0003063245183538,-306.32453168240886,1,0,0,0,0,0,0,0,1,0
165,165,165,1.19446,392.9142577772712,-0.0003066606169417,-306.66062991067736,1,0,0,0,0,0,0,0,1,0
166,166,166,1.19448,392.7654548031846,-0.0003069846090935,-306.98462170236706,1,0,0,0,0,0,0,0,1,0
167,167,167,1.1945,392.616708183187,-0.0003072964820186,-307.296494266831,1,0,0,0,0,0,0,0,1,0
168,168,168,1.19452,392.4680178959365,-0.0003075962234048,-307.5962352918799,1,0,0,0,0,0,0,0,1,0
169,169,169,1.19454,392.3193839200986,-0.0003078838214188,-307.8838329442459,1,0,0,0,0,0,0,0,1,0
170,170,170,1.1945599999999998,392.1708062343477,-0.0003081592647066,-308.15927587006894,1,0,0,0,0,0,0,0,1,0
171,171,171,1.19458,392.0222848173652,-0.0003084225423944,-308.4225531953362,1,0,0,0,0,0,0,0,1,0
172,172,172,1.1946,391.8738196478421,-0.0003086736440883,-308.67365452630503,1,0,0,0,0,0,0,0,1,0
173,173,173,1.19462,391.7254107044757,-0.0003089125598752,-308.91256994992926,1,0,0,0,0,0,0,0,1,0
174,174,174,1.19464,391.5770579659732,-0.0003091392803233,-309.13929003423283,1,0,0,0,0,0,0,0,1,0
175,175,175,1.19466,391.42876141104745,-0.0003093537964818,-309.3538058286991,1,0,0,0,0,0,0,0,1,0
176,176,176,1.19468,391.2805210184222,-0.0003095560998822,-309.55610886460784,1,0,0,0,0,0,0,0,1,0
177,177,177,1.1947,391.1323367668269,-0.0003097461825378,-309.74619115538366,1,0,0,0,0,0,0,0,1,0
178,178,178,1.19472,390.984208635001,-0.0003099240369445,-309.92404519690643,1,0,0,0,0,0,0,0,1,0
179,179,179,1.19474,390.8361366016904,-0.0003100896560809,-310.08966396779493,1,0,0,0,0,0,0,0,1,0
180,180,180,1.19476,390.6881206456495,-0.0003102430334087,-310.24304092971306,1,0,0,0,0,0,0,0,1,0
181,181,181,1.19478,390.5401607456411,-0.0003103841628727,-310.38417002759354,1,0,0,0,0,0,0,0,1,0
182,182,182,1.1948,390.39225688043695,-0.0003105130389014,-310.51304568990315,1,0,0,0,0,0,0,0,1,0
183,183,183,1.19482,390.2444090288144,-0.000310629656407,-310.62966282885577,1,0,0,0,0,0,0,0,1,0
184,184,184,1.19484,390.0966171695607,-0.0003107340107856,-310.73401684060093,1,0,0,0,0,0,0,0,1,0
185,185,185,1.19486,389.9488812814705,-0.0003108260979176,-310.826103605424,1,0,0,0,0,0,0,0,1,0
186,186,186,1.19488,389.80120134334646,-0.0003109059141675,-310.9059194878954,1,0,0,0,0,0,0,0,1,0
187,187,187,1.1949,389.6535773340001,-0.0003109734563842,-310.97346133702183,1,0,0,0,0,0,0,0,1,0
188,188,188,1.19492,389.50600923224977,-0.0003110287219013,-311.028726486367,1,0,0,0,0,0,0,0,1,0
189,189,189,1.19494,389.35849701692223,-0.0003110717085371,-311.07171275415647,1,0,0,0,0,0,0,0,1,0
190,190,190,1.19496,389.211040666853,-0.0003111024145944,-311.1024184433669,1,0,0,0,0,0,0,0,1,0
191,191,191,1.19498,389.06364016088446,-0.0003111208388611,-311.1208423417896,1,0,0,0,0,0,0,0,1,0
192,192,192,1.1949999999999998,388.9162954778676,-0.0003111269806098,-311.12698372208087,1,0,0,0,0,0,0,0,1,0
193,193,193,1.19502,388.76900659666177,-0.0003111208395981,-311.1208423417896,1,0,0,0,0,0,0,0,1,0
194,194,194,1.19504,388.6217734961335,-0.0003111024160683,-311.102418443367,1,0,0,0,0,0,0,0,1,0
195,195,195,1.19506,388.47459615515805,-0.0003110717107478,-311.0717127541566,1,0,0,0,0,0,0,0,1,0
196,196,196,1.19508,388.32747455261807,-0.0003110287248489,-311.02872648636713,1,0,0,0,0,0,0,0,1,0
197,197,197,1.1951,388.1804086674043,-0.0003109734600684,-310.973461337022,1,0,0,0,0,0,0,0,1,0
198,198,198,1.19512,388.03339847841664,-0.0003109059185882,-310.9059194878957,1,0,0,0,0,0,0,0,1,0
199,199,199,1.19514,387.88644396456107,-0.0003108261030747,-310.82610360542424,1,0,0,0,0,0,0,0,1,0
200,200,200,1.19516,387.7395451047532,-0.0003107340166789,-310.73401684060127,1,0,0,0,0,0,0,0,1,0
201,201,201,1.1951633599407137,387.7395451047532,-0.0003107340166789,-310.73401684060127,1,0,0,0,0,0,0,0,1,0
