,Unnamed: 0.1,Unnamed: 0,Time / s,Vo:Measured voltage,IL:Measured current,Vin:Measured voltage,open1:Output,open3:Output,open2:Output,open4:Output,short1:Output,short2:Output,short3:Output,short4:Output,OPEN,SHORT
0,0,0,1.188317360120796,410.06763638890175,6.535241324576648,158.37652027204294,0,0,0,0,0,0,0,0,0,0
1,1,1,1.18832,409.98843322905526,6.454672278724938,156.69076765738006,0,0,0,0,0,0,0,0,0,0
2,2,2,1.18834,409.90724096112336,6.455494225096356,154.99882915955342,0,0,0,0,0,0,0,0,0,0
3,3,3,1.18836,409.8257730580551,6.4008512588498325,153.3007715733369,0,0,0,0,0,0,0,0,0,0
4,4,4,1.18838,409.7433900016733,6.290559549102777,151.59666193512078,0,0,0,0,0,0,0,0,0,0
5,5,5,1.1884,409.65945045920006,6.124445652607049,149.88656752029735,0,0,0,0,0,0,0,0,0,0
6,6,6,1.18842,409.5714619372792,6.1071137136661005,148.17055584041958,0,0,0,0,0,0,0,0,0,0
7,7,7,1.18844,409.4827211369175,6.101809729541311,146.44869464072147,0,0,0,0,0,0,0,0,0,0
8,8,8,1.1884599999999998,409.3936517120786,6.040087351552236,144.72105189731928,0,0,0,0,0,0,0,0,0,0
9,9,9,1.18848,409.3036374944752,5.921774691435265,142.98769581457466,0,0,0,0,0,0,0,0,0,0
10,10,10,1.1885,409.2120607272311,5.746709577460184,141.24869482244915,0,0,0,0,0,0,0,0,0,0
11,11,11,1.18852,409.1167056523034,5.719281798370603,139.50411757369278,0,0,0,0,0,0,0,0,0,0
12,12,12,1.18854,409.0204134728624,5.702887191444139,137.7540329412597,0,0,0,0,0,0,0,0,0,0
13,13,13,1.1885599999999998,408.9236967802402,5.629168795766882,135.99851001547884,0,0,0,0,0,0,0,0,0,0
14,14,14,1.18858,408.8259644190491,5.497967278401353,134.2376181013734,0,0,0,0,0,0,0,0,0,0
15,15,15,1.1886,408.72604060237535,5.377247732359185,132.4714267159729,0,0,0,0,0,0,0,0,0,0
16,16,16,1.18862,408.6233470285928,5.403023666922161,130.70000558545703,0,0,0,0,0,0,0,0,0,0
17,17,17,1.18864,408.5206638993727,5.37076173191151,128.923424642531,0,0,0,0,0,0,0,0,0,0
18,18,18,1.18866,408.4174277770448,5.280307167700892,127.1417540235362,0,0,0,0,0,0,0,0,0,0
19,19,19,1.18868,408.3130739774654,5.13151360674689,125.35506406581024,0,0,0,0,0,0,0,0,0,0
20,20,20,1.1887,408.2062544797242,5.060304541961588,123.56342530479726,0,0,0,0,0,0,0,0,0,0
21,21,21,1.18872,408.0978897335353,4.9984337440799305,121.7669084713115,0,0,0,0,0,0,0,0,0,0
22,22,22,1.18874,407.9883952552903,4.945720568553803,119.96558448879388,0,0,0,0,0,0,0,0,0,0
23,23,23,1.18876,407.8781978007038,4.834001432721941,118.15952447039832,0,0,0,0,0,0,0,0,0,0
24,24,24,1.18878,407.76624196816135,4.731099327875193,116.34879971631452,0,0,0,0,0,0,0,0,0,0
25,25,25,1.1888,407.6529326344002,4.636840832829932,114.533481710839,0,0,0,0,0,0,0,0,0,0
26,26,26,1.18882,407.53769384717066,4.618963384884976,112.71364211960189,0,0,0,0,0,0,0,0,0,0
27,27,27,1.18884,407.4220967089056,4.541438642392844,110.88935278678696,0,0,0,0,0,0,0,0,0,0
28,28,28,1.18886,407.3051404970504,4.472019133220363,109.0606857321805,0,0,0,0,0,0,0,0,0,0
29,29,29,1.18888,407.1871902641739,4.410534668822804,107.2277131484597,0,0,0,0,0,0,0,0,0,0
30,30,30,1.1888999999999998,407.06798230699457,4.356806244576172,105.39050739822709,0,0,0,0,0,0,0,0,0,0
31,31,31,1.18892,406.94786429082166,4.310666790038956,103.5491410112032,0,0,0,0,0,0,0,0,0,0
32,32,32,1.18894,406.8271929686092,4.204142116281268,101.7036866814134,0,0,0,0,0,0,0,0,0,0
33,33,33,1.18896,406.7048244911173,4.172681979506791,99.85421726418454,0,0,0,0,0,0,0,0,0,0
34,34,34,1.18898,406.58203550554646,4.0805436496537,98.00080577346937,0,0,0,0,0,0,0,0,0,0
35,35,35,1.189,406.4583661582596,3.927617546706808,96.14352537872968,0,0,0,0,0,0,0,0,0,0
36,36,36,1.18902,406.33263387942736,3.8492386464235087,94.282449402249,0,0,0,0,0,0,0,0,0,0
37,37,37,1.18904,406.2055435651468,3.8451952294331577,92.41765131610336,0,0,0,0,0,0,0,0,0,0
38,38,38,1.18906,406.0782609849075,3.779914646650523,90.5492047393112,0,0,0,0,0,0,0,0,0,0
39,39,39,1.18908,405.95035913266713,3.653295352080108,88.67718343497792,0,0,0,0,0,0,0,0,0,0
40,40,40,1.1891,405.8209670847172,3.5328741566844264,86.80166130726536,0,0,0,0,0,0,0,0,0,0
41,41,41,1.18912,405.6898112907916,3.55373154708734,84.9227123986096,0,0,0,0,0,0,0,0,0,0
42,42,42,1.18914,405.5586424204887,3.512821826543852,83.04041088667934,0,0,0,0,0,0,0,0,0,0
43,43,43,1.18916,405.4270671934841,3.4100522252790344,81.1548310814982,0,0,0,0,0,0,0,0,0,0
44,44,44,1.18918,405.2946919048369,3.2453352308878407,79.26604742256237,0,0,0,0,0,0,0,0,0,0
45,45,45,1.1892,405.16017917934806,3.2211615947491694,77.37413447578238,0,0,0,0,0,0,0,0,0,0
46,46,46,1.18922,405.0252235100127,3.2022670730781733,75.47916693067617,0,0,0,0,0,0,0,0,0,0
47,47,47,1.18924,404.8900316800433,3.1210259387129846,73.58121959730057,0,0,0,0,0,0,0,0,0,0
48,48,48,1.18926,404.7542446542733,2.977359590694591,71.68036740334934,0,0,0,0,0,0,0,0,0,0
49,49,49,1.18928,404.6171833756047,2.8386277913788267,69.77668539124667,0,0,0,0,0,0,0,0,0,0
50,50,50,1.1893,404.4787519838157,2.7721114810446945,67.87024871506433,0,0,0,0,0,0,0,0,0,0
51,51,51,1.18932,404.3396893828317,2.710227960611082,65.96113263769246,0,0,0,0,0,0,0,0,0,0
52,52,52,1.1893399999999998,404.20019966114666,2.5854785636125315,64.04941252774763,0,0,0,0,0,0,0,0,0,0
53,53,53,1.18936,404.0595559305596,2.5324834135312666,62.13516385664906,0,0,0,0,0,0,0,0,0,0
54,54,54,1.18938,403.9185557074591,2.4164134924904688,60.2184621956912,0,0,0,0,0,0,0,0,0,0
55,55,55,1.1894,403.77646991332,2.371798726026091,58.299383212939,0,0,0,0,0,0,0,0,0,0
56,56,56,1.18942,403.63409213779374,2.263908766740063,56.378002670379466,0,0,0,0,0,0,0,0,0,0
57,57,57,1.18944,403.4907793287746,2.227184225247868,54.45439642079172,0,0,0,0,0,0,0,0,0,0
58,58,58,1.18946,403.3472304348661,2.126992320475635,52.52864040489155,0,0,0,0,0,0,0,0,0,0
59,59,59,1.18948,403.2028026108072,2.097682062236818,50.60081064821165,0,0,0,0,0,0,0,0,0,0
60,60,60,1.1895,403.05818933681593,2.0047212270278765,48.670983258134896,0,0,0,0,0,0,0,0,0,0
61,61,61,1.18952,402.912814292934,1.9823680065569351,46.7392344210296,0,0,0,0,0,0,0,0,0,0
62,62,62,1.18954,402.7672970210991,1.8961898345667405,44.80564039892729,0,0,0,0,0,0,0,0,0,0
63,63,63,1.18956,402.6214054536647,1.74614623799492,42.87027752689655,0,0,0,0,0,0,0,0,0,0
64,64,64,1.18958,402.4746209909684,1.6663580240345477,40.933222209714735,0,0,0,0,0,0,0,0,0,0
65,65,65,1.1896,402.32724946894007,1.6566552298251989,38.994550918991465,0,0,0,0,0,0,0,0,0,0
66,66,66,1.18962,402.179807196206,1.5828080355871663,37.05434019018481,0,0,0,0,0,0,0,0,0,0
67,67,67,1.18964,402.0320998127127,1.444786210864428,35.11266661945708,0,0,0,0,0,0,0,0,0,0
68,68,68,1.18966,401.88378561852977,1.30954258185907,33.169606860791305,0,0,0,0,0,0,0,0,0,0
69,69,69,1.1896799999999998,401.7347760613837,1.3108985560972648,31.225237622842133,0,0,0,0,0,0,0,0,0,0
70,70,70,1.1897,401.5857481465266,1.2478282827562286,29.2796356659602,0,0,0,0,0,0,0,0,0,0
71,71,71,1.18972,401.4365457009902,1.1203119689107477,27.33287779921453,0,0,0,0,0,0,0,0,0,0
72,72,72,1.18974,401.28690149084485,0.9952135527175174,25.38504087723712,0,0,0,0,0,0,0,0,0,0
73,73,73,1.18976,401.1368158174012,0.9393070195162329,23.436201797329645,0,0,0,0,0,0,0,0,0,0
74,74,74,1.1897799999999998,400.9865685459782,0.8856091142605406,21.48643749630444,0,0,0,0,0,0,0,0,0,0
75,75,75,1.1898,400.83622177211737,0.7672322515846915,19.535824947499894,0,0,0,0,0,0,0,0,0,0
76,76,76,1.18982,400.68555492359,0.7177338251380404,17.584441157794767,0,0,0,0,0,0,0,0,0,0
77,77,77,1.18984,400.53482083611465,0.603454574017557,15.63236316444446,0,0,0,0,0,0,0,0,0,0
78,78,78,1.18986,400.3838428925175,0.5578567123182147,13.679668032180976,0,0,0,0,0,0,0,0,0,0
79,79,79,1.18988,400.2328275554465,0.4473860911433313,11.72643285002926,0,0,0,0,0,0,0,0,0,0
80,80,80,1.1899,400.0816468303117,0.4054099296334454,9.77273472840516,0,0,0,0,0,0,0,0,0,0
81,81,81,1.18992,399.9304555374712,0.2984791071169133,7.81865079594759,0,0,0,0,0,0,0,0,0,0
82,82,82,1.18994,399.7791778887863,0.1932335041851201,5.864258196526592,0,0,0,0,0,0,0,0,0,0
83,83,83,1.18996,399.6278511227808,0.1562205259282278,3.909634086250894,0,0,0,0,0,0,0,0,0,0
84,84,84,1.18998,399.476549479621,0.1207308081455482,1.9548556302981528,0,0,0,0,0,0,0,0,0,0
85,85,85,1.19,399.3252844741148,0.0201531863387284,1.0060871365015932e-11,0,0,0,0,0,0,0,0,0,0
86,86,86,1.19002,399.1740535409848,-0.0124312746425186,-1.954855630278032,0,0,0,0,0,0,0,0,0,0
87,87,87,1.19004,399.0228798811608,-0.110154469586829,-3.9096340862307737,0,0,0,0,0,0,0,0,0,0
88,88,88,1.19006,398.8717879108604,-0.1400296533859054,-5.864258196506473,0,0,0,0,0,0,0,0,0,0
89,89,89,1.19008,398.7207672027256,-0.2350850150103619,-7.818650795945155,0,0,0,0,0,0,0,0,0,0
90,90,90,1.1901,398.569837473473,-0.3952900199421368,-9.772734728385048,0,0,0,0,0,0,0,0,0,0
91,91,91,1.1901199999999998,398.4191577030669,-0.4878052123578671,-11.72643285000915,0,0,0,0,0,0,0,0,0,0
92,92,92,1.19014,398.2686707506656,-0.579116789406439,-13.679668032178544,0,0,0,0,0,0,0,0,0,0
93,93,93,1.19016,398.1183676520686,-0.6692568365431574,-15.632363164442028,0,0,0,0,0,0,0,0,0,0
94,94,94,1.19018,397.9683475021204,-0.7582603799630014,-17.584441157792337,0,0,0,0,0,0,0,0,0,0
95,95,95,1.1902,397.81859761839286,-0.8461539649515305,-19.535824947497463,0,0,0,0,0,0,0,0,0,0
96,96,96,1.19022,397.6691451249469,-0.9329634255015924,-21.486437496302003,0,0,0,0,0,0,0,0,0,0
97,97,97,1.19024,397.51995945465006,-1.0187097016455202,-23.43620179732721,0,0,0,0,0,0,0,0,0,0
98,98,98,1.19026,397.37127324080194,-1.0371882055853772,-25.385040877234687,0,0,0,0,0,0,0,0,0,0
99,99,99,1.19028,397.2227362246401,-1.1208927584126565,-27.332877799212103,0,0,0,0,0,0,0,0,0,0
100,100,100,1.1903,397.0744668698744,-1.2697678273739663,-29.27963566595777,0,0,0,0,0,0,0,0,0,0
101,101,101,1.19032,396.9269849280975,-1.2852918696332616,-31.22523762283971,0,0,0,0,0,0,0,0,0,0
102,102,102,1.19034,396.7797849483132,-1.2998725083160894,-33.16960686078888,0,0,0,0,0,0,0,0,0,0
103,103,103,1.19036,396.6327550502736,-1.3796217234751251,-35.11266661945466,0,0,0,0,0,0,0,0,0,0
104,104,104,1.19038,396.4860530450926,-1.5244739481047274,-37.0543401901824,0,0,0,0,0,0,0,0,0,0
105,105,105,1.1904,396.340244718025,-1.6022503697765291,-38.99455091898904,0,0,0,0,0,0,0,0,0,0
106,106,106,1.19042,396.19500203131366,-1.6130117537659046,-40.933222209712326,0,0,0,0,0,0,0,0,0,0
107,107,107,1.19044,396.04994554487774,-1.6888396962802512,-42.870277526894135,0,0,0,0,0,0,0,0,0,0
108,108,108,1.19046,395.90527220838766,-1.8296585991119405,-44.80564039892488,0,0,0,0,0,0,0,0,0,0
109,109,109,1.19048,395.7614755703991,-1.969432648448399,-46.739234421009705,0,0,0,0,0,0,0,0,0,0
110,110,110,1.1905,395.61875134613246,-1.9762708883531743,-48.670983258132495,0,0,0,0,0,0,0,0,0,0
111,111,111,1.19052,395.47622407789765,-2.048028004606373,-50.6008106481918,0,0,0,0,0,0,0,0,0,0
112,112,112,1.19054,395.33412956029713,-2.1846183890301214,-52.52864040487172,0,0,0,0,0,0,0,0,0,0
113,113,113,1.1905599999999998,395.1932522369217,-2.2542265076059325,-54.45439642077192,0,0,0,0,0,0,0,0,0,0
114,114,114,1.19058,395.053059042464,-2.3227299855538623,-56.378002670359685,0,0,0,0,0,0,0,0,0,0
115,115,115,1.1906,394.91342280473447,-2.390097474447148,-58.29938321291923,0,0,0,0,0,0,0,0,0,0
116,116,116,1.19062,394.77426230417854,-2.522094898292774,-60.21846219567145,0,0,0,0,0,0,0,0,0,0
117,117,117,1.19064,394.6364761454494,-2.5870829048596446,-62.135163856629326,0,0,0,0,0,0,0,0,0,0
118,118,118,1.19066,394.4991882527431,-2.7165806037533304,-64.04941252774525,0,0,0,0,0,0,0,0,0,0
119,119,119,1.19068,394.3630842232265,-2.7790302459463283,-65.96113263769008,0,0,0,0,0,0,0,0,0,0
120,120,120,1.1907,394.2281521137773,-2.774455434352152,-67.8702487150447,0,0,0,0,0,0,0,0,0,0
121,121,121,1.19072,394.09341730923165,-2.834230011535821,-69.7766853912443,0,0,0,0,0,0,0,0,0,0
122,122,122,1.19074,393.9592108807346,-2.958243564778526,-71.68036740334696,0,0,0,0,0,0,0,0,0,0
123,123,123,1.19076,393.8261659338068,-3.0807458685036533,-73.5812195972982,0,0,0,0,0,0,0,0,0,0
124,124,124,1.19078,393.6948495545258,-3.070451999809228,-75.47916693067381,0,0,0,0,0,0,0,0,0,0
125,125,125,1.1908,393.5637119157869,-3.124199078655836,-77.37413447578001,0,0,0,0,0,0,0,0,0,0
126,126,126,1.19082,393.43312125093007,-3.2418669580259887,-79.26604742256,0,0,0,0,0,0,0,0,0,0
127,127,127,1.19084,393.3037741781312,-3.357782664913445,-81.15483108149586,0,0,0,0,0,0,0,0,0,0
128,128,128,1.19086,393.1762693221097,-3.340822304658482,-83.04041088667701,0,0,0,0,0,0,0,0,0,0
129,129,129,1.19088,393.0489112759154,-3.3875485712482227,-84.92271239860726,0,0,0,0,0,0,0,0,0,0
130,130,130,1.1908999999999998,392.9221047691834,-3.497831750622863,-86.801661307263,0,0,0,0,0,0,0,0,0,0
131,131,131,1.19092,392.796253536055,-3.671536859127241,-88.6771834349756,0,0,0,0,0,0,0,0,0,0
132,132,132,1.19094,392.6730087950058,-3.712198975896304,-90.54920473930888,0,0,0,0,0,0,0,0,0,0
133,133,133,1.19096,392.5504466888592,-3.750681651379735,-92.41765131610104,0,0,0,0,0,0,0,0,0,0
134,134,134,1.19098,392.42842287123113,-3.8523052189748928,-94.28244940224668,0,0,0,0,0,0,0,0,0,0
135,135,135,1.1909999999999998,392.30794995935247,-3.9515463774843487,-96.1435253787274,0,0,0,0,0,0,0,0,0,0
136,136,136,1.19102,392.1888023250454,-4.048305266845685,-98.00080577346704,0,0,0,0,0,0,0,0,0,0
137,137,137,1.19104,392.07120070818667,-4.077140496014328,-99.85421726418222,0,0,0,0,0,0,0,0,0,0
138,138,138,1.19106,391.9541030138743,-4.168653875093707,-101.70368668139436,0,0,0,0,0,0,0,0,0,0
139,139,139,1.19108,391.8385979315783,-4.257391178029976,-103.54914101118422,0,0,0,0,0,0,0,0,0,0
140,140,140,1.1911,391.72443325796473,-4.343239730345049,-105.39050739820816,0,0,0,0,0,0,0,0,0,0
141,141,141,1.19112,391.6118419019023,-4.36082285735236,-107.2277131484408,0,0,0,0,0,0,0,0,0,0
142,142,142,1.19114,391.4996947983476,-4.440575753998163,-109.06068573216166,0,0,0,0,0,0,0,0,0,0
143,143,143,1.19116,391.3891484417665,-4.517110215401205,-110.88935278676816,0,0,0,0,0,0,0,0,0,0
144,144,144,1.19118,391.2799228261173,-4.590301117850153,-112.71364211958311,0,0,0,0,0,0,0,0,0,0
145,145,145,1.1912,391.1716280409652,-4.725218335694165,-114.53348171082033,0,0,0,0,0,0,0,0,0,0
146,146,146,1.19122,391.06546106061,-4.79133782430682,-116.34879971629586,0,0,0,0,0,0,0,0,0,0
147,147,147,1.19124,390.960882620418,-4.853738478034871,-118.15952447037972,0,0,0,0,0,0,0,0,0,0
148,148,148,1.19126,390.85758344669847,-4.912282696300994,-119.96558448879162,0,0,0,0,0,0,0,0,0,0
149,149,149,1.19128,390.7551398474841,-5.031958668628624,-121.76690847129298,0,0,0,0,0,0,0,0,0,0
150,150,150,1.1913,390.65482529219673,-5.082370951252007,-123.56342530479502,0,0,0,0,0,0,0,0,0,0
151,151,151,1.19132,390.55604085738815,-5.1285156654967095,-125.35506406580802,0,0,0,0,0,0,1,0,0,1
152,152,152,1.1913399999999998,390.4584464906421,-5.170243292809298,-127.14175402353398,0,0,0,0,0,0,1,0,0,1
153,153,153,1.19136,390.36159317028654,-5.272465157090392,-128.92342464252877,0,0,0,0,0,0,1,0,0,1
154,154,154,1.19138,390.26660662866766,-5.3699490697687375,-130.70000558545485,0,0,0,0,0,0,1,0,0,1
155,155,155,1.1914,390.17313815367913,-5.46253450862747,-132.4714267159707,0,0,0,0,0,0,1,0,0,1
156,156,156,1.19142,390.08215941845566,-5.485060577282513,-134.23761810137125,0,0,0,0,0,0,1,0,0,1
157,157,157,1.19144,389.99176124046585,-5.567388516603463,-135.99851001547665,0,0,0,0,0,0,1,0,0,1
158,158,158,1.19146,389.9025583784184,-5.709317316096593,-137.75403294125752,0,0,0,0,0,0,1,0,0,1
159,159,159,1.19148,389.8168043856891,-5.715747034688568,-139.5041175736906,0,0,0,0,0,0,1,0,0,1
160,160,160,1.1915,389.7319272267648,-5.716476050790317,-141.24869482244696,0,0,0,0,0,0,1,0,0,1
161,161,161,1.19152,389.64741811916497,-5.776275507610214,-142.9876958145725,0,0,0,0,0,0,1,0,0,1
162,162,162,1.19154,389.5639200634372,-5.894937525949619,-144.72105189731712,0,0,0,0,0,0,1,0,0,1
163,163,163,1.19156,389.4826842505199,-6.007336911544577,-146.4486946407193,0,0,0,0,0,0,1,0,0,1
164,164,164,1.19158,389.4041522380389,-6.0483896279799225,-148.17055584041745,0,0,0,0,0,0,1,0,0,1
165,165,165,1.1916,389.32692957978975,-6.0828205489514575,-149.8865675202952,0,0,0,0,0,0,1,0,0,1
166,166,166,1.19162,389.2504723809848,-6.1753144275144,-151.59666193511865,0,0,0,0,0,0,1,0,0,1
167,167,167,1.19164,389.1754475293443,-6.325646994218442,-153.3007715733194,0,0,0,0,0,0,1,0,0,1
168,168,168,1.19166,389.104339278349,-6.33905285919588,-154.998829159536,0,0,0,0,0,0,1,0,0,1
169,169,169,1.19168,389.0342592788302,-6.345050601264903,-156.69076765737796,0,0,0,0,0,0,1,0,0,1
170,170,170,1.1917,388.9646305724826,-6.408268727914968,-158.3765202720256,0,0,0,0,0,0,1,0,0,1
171,171,171,1.19172,388.8961450401948,-6.52847787637452,-160.05602045282174,0,0,0,0,0,0,1,0,0,1
172,172,172,1.19174,388.82949145203537,-6.705437312149969,-161.72920189600538,0,0,0,0,0,0,1,0,0,1
173,173,173,1.19176,388.76782096232,-6.679746542928704,-163.39599854720777,0,0,0,0,0,0,1,0,0,1
174,174,174,1.1917799999999998,388.70621033482513,-6.710371770212178,-165.05634460416633,0,0,0,0,0,0,1,0,0,1
175,175,175,1.1918,388.64537467259726,-6.7970801656978095,-166.71017451927665,0,0,0,0,0,0,1,0,0,1
176,176,176,1.19182,388.58602576776406,-6.939626778190833,-168.35742300213556,0,0,0,0,0,0,1,0,0,1
177,177,177,1.19184,388.53057810464657,-7.008263227778937,-169.9980250222381,0,0,0,0,0,0,1,0,0,1
178,178,178,1.19186,388.4772529145693,-7.002763239615708,-171.63191581135155,0,0,0,0,0,0,1,0,0,1
179,179,179,1.19188,388.4242469198832,-7.052390176717097,-173.25903086635392,0,0,0,0,0,0,1,0,0,1
180,180,180,1.1919,388.372293232948,-7.156896778098952,-174.87930595145522,0,0,0,0,0,0,1,0,0,1
181,181,181,1.19192,388.32212130661816,-7.316022967754221,-176.49267710099895,0,0,0,0,0,0,1,0,0,1
182,182,182,1.19194,388.2765775461476,-7.3353842475149404,-178.0990806218692,0,0,0,0,0,0,1,0,0,1
183,183,183,1.19196,388.2322552645617,-7.344155453974582,-179.69845309597642,0,0,0,0,0,0,1,0,0,1
184,184,184,1.19198,388.18845200370265,-7.406791282438813,-181.2907313828629,0,0,0,0,0,0,1,0,0,1
185,185,185,1.192,388.1459164430676,-7.523030833704975,-182.8758526220794,0,0,0,0,0,0,1,0,0,1
186,186,186,1.19202,388.1053932482531,-7.692599716892742,-184.4537542357681,0,0,0,0,0,0,1,0,0,1
187,187,187,1.19204,388.0704491108542,-7.656533027253398,-186.0243739310892,0,0,0,0,0,0,1,0,0,1
188,188,188,1.19206,388.0353820055415,-7.673260997472333,-187.5876497026381,0,0,0,0,0,0,1,0,0,1
189,189,189,1.19208,388.0009578693521,-7.742524504173507,-189.1435198349924,0,0,0,0,0,0,1,0,0,1
190,190,190,1.1921,387.9679384771747,-7.864050195852394,-190.69192290503497,0,0,0,0,0,0,1,0,0,1
191,191,191,1.1921199999999998,387.9381704198228,-7.9729061717590035,-192.2327977844783,0,0,0,0,0,0,1,0,0,1
192,192,192,1.19214,387.9122062111242,-7.939511271427707,-193.76608364223424,0,0,0,0,0,0,1,0,0,1
193,193,193,1.19216,387.8861395949447,-7.9575346335162385,-195.29171994677483,0,0,0,0,0,0,1,0,0,1
194,194,194,1.19218,387.86074748648855,-8.026706944944152,-196.80964646861867,0,0,0,0,0,0,1,0,0,1
195,195,195,1.1922,387.8368023141194,-8.146744024673541,-198.31980328259831,0,0,0,0,0,0,1,0,0,1
196,196,196,1.1922199999999998,387.8150717964989,-8.31734691300517,-199.8221307703223,0,0,0,0,0,0,1,0,0,1
197,197,197,1.19224,387.7993662648744,-8.279709814092024,-201.3165696224873,0,0,0,0,0,0,1,0,0,1
198,198,198,1.19226,387.7834712319094,-8.29203218415709,-202.80306084117936,0,0,0,0,0,0,1,0,0,1
199,199,199,1.19228,387.7681716760834,-8.354036624180353,-204.28154574229723,0,0,0,0,0,0,1,0,0,1
200,200,200,1.1923,387.7542477861412,-8.465430264764452,-205.75196595776188,0,0,0,0,0,0,1,0,0,1
201,201,201,1.192317360120796,387.7542477861412,-8.465430264764452,-205.75196595776188,0,0,0,0,0,0,1,0,0,1
