,Unnamed: 0.1,Unnamed: 0,Time / s,Vo:Measured voltage,IL:Measured current,Vin:Measured voltage,short1:Output,short2:Output,short3:Output,short4:Output,open1:Output,open3:Output,open2:Output,open4:Output,OPEN,SHORT
0,0,0,1.161103253002035,391.6976999160133,4.415642991922808,105.39050739821762,0,0,0,0,0,0,0,0,0,0
1,1,1,1.16112,391.5854318211682,4.433437110243772,107.22771314845023,0,0,0,0,0,0,0,0,0,0
2,2,2,1.1611399999999998,391.4736049587893,4.513397898555338,109.06068573215452,0,0,0,0,0,0,0,0,0,0
3,3,3,1.16116,391.3627270401228,4.655361680590531,110.88935278677758,0,0,0,0,0,0,0,0,0,0
4,4,4,1.16118,391.25410874386847,4.728747228587274,112.71364211959248,0,0,0,0,0,0,0,0,0,0
5,5,5,1.1612,391.1473695819489,4.733480031239026,114.53348171082968,0,0,0,0,0,0,0,0,0,0
6,6,6,1.16122,391.04098189973183,4.7998210380026025,116.3487997163052,0,0,0,0,0,0,0,0,0,0
7,7,7,1.16124,390.935486118238,4.927597763243264,118.15952447040536,0,0,0,0,0,0,0,0,0,0
8,8,8,1.16126,390.832255497714,4.9863607730688,119.9655844887846,0,0,0,0,0,0,0,0,0,0
9,9,9,1.16128,390.7305330524167,5.041139648918305,121.76690847130224,0,0,0,0,0,0,0,0,0,0
10,10,10,1.1613,390.629993135464,5.091791653448133,123.56342530478804,0,0,0,0,0,0,0,0,0,0
11,11,11,1.16132,390.53025141015326,5.2032629817997496,125.35506406580105,0,0,0,0,0,0,0,0,0,0
12,12,12,1.16134,390.4327426719772,5.245229115798382,127.14175402354316,0,0,0,0,0,0,0,0,0,0
13,13,13,1.16136,390.3359682751075,5.347688329374398,128.92342464252184,0,0,0,0,0,0,0,0,0,0
14,14,14,1.16138,390.2416080210119,5.380378167375602,130.70000558544794,0,0,0,0,0,0,0,0,0,0
15,15,15,1.1614,390.1479097696603,5.473222312443491,132.4714267159638,0,0,0,0,0,0,0,0,0,0
16,16,16,1.16142,390.0563659332648,5.49601413194407,134.23761810136432,0,0,0,0,0,0,0,0,0,0
17,17,17,1.16144,389.9653967652935,5.5786139646512,135.9985100154698,0,0,0,0,0,0,0,0,0,0
18,18,18,1.16146,389.87561711733696,5.720820867625724,137.7540329412507,0,0,0,0,0,0,0,0,0,0
19,19,19,1.1614799999999998,389.78882827028633,5.79250753981769,139.50411757368377,0,0,0,0,0,0,0,0,0,0
20,20,20,1.1615,389.7040787875206,5.793532177088326,141.24869482244017,0,0,0,0,0,0,0,0,0,0
21,21,21,1.16152,389.6196917632625,5.853625447403879,142.98769581456574,0,0,0,0,0,0,0,0,0,0
22,22,22,1.16154,389.5363102092805,5.972579541743142,144.7210518973104,0,0,0,0,0,0,0,0,0,0
23,23,23,1.16156,389.4553814222082,6.0852759437756125,146.44869464071255,0,0,0,0,0,0,0,0,0,0
24,24,24,1.16158,389.3771755426902,6.126629182364097,148.1705558404263,0,0,0,0,0,0,0,0,0,0
25,25,25,1.1616,389.30010005649206,6.161359503158831,149.8865675202885,0,0,0,0,0,0,0,0,0,0
26,26,26,1.16162,389.22378479806224,6.254150635889988,151.596661935112,0,0,0,0,0,0,0,0,0,0
27,27,27,1.16164,389.1488966629644,6.404778380566672,153.30077157332815,0,0,0,0,0,0,0,0,0,0
28,28,28,1.16166,389.0781499088511,6.418490987563689,154.99882915952938,0,0,0,0,0,0,0,0,0,0
29,29,29,1.16168,389.0082443582218,6.424793596810365,156.69076765740192,0,0,0,0,0,0,0,0,0,0
30,30,30,1.1617,388.93878522829056,6.488313974590409,158.37652027203427,0,0,0,0,0,0,0,0,0,0
31,31,31,1.16172,388.87046440202937,6.608822826461847,160.05602045283035,0,0,0,0,0,0,0,0,0,0
32,32,32,1.16174,388.8048694690645,6.72128818731186,161.72920189601396,0,0,0,0,0,0,0,0,0,0
33,33,33,1.16176,388.74226312502645,6.760699433533579,163.39599854721632,0,0,0,0,0,0,0,0,0,0
34,34,34,1.16178,388.6808519671866,6.791635762533882,165.05634460418986,0,0,0,0,0,0,0,0,0,0
35,35,35,1.1618,388.62021131646736,6.878652171389173,166.71017451928515,0,0,0,0,0,0,0,0,0,0
36,36,36,1.16182,388.5610529610038,7.021503774851928,168.35742300214403,0,0,0,0,0,0,0,0,0,0
37,37,37,1.16184,388.5055727324231,7.0904484199624935,169.9980250222317,0,0,0,0,0,0,0,0,0,0
38,38,38,1.16186,388.45247920652,7.085266317243238,171.63191581135996,0,0,0,0,0,0,0,0,0,0
39,39,39,1.16188,388.3997008167785,7.135207438284209,173.25903086634762,0,0,0,0,0,0,0,0,0,0
40,40,40,1.1619,388.3479706626848,7.240024585387471,174.87930595144894,0,0,0,0,0,0,0,0,0,0
41,41,41,1.1619199999999998,388.2980181853934,7.39945774599748,176.4926771009927,0,0,0,0,0,0,0,0,0,0
42,42,42,1.16194,388.25329308168006,7.354431779283227,178.09908062186295,0,0,0,0,0,0,0,0,0,0
43,43,43,1.16196,388.20833114402666,7.363527214176032,179.6984530959702,0,0,0,0,0,0,0,0,0,0
44,44,44,1.16198,388.163885047798,7.426496766445196,181.29073138285668,0,0,0,0,0,0,0,0,0,0
45,45,45,1.162,388.1207036424914,7.543079585644912,182.87585262207327,0,0,0,0,0,0,0,0,0,0
46,46,46,1.16202,388.0795317646161,7.713001327025877,184.45375423577624,0,0,0,0,0,0,0,0,0,0
47,47,47,1.16204,388.0439488235861,7.677313536266659,186.0243739310831,0,0,0,0,0,0,0,0,0,0
48,48,48,1.16206,388.0082408807746,7.694430292515991,187.587649702632,0,0,0,0,0,0,0,0,0,0
49,49,49,1.16208,387.9731740553916,7.764092504845354,189.14351983498628,0,0,0,0,0,0,0,0,0,0
50,50,50,1.1621,387.93951030519366,7.886026851268482,190.6919229050289,0,0,0,0,0,0,0,0,0,0
51,51,51,1.16212,387.908007221678,8.059945859210487,192.23279778448625,0,0,0,0,0,0,0,0,0,0
52,52,52,1.16214,387.8823894078813,8.026997373072604,193.7660836422283,0,0,0,0,0,0,0,0,0,0
53,53,53,1.16216,387.85666810564845,8.045461025912912,195.2917199467689,0,0,0,0,0,0,0,0,0,0
54,54,54,1.16218,387.8316201769188,8.115067527259672,196.8096464686128,0,0,0,0,0,0,0,0,0,0
55,55,55,1.1622,387.8080179974616,8.235532719558265,198.3198032825925,0,0,0,0,0,0,0,0,0,0
56,56,56,1.16222,387.7877694438248,8.341938635311756,199.8221307703436,0,0,0,0,0,0,0,0,0,0
57,57,57,1.16224,387.771440232993,8.30473492685006,201.31656962248152,0,0,0,0,0,0,0,0,0,0
58,58,58,1.1622599999999998,387.75492120071385,8.317501145010661,202.8030608411736,0,0,0,0,0,0,0,0,0,0
59,59,59,1.16228,387.7389975308052,8.379959896045902,204.28154574230484,0,0,0,0,0,0,0,0,0,0
60,60,60,1.1623,387.7244496176231,8.49181831226446,205.75196595776944,0,0,0,0,0,0,0,0,0,0
61,61,61,1.16232,387.71205282486017,8.652768150183855,207.21426343793507,0,0,0,0,0,0,0,0,0,0
62,62,62,1.16234,387.7053701048823,8.66866594017054,208.66838045377463,0,0,0,0,0,0,0,0,0,0
63,63,63,1.1623599999999998,387.69971894921264,8.668397565817449,210.11425959925148,0,0,0,0,0,0,0,0,0,0
64,64,64,1.16238,387.694455973499,8.71628264798059,211.5518437935456,0,0,0,0,0,0,0,0,0,0
65,65,65,1.1624,387.6903664467348,8.812022319241475,212.9810762832685,0,0,0,0,0,0,0,0,0,0
66,66,66,1.16242,387.6882303206031,8.955301785570613,214.4019006447947,0,0,0,0,0,0,0,0,0,0
67,67,67,1.16244,387.6907741292208,9.016583410971668,215.81426078638543,0,0,0,0,0,0,0,0,0,0
68,68,68,1.16246,387.6960663379958,8.995519055008154,217.2181009505063,0,0,0,0,0,0,0,0,0,0
69,69,69,1.16248,387.7013905949475,9.021008236517154,218.613365715926,0,0,0,0,0,0,0,0,0,0
70,70,70,1.1625,387.7075342273743,9.092749429990937,219.99999999999315,0,0,0,0,0,0,0,0,0,0
71,71,71,1.16252,387.7152790091711,9.210424679564415,221.3779490607733,0,0,0,0,0,0,0,0,0,0
72,72,72,1.16254,387.7266897267667,9.309092558321058,222.7471584991717,0,0,0,0,0,0,0,0,0,0
73,73,73,1.16256,387.741875323616,9.32377761858684,224.10757426116925,0,0,0,0,0,0,0,0,0,0
74,74,74,1.16258,387.758099011598,9.318745231436113,225.45914263985628,0,0,0,0,0,0,0,0,0,0
75,75,75,1.1626,387.77461643471935,9.358299093896674,226.80181027763985,0,0,0,0,0,0,0,0,0,0
76,76,76,1.16262,387.79220823560365,9.442122176725077,228.13552416831263,0,0,0,0,0,0,0,0,0,0
77,77,77,1.16264,387.81164904304273,9.569880700490105,229.4602316591099,0,0,0,0,0,0,0,0,0,0
78,78,78,1.16266,387.83505296732807,9.676599693278655,230.775880452872,0,0,0,0,0,0,0,0,0,0
79,79,79,1.16268,387.862907076322,9.632629381022072,232.0824186100135,0,0,0,0,0,0,0,0,0,0
80,80,80,1.1626999999999998,387.89033737391264,9.631509062623282,233.3797945506571,0,0,0,0,0,0,0,0,0,0
81,81,81,1.16272,387.9181201885901,9.672927487694704,234.66795705663367,0,0,0,0,0,0,0,0,0,0
82,82,82,1.16274,387.9470257411005,9.75655628127188,235.9468552734701,0,0,0,0,0,0,0,0,0,0
83,83,83,1.16276,387.9778178367205,9.882050083481792,237.21643871247755,0,0,0,0,0,0,0,0,0,0
84,84,84,1.16278,388.01264782018944,9.984393072518836,238.4766572526527,0,0,0,0,0,0,0,0,0,0
85,85,85,1.1628,388.051958853248,9.93385632343125,239.72746114275964,0,0,0,0,0,0,0,0,0,0
86,86,86,1.16282,388.0906849277847,9.9240540230524,240.96880100315715,0,0,0,0,0,0,0,0,0,0
87,87,87,1.16284,388.1295885115756,9.954668946968583,242.20062782788472,0,0,0,0,0,0,0,0,0,0
88,88,88,1.16286,388.1694256624279,10.025366592782444,243.42289298657283,0,0,0,0,0,0,0,0,0,0
89,89,89,1.16288,388.2109457074541,10.135795330634762,244.63554822623047,0,0,0,0,0,0,0,0,0,0
90,90,90,1.1629,388.25632341405606,10.220892763121348,245.83854567333816,0,0,0,0,0,0,0,0,0,0
91,91,91,1.16292,388.3044816563026,10.280245155132167,247.0318378355949,0,0,0,0,0,0,0,0,0,0
92,92,92,1.16294,388.35517239461217,10.313462781067742,248.2153776038802,0,0,0,0,0,0,0,0,0,0
93,93,93,1.16296,388.40727149608114,10.32015829520415,249.38911825408115,0,0,0,0,0,0,0,0,0,0
94,94,94,1.16298,388.4598444186566,10.364696098096966,250.5530134489054,0,0,0,0,0,0,0,0,0,0
95,95,95,1.163,388.5136214075955,10.446724812132093,251.70701723978468,0,0,0,0,0,0,0,0,0,0
96,96,96,1.16302,388.5693254534976,10.565876076004958,252.8510840686044,0,0,0,0,0,0,0,0,0,0
97,97,97,1.16304,388.6300237051439,10.59225028348428,253.98516876957547,0,0,0,0,0,0,0,0,0,0
98,98,98,1.16306,388.6915746625365,10.65493191178134,255.10922657098604,0,0,0,0,0,0,0,0,0,0
99,99,99,1.16308,388.7562038331022,10.623997128665934,256.2232130969384,0,0,0,0,0,0,0,0,0,0
100,100,100,1.1631,388.8205422893983,10.628610756224134,257.32708436917216,0,0,0,0,0,0,0,0,0,0
101,101,101,1.16312,388.885297604515,10.668429483125356,258.4207968087196,0,0,0,0,0,0,0,0,0,0
102,102,102,1.1631399999999998,388.9511700495916,10.743093105056118,259.5043072376964,0,0,0,0,0,0,0,0,0,0
103,103,103,1.16316,389.0188522605647,10.852224704337033,260.5775728809757,0,0,0,0,0,0,0,0,0,0
104,104,104,1.16318,389.09145019855407,10.865763614512511,261.6405513678483,0,0,0,0,0,0,0,0,0,0
105,105,105,1.1632,389.16463568933216,10.912932988711413,262.6932007337628,0,0,0,0,0,0,0,0,0,0
106,106,106,1.16322,389.2390874775173,10.993363435462047,263.73547942190567,0,0,0,0,0,0,0,0,0,0
107,107,107,1.16324,389.31702658303846,10.976925259664313,264.7673462849179,0,0,0,0,0,0,0,0,0,0
108,108,108,1.16326,389.3949289839492,10.992943482807307,265.78876058644374,0,0,0,0,0,0,0,0,0,0
109,109,109,1.16328,389.4734597291864,11.041058851728748,266.79968200280496,0,0,0,0,0,0,0,0,0,0
110,110,110,1.1633,389.553276046481,11.12089582880548,267.800070624564,0,0,0,0,0,0,0,0,0,0
111,111,111,1.16332,389.63661193793513,11.16714067599026,268.789886958073,0,0,0,0,0,0,0,0,0,0
112,112,112,1.16334,389.72210198566273,11.179339994416468,269.7690919270957,0,0,0,0,0,0,0,0,0,0
113,113,113,1.16336,389.8081323778409,11.222027863043092,270.73764687427905,0,0,0,0,0,0,0,0,0,0
114,114,114,1.16338,389.8953363666788,11.294825786975832,271.695513562741,0,0,0,0,0,0,0,0,0,0
115,115,115,1.1634,389.9854726004989,11.332356066010728,272.6426541775618,0,0,0,0,0,0,0,0,0,0
116,116,116,1.16342,390.07711554606885,11.334176603439372,273.5790313272091,0,0,0,0,0,0,0,0,0,0
117,117,117,1.16344,390.16906617058464,11.364887311988577,274.50460804516723,0,0,0,0,0,0,0,0,0,0
118,118,118,1.16346,390.26193312236495,11.424110402246235,275.41934779121016,0,0,0,0,0,0,0,0,0,0
119,119,119,1.1634799999999998,390.35631664477455,11.51145280810684,276.32321445299584,0,0,0,0,0,0,0,0,0,0
120,120,120,1.1635,390.4553954337461,11.496386875500292,277.2161723474241,0,0,0,0,0,0,0,0,0,0
121,121,121,1.16352,390.5544047208795,11.508561045255632,278.0981862220302,0,0,0,0,0,0,0,0,0,0
122,122,122,1.16354,390.6539265280561,11.547602062559484,278.96922125643255,0,0,0,0,0,0,0,0,0,0
123,123,123,1.16356,390.7545344681932,11.613121880306169,279.8292430636436,0,0,0,0,0,0,0,0,0,0
124,124,124,1.1635799999999998,390.8567934325624,11.704717877708854,280.6782176914831,0,0,0,0,0,0,0,0,0,0
125,125,125,1.1636,390.962883509682,11.691683745234975,281.5161116238938,0,0,0,0,0,0,0,0,0,0
126,126,126,1.16362,391.06892164683273,11.703849752857176,282.3428917822428,0,0,0,0,0,0,0,0,0,0
127,127,127,1.16364,391.1754535167241,11.740837244891395,283.15852552668014,0,0,0,0,0,0,0,0,0,0
128,128,128,1.16366,391.28301617198713,11.802253527678188,283.9629806573675,0,0,0,0,0,0,0,0,0,0
129,129,129,1.16368,391.39479335993207,11.757260439684035,284.75622541580816,0,0,0,0,0,0,0,0,0,0
130,130,130,1.1637,391.50483463719854,11.801051503752834,285.538228486043,0,0,0,0,0,0,0,0,0,0
131,131,131,1.16372,391.6170166435896,11.802789009050072,286.3089589959371,0,0,0,0,0,0,0,0,0,0
132,132,132,1.16374,391.7294457473988,11.827296208348043,287.0683865183764,0,0,0,0,0,0,0,0,0,0
133,133,133,1.16376,391.8426211693792,11.874181699585996,287.8164810724489,0,0,0,0,0,0,0,0,0,0
134,134,134,1.16378,391.9570331404792,11.943041085703468,288.55321312467606,0,0,0,0,0,0,0,0,0,0
135,135,135,1.1638,392.07316262045686,12.033457212918456,289.2785535901248,0,0,0,0,0,0,0,0,0,0
136,136,136,1.16382,392.1926757897402,12.079650206426598,289.99247383360205,0,0,0,0,0,0,0,0,0,0
137,137,137,1.16384,392.31386279558376,12.081135048236488,290.69494567076543,0,0,0,0,0,0,0,0,0,0
138,138,138,1.16386,392.43526218052784,12.102852352376791,291.3859413692168,0,0,0,0,0,0,0,0,0,0
139,139,139,1.16388,392.557323107011,12.144406593225566,292.0654336496418,0,0,0,0,0,0,0,0,0,0
140,140,140,1.1639,392.68223011950863,12.139962507766857,292.7333956868364,0,0,0,0,0,0,0,0,0,0
141,141,141,1.1639199999999998,392.8064630136389,12.154485124277612,293.3898011108091,0,0,0,0,0,0,0,0,0,0
142,142,142,1.16394,392.9329260770815,12.122132786936234,294.0346240078037,0,0,0,0,0,0,0,0,0,0
143,143,143,1.16396,393.0588118570744,12.107929510099057,294.6678389213046,0,0,0,0,0,0,0,0,0,0
144,144,144,1.16398,393.18452870330793,12.111495757195163,295.2894208530883,0,0,0,0,0,0,0,0,0,0
145,145,145,1.164,393.31047606247023,12.132441100152482,295.89934526413646,0,0,0,0,0,0,0,0,0,0
146,146,146,1.16402,393.437044236866,12.170364461223745,296.4975880757108,0,0,0,0,0,0,0,0,0,0
147,147,147,1.16404,393.5646141486894,12.224854360788395,297.08412567018223,0,0,0,0,0,0,0,0,0,0
148,148,148,1.16406,393.69355711008745,12.295489170985752,297.65893489206184,0,0,0,0,0,0,0,0,0,0
149,149,149,1.16408,393.8242345991344,12.3818373750326,298.2219930488708,0,0,0,0,0,0,0,0,0,0
150,150,150,1.1641,393.9569980418504,12.483457832074505,298.77327791202686,0,0,0,0,0,0,0,0,0,0
151,151,151,1.16412,321.2463587615485,11.869760482303343,299.31276771775777,1,0,0,0,0,0,0,0,0,1
152,152,152,1.16414,298.03758658839206,11.912169923458023,299.8404411679199,1,0,0,0,0,0,0,0,0,1
153,153,153,1.16416,293.8059368607805,12.137863629485532,300.35627743087383,1,0,0,0,0,0,0,0,0,1
154,154,154,1.16418,294.0657619177823,12.360328960943242,300.86025614229175,1,0,0,0,0,0,0,0,0,1
155,155,155,1.1642,294.33234883935864,12.59062279881956,301.3523574059479,1,0,0,0,0,0,0,0,0,1
156,156,156,1.16422,294.6059227926283,12.828119701941594,301.83256179453593,1,0,0,0,0,0,0,0,0,1
157,157,157,1.16424,294.88668979003535,13.072186402420256,302.30085035040014,1,0,0,0,0,0,0,0,0,1
158,158,158,1.16426,295.1748364694274,13.322182463528517,302.75720458631463,1,0,0,0,0,0,0,0,0,1
159,159,159,1.16428,295.47052989425123,13.57746094460032,303.2016064861994,1,0,0,0,0,0,0,0,0,1
160,160,160,1.1643,295.77391737406964,13.837369072275468,303.63403850582046,1,0,0,0,0,0,0,0,0,1
161,161,161,1.16432,296.08512630556686,14.1012489174097,304.0544835735099,1,0,0,0,0,0,0,0,0,1
162,162,162,1.16434,296.40426403420537,14.368438076963525,304.4629250908088,1,0,0,0,0,0,0,0,0,1
163,163,163,1.1643599999999998,296.73141773665355,14.63827036017874,304.85934693314925,1,0,0,0,0,0,0,0,0,1
164,164,164,1.16438,297.0666543241141,14.910076478347692,305.24373345047906,1,0,0,0,0,0,0,0,0,1
165,165,165,1.1644,297.41002036661985,15.183184737476452,305.6160694678698,1,0,0,0,0,0,0,0,0,1
166,166,166,1.16442,297.7615420383905,15.456921733140844,305.9763402861398,1,0,0,0,0,0,0,0,0,1
167,167,167,1.16444,298.12122508428126,15.730613046832316,306.3245316824075,1,0,0,0,0,0,0,0,0,1
168,168,168,1.16446,298.48905480735226,16.003583943089062,306.66062991067906,1,0,0,0,0,0,0,0,0,1
169,169,169,1.16448,298.86499607757605,16.27516006670772,306.98462170236587,1,0,0,0,0,0,0,0,0,1
170,170,170,1.1645,299.24899336164805,16.544668139330792,307.2964942668298,1,0,0,0,0,0,0,0,0,1
171,171,171,1.16452,299.64097077387777,16.811436654705943,307.5962352918787,1,0,0,0,0,0,0,0,0,1
172,172,172,1.16454,300.04083214809583,17.07479657191508,307.8838329442448,1,0,0,0,0,0,0,0,0,1
173,173,173,1.16456,300.448461130494,17.334082005873224,308.1592758700727,1,0,0,0,0,0,0,0,0,1
174,174,174,1.16458,300.8637212933043,17.58863091440055,308.4225531953375,1,0,0,0,0,0,0,0,0,1
175,175,175,1.1646,301.2864562691849,17.837785781173878,308.67365452630406,1,0,0,0,0,0,0,0,0,1
176,176,176,1.16462,301.71648990618314,18.080894293869445,308.91256994993046,1,0,0,0,0,0,0,0,0,1
177,177,177,1.16464,302.1536264431003,18.317310016813487,309.139290034234,1,0,0,0,0,0,0,0,0,1
178,178,178,1.16466,302.59765070507444,18.54639305746167,309.35380582870016,1,0,0,0,0,0,0,0,0,1
179,179,179,1.16468,303.0483283191881,18.767510726037614,309.55610886460886,1,0,0,0,0,0,0,0,0,1
180,180,180,1.1646999999999998,303.50540594985733,18.98003818766548,309.7461911553846,1,0,0,0,0,0,0,0,0,1
181,181,181,1.16472,303.96861155377906,19.183359106339868,309.9240451969057,1,0,0,0,0,0,0,0,0,1
182,182,182,1.16474,304.437654654146,19.37686628008671,310.08966396779584,1,0,0,0,0,0,0,0,0,1
183,183,183,1.16476,304.912226633876,19.55996226667433,310.24304092971244,1,0,0,0,0,0,0,0,0,1
184,184,184,1.16478,305.39200104752325,19.73205999924817,310.38417002759303,1,0,0,0,0,0,0,0,0,1
185,185,185,1.1648,305.8766339515707,19.89258339126825,310.51304568990486,1,0,0,0,0,0,0,0,0,1
186,186,186,1.16482,306.3657642527552,20.04096793014412,310.62966282885526,1,0,0,0,0,0,0,0,0,1
187,187,187,1.16484,306.8590140740595,20.17666125896963,310.73401684060053,1,0,0,0,0,0,0,0,0,1
188,188,188,1.16486,307.35598913801505,20.299123745775294,310.82610360542367,1,0,0,0,0,0,0,0,0,1
189,189,189,1.16488,307.8562791669037,20.407829039726785,310.9059194878952,1,0,0,0,0,0,0,0,0,1
190,190,190,1.1649,308.35945829944853,20.50226461371208,310.97346133702206,1,0,0,0,0,0,0,0,0,1
191,191,191,1.16492,308.86508552358737,20.581932292774912,311.0287264863668,1,0,0,0,0,0,0,0,0,1
192,192,192,1.16494,309.3727051248542,20.64634876786412,311.07171275415635,1,0,0,0,0,0,0,0,0,1
193,193,193,1.16496,309.88184714994514,20.69504609438621,311.10241844336684,1,0,0,0,0,0,0,0,0,1
194,194,194,1.16498,310.39202788496044,20.72757217506221,311.1208423417895,1,0,0,0,0,0,0,0,0,1
195,195,195,1.165,310.90275034786055,20.743491226606608,311.12698372208087,1,0,0,0,0,0,0,0,0,1
196,196,196,1.16502,311.4135047946213,20.74238422976296,311.1208423417897,1,0,0,0,0,0,0,0,0,1
197,197,197,1.16504,311.9237692385764,20.723849362246767,311.10241844336707,1,0,0,0,0,0,0,0,0,1
198,198,198,1.16506,312.43300998240744,20.68750241416473,311.0717127541568,1,0,0,0,0,0,0,0,0,1
199,199,199,1.16508,312.9406821622614,20.63297718549687,311.02872648636736,1,0,0,0,0,0,0,0,0,1
