,Unnamed: 0.1,Unnamed: 0,Time / s,Vo:Measured voltage,IL:Measured current,Vin:Measured voltage,short1:Output,short2:Output,short3:Output,short4:Output,open1:Output,open3:Output,open2:Output,open4:Output,OPEN,SHORT
0,0,0,1.1807518713508065,393.95254588389776,2.962723381861599,71.68036740333302,0,0,0,0,0,0,0,0,0,0
1,1,1,1.18076,393.8194274672098,3.085259905660237,73.5812195972843,0,0,0,0,0,0,0,0,0,0
2,2,2,1.18078,393.68794223472526,3.0750020723153786,75.4791669306599,0,0,0,0,0,0,0,0,0,0
3,3,3,1.1807999999999998,393.5566312398354,3.128786150083253,77.37413447576614,0,0,0,0,0,0,0,0,0,0
4,4,4,1.18082,393.425862730982,3.2464920203270995,79.26604742256326,0,0,0,0,0,0,0,0,0,0
5,5,5,1.18084,393.2964357345473,3.362449550683998,81.15483108148203,0,0,0,0,0,0,0,0,0,0
6,6,6,1.18086,393.1685678370197,3.411060754624553,83.04041088668026,0,0,0,0,0,0,0,0,0,0
7,7,7,1.18088,393.04143767064807,3.4578146291241647,84.92271239861049,0,0,0,0,0,0,0,0,0,0
8,8,8,1.1808999999999998,392.9148543932447,3.5681237100964034,86.80166130726624,0,0,0,0,0,0,0,0,0,0
9,9,9,1.18092,392.7892217386944,3.7418530470989175,88.6771834349788,0,0,0,0,0,0,0,0,0,0
10,10,10,1.18094,392.66636135255936,3.717096794276282,90.5492047393121,0,0,0,0,0,0,0,0,0,0
11,11,11,1.18096,392.5435944827091,3.755621895692317,92.41765131610424,0,0,0,0,0,0,0,0,0,0
12,12,12,1.18098,392.4213615832601,3.8572893335152174,94.28244940224984,0,0,0,0,0,0,0,0,0,0
13,13,13,1.181,392.3001019526437,4.021954297553501,96.1435253787474,0,0,0,0,0,0,0,0,0,0
14,14,14,1.18102,392.1814923503141,4.053386799394996,98.00080577347022,0,0,0,0,0,0,0,0,0,0
15,15,15,1.18104,392.06367129112607,4.0822733533742666,99.8542172641854,0,0,0,0,0,0,0,0,0,0
16,16,16,1.18106,391.94634997759545,4.173839748392036,101.70368668139754,0,0,0,0,0,0,0,0,0,0
17,17,17,1.18108,391.8300023996479,4.327931573584142,103.5491410111874,0,0,0,0,0,0,0,0,0,0
18,18,18,1.1811,391.7158579437739,4.413822760019053,105.39050739821133,0,0,0,0,0,0,0,0,0,0
19,19,19,1.18112,391.6035674158839,4.431454018770111,107.22771314844395,0,0,0,0,0,0,0,0,0,0
20,20,20,1.18114,391.49171679772496,4.511252194962704,109.0606857321648,0,0,0,0,0,0,0,0,0,0
21,21,21,1.18116,391.3808138031167,4.653053624161328,110.88935278677133,0,0,0,0,0,0,0,0,0,0
22,22,22,1.18118,391.27216836400686,4.726271062009936,112.71364211958624,0,0,0,0,0,0,0,0,0,0
23,23,23,1.1812,391.1653998425552,4.7308300355992445,114.53348171082344,0,0,0,0,0,0,0,0,0,0
24,24,24,1.18122,391.0589812860747,4.7969975455337694,116.34879971629896,0,0,0,0,0,0,0,0,0,0
25,25,25,1.1812399999999998,390.953453119143,4.924601120723739,118.1595244703828,0,0,0,0,0,0,0,0,0,0
26,26,26,1.18126,390.85018764437206,4.983185353509166,119.96558448877842,0,0,0,0,0,0,0,0,0,0
27,27,27,1.18128,390.74776901156713,5.102900819609824,121.76690847129606,0,0,0,0,0,0,0,0,0,0
28,28,28,1.1813,390.6478017254776,5.153357576112772,123.56342530478187,0,0,0,0,0,0,0,0,0,0
29,29,29,1.18132,390.5492132831631,5.199541995458632,125.35506406579492,0,0,0,0,0,0,0,0,0,0
30,30,30,1.18134,390.4516603127568,5.24130696985075,127.14175402355318,0,0,0,0,0,0,0,0,0,0
31,31,31,1.18136,390.3548397526813,5.3435655514713245,128.92342464251573,0,0,0,0,0,0,0,0,0,0
32,32,32,1.18138,390.2600524960431,5.441088709639627,130.70000558544183,0,0,0,0,0,0,0,0,0,0
33,33,33,1.1814,390.1669531568484,5.533713134937273,132.4714267159737,0,0,0,0,0,0,0,0,0,0
34,34,34,1.18142,390.07602403690913,5.556272360925513,134.2376181013583,0,0,0,0,0,0,0,0,0,0
35,35,35,1.18144,389.9856669210607,5.638632700294084,135.99851001547967,0,0,0,0,0,0,0,0,0,0
36,36,36,1.18146,389.8972511034801,5.715618234757304,137.75403294126053,0,0,0,0,0,0,0,0,0,0
37,37,37,1.18148,389.8103975634055,5.787054039658467,139.50411757369358,0,0,0,0,0,0,0,0,0,0
38,38,38,1.1815,389.7255790268602,5.7878214477634105,141.24869482244995,0,0,0,0,0,0,0,0,0,0
39,39,39,1.18152,389.6411201742495,5.84765838899726,142.9876958145755,0,0,0,0,0,0,0,0,0,0
40,40,40,1.18154,389.5576640283886,5.966357087372296,144.72105189732008,0,0,0,0,0,0,0,0,0,0
41,41,41,1.18156,389.4766569157077,6.078795502628305,146.44869464072227,0,0,0,0,0,0,0,0,0,0
42,42,42,1.18158,389.39836785026336,6.119884691979305,148.1705558404204,0,0,0,0,0,0,0,0,0,0
43,43,43,1.1816,389.32120515398185,6.154348547361032,149.88656752029814,0,0,0,0,0,0,0,0,0,0
44,44,44,1.18162,389.2447996574388,6.246874393481967,151.59666193512157,0,0,0,0,0,0,0,0,0,0
45,45,45,1.18164,389.1698182711349,6.397238068364574,153.30077157332232,0,0,0,0,0,0,0,0,0,0
46,46,46,1.18166,389.0989717189016,6.410677409178428,154.9988291595389,0,0,0,0,0,0,0,0,0,0
47,47,47,1.1816799999999998,389.0289619206448,6.416704675823425,156.69076765738086,0,0,0,0,0,0,0,0,0,0
48,48,48,1.1817,388.95939525455753,6.479951177837704,158.3765202720285,0,0,0,0,0,0,0,0,0,0
49,49,49,1.18172,388.8909636228975,6.600187664200703,160.05602045282464,0,0,0,0,0,0,0,0,0,0
50,50,50,1.18174,388.82525328545375,6.712378800666784,161.72920189600825,0,0,0,0,0,0,0,0,0,0
51,51,51,1.18176,388.7625254424009,6.75151067172276,163.39599854721064,0,0,0,0,0,0,0,0,0,0
52,52,52,1.18178,388.7009878953789,6.782166012510801,165.05634460418418,0,0,0,0,0,0,0,0,0,0
53,53,53,1.1818,388.6402173395161,6.868903281390053,166.7101745192795,0,0,0,0,0,0,0,0,0,0
54,54,54,1.18182,388.5809255881068,7.011477641799082,168.35742300213838,0,0,0,0,0,0,0,0,0,0
55,55,55,1.18184,388.52530537595567,7.080140376561652,169.99802502222607,0,0,0,0,0,0,0,0,0,0
56,56,56,1.18186,388.4720650509937,7.074671884533305,171.63191581135436,0,0,0,0,0,0,0,0,0,0
57,57,57,1.18188,388.419136114818,7.124328850089198,173.25903086634202,0,0,0,0,0,0,0,0,0,0
58,58,58,1.1819,388.3672516984749,7.228864129840247,174.8793059514434,0,0,0,0,0,0,0,0,0,0
59,59,59,1.18192,388.31714127538817,7.388017765061661,176.49267710098715,0,0,0,0,0,0,0,0,0,0
60,60,60,1.18194,388.2722474703335,7.342701951188739,178.09908062185744,0,0,0,0,0,0,0,0,0,0
61,61,61,1.18196,388.22711287423033,7.351510207997901,179.69845309596474,0,0,0,0,0,0,0,0,0,0
62,62,62,1.18198,388.1824902015599,7.414195311149446,181.2907313828656,0,0,0,0,0,0,0,0,0,0
63,63,63,1.182,388.13912834174977,7.5304964694718,182.8758526220821,0,0,0,0,0,0,0,0,0,0
64,64,64,1.1820199999999998,388.09777217204646,7.700139396860797,184.4537542357565,0,0,0,0,0,0,0,0,0,0
65,65,65,1.18204,388.0619931775787,7.66416357687001,186.0243739310919,0,0,0,0,0,0,0,0,0,0
66,66,66,1.18206,388.02608509018745,7.680995523184203,187.5876497026408,0,0,0,0,0,0,0,0,0,0
67,67,67,1.18208,387.9908140779192,7.750376209380029,189.143519834995,0,0,0,0,0,0,0,0,0,0
68,68,68,1.1821,387.9569421482816,7.872032377176676,190.69192290503764,0,0,0,0,0,0,0,0,0,0
69,69,69,1.1821199999999998,387.92522694342273,8.045676616890363,192.23279778448097,0,0,0,0,0,0,0,0,0,0
70,70,70,1.18214,387.8993843022114,8.012445404879426,193.76608364223688,0,0,0,0,0,0,0,0,0,0
71,71,71,1.18216,387.8734340037121,8.030630160597248,195.29171994677748,0,0,0,0,0,0,0,0,0,0
72,72,72,1.18218,387.8481529699623,8.099961661909692,196.80964646862128,0,0,0,0,0,0,0,0,0,0
73,73,73,1.1822,387.8243136378326,8.220155818578535,198.3198032826009,0,0,0,0,0,0,0,0,0,0
74,74,74,1.18222,387.8026837361681,8.390913761528907,199.82213077033845,0,0,0,0,0,0,0,0,0,0
75,75,75,1.18224,387.7871183270415,8.353437097989092,201.31656962248988,0,0,0,0,0,0,0,0,0,0
76,76,76,1.18226,387.7713584031746,8.365917206943703,202.80306084118192,0,0,0,0,0,0,0,0,0,0
77,77,77,1.18228,387.7561889435899,8.428076779870354,204.28154574229976,0,0,0,0,0,0,0,0,0,0
78,78,78,1.1823,387.74239013929866,8.539623037826388,205.7519659577644,0,0,0,0,0,0,0,0,0,0
79,79,79,1.18232,387.73073715215065,8.700247829575185,207.21426343793007,0,0,0,0,0,0,0,0,0,0
80,80,80,1.18234,387.7251974598922,8.651186300387518,208.6683804537697,0,0,0,0,0,0,0,0,0,0
81,81,81,1.18236,387.7192499359424,8.650566399653433,210.11425959924648,0,0,0,0,0,0,0,0,0,0
82,82,82,1.18238,387.71368499738446,8.69810539403871,211.55184379354063,0,0,0,0,0,0,0,0,0,0
83,83,83,1.1824,387.7092880051212,8.793504515160732,212.98107628326363,0,0,0,0,0,0,0,0,0,0
84,84,84,1.18242,387.7068390043172,8.936449066342167,214.40190064478983,0,0,0,0,0,0,0,0,0,0
85,85,85,1.18244,387.70930323052687,8.997396435756343,215.81426078638063,0,0,0,0,0,0,0,0,0,0
86,86,86,1.1824599999999998,387.7142599939247,8.975992164304577,217.21810095048883,0,0,0,0,0,0,0,0,0,0
87,87,87,1.18248,387.7192432192069,9.001147793672802,218.6133657159212,0,0,0,0,0,0,0,0,0,0
88,88,88,1.1825,387.7250403446216,9.072561900657016,219.9999999999884,0,0,0,0,0,0,0,0,0,0
89,89,89,1.18252,387.73243325669137,9.189916629594268,221.3779490607685,0,0,0,0,0,0,0,0,0,0
90,90,90,1.18254,387.7421980145221,9.352877812366,222.74715849916703,0,0,0,0,0,0,0,0,0,0
91,91,91,1.18256,387.758539196741,9.302636157886154,224.1075742611769,0,0,0,0,0,0,0,0,0,0
92,92,92,1.18258,387.7743822839066,9.297288254871232,225.45914263986384,0,0,0,0,0,0,0,0,0,0
93,93,93,1.1826,387.7905137713164,9.336534055188409,226.80181027763527,0,0,0,0,0,0,0,0,0,0
94,94,94,1.18262,387.8077144354848,9.420056630393455,228.13552416832013,0,0,0,0,0,0,0,0,0,0
95,95,95,1.18264,387.8267590407914,9.54752229923544,229.46023165911728,0,0,0,0,0,0,0,0,0,0
96,96,96,1.18266,387.84975840375847,9.653953696385356,230.77588045287928,0,0,0,0,0,0,0,0,0,0
97,97,97,1.18268,387.8767868522485,9.67433157125159,232.0824186100208,0,0,0,0,0,0,0,0,0,0
98,98,98,1.1827,387.9049673519812,9.672920604873648,233.3797945506644,0,0,0,0,0,0,0,0,0,0
99,99,99,1.18272,387.9334946654977,9.714033474252863,234.667957056641,0,0,0,0,0,0,0,0,0,0
100,100,100,1.18274,387.9631387457762,9.797341923152132,235.94685527347727,0,0,0,0,0,0,0,0,0,0
101,101,101,1.18276,387.9946631326354,9.92250071574204,237.21643871248463,0,0,0,0,0,0,0,0,0,0
102,102,102,1.18278,388.03101443847794,9.959830716897422,238.4766572526597,0,0,0,0,0,0,0,0,0,0
103,103,103,1.1828,388.06944346302976,9.973588782172383,239.7274611427441,0,0,0,0,0,0,0,0,0,0
104,104,104,1.18282,388.108905774012,9.963412503485836,240.9688010031529,0,0,0,0,0,0,0,0,0,0
105,105,105,1.18284,388.1485381485104,9.99363835832157,242.2006278278916,0,0,0,0,0,0,0,0,0,0
106,106,106,1.18286,388.189096365162,10.063932002952546,243.42289298656863,0,0,0,0,0,0,0,0,0,0
107,107,107,1.18288,388.23132947505127,10.173941971906444,244.63554822622632,0,0,0,0,0,0,0,0,0,0
108,108,108,1.1828999999999998,388.2774176866423,10.25860258541718,245.83854567332324,0,0,0,0,0,0,0,0,0,0
109,109,109,1.18292,388.326283398993,10.317499930565164,247.03183783559084,0,0,0,0,0,0,0,0,0,0
110,110,110,1.18294,388.3781000319594,10.285527289516477,248.21537760387616,0,0,0,0,0,0,0,0,0,0
111,111,111,1.18296,388.42964410224863,10.291742965951563,249.38911825407712,0,0,0,0,0,0,0,0,0,0
112,112,112,1.18298,388.4816530156456,10.335812924858743,250.55301344890145,0,0,0,0,0,0,0,0,0,0
113,113,113,1.183,388.5348572551953,10.417385976173978,251.70701723978075,0,0,0,0,0,0,0,0,0,0
114,114,114,1.18302,388.589980052782,10.53609394101022,252.85108406860044,0,0,0,0,0,0,0,0,0,0
115,115,115,1.18304,388.6500796455584,10.562030602682206,253.9851687695716,0,0,0,0,0,0,0,0,0,0
116,116,116,1.18306,388.7110236829269,10.624287796367408,255.10922657098217,0,0,0,0,0,0,0,0,0,0
117,117,117,1.18308,388.7750285240034,10.592935484254824,256.22321309693456,0,0,0,0,0,0,0,0,0,0
118,118,118,1.1831,388.83873467665006,10.597145452833397,257.3270843691783,0,0,0,0,0,0,0,0,0,0
119,119,119,1.18312,388.90284999604313,10.636574561525483,258.4207968087158,0,0,0,0,0,0,0,0,0,0
120,120,120,1.18314,388.9680750386504,10.710862770509893,259.5043072376927,0,0,0,0,0,0,0,0,0,0
121,121,121,1.18316,389.0351027288581,10.819633320269322,260.57757288098173,0,0,0,0,0,0,0,0,0,0
122,122,122,1.18318,389.10615849352416,10.897658707621064,261.64055136785424,0,0,0,0,0,0,0,0,0,0
123,123,123,1.1832,389.1799824403081,10.94448896388988,262.6932007337687,0,0,0,0,0,0,0,0,0,0
124,124,124,1.18322,389.256168580913,10.959703631153625,263.7354794219116,0,0,0,0,0,0,0,0,0,0
125,125,125,1.1832399999999998,389.33297221353945,11.007764071091447,264.7673462849144,0,0,0,0,0,0,0,0,0,0
126,126,126,1.18326,389.41150011552935,11.023410486149972,265.7887605864494,0,0,0,0,0,0,0,0,0,0
127,127,127,1.18328,389.4906483198861,11.071139999970931,266.7996820028106,0,0,0,0,0,0,0,0,0,0
128,128,128,1.1833,389.5710737699048,11.15057726193514,267.8000706245696,0,0,0,0,0,0,0,0,0,0
129,129,129,1.18332,389.6550146215836,11.196405709402608,268.78988695807845,0,0,0,0,0,0,0,0,0,0
130,130,130,1.1833399999999998,389.7411049850168,11.208171842830309,269.7690919270924,0,0,0,0,0,0,0,0,0,0
131,131,131,1.18336,389.8277262666557,11.250412872526985,270.73764687428445,0,0,0,0,0,0,0,0,0,0
132,132,132,1.18338,389.9155114391444,11.322750525025643,271.6955135627464,0,0,0,0,0,0,0,0,0,0
133,133,133,1.1834,390.0066642767377,11.294818499541256,272.6426541775586,0,0,0,0,0,0,0,0,0,0
134,134,134,1.18342,390.0974979590248,11.296157764553165,273.57903132721435,0,0,0,0,0,0,0,0,0,0
135,135,135,1.18344,390.1886296214235,11.32640624462264,274.5046080451641,0,0,0,0,0,0,0,0,0,0
136,136,136,1.18346,390.28066832215774,11.385186369954788,275.41934779120703,0,0,0,0,0,0,0,0,0,0
137,137,137,1.18348,390.3742147188984,11.472105284423751,276.3232144529927,0,0,0,0,0,0,0,0,0,0
138,138,138,1.1835,390.4724358795112,11.456629719444733,277.2161723474211,0,0,0,0,0,0,0,0,0,0
139,139,139,1.18352,390.5705792709029,11.468414691350176,278.0981862220272,0,0,0,0,0,0,0,0,0,0
140,140,140,1.18354,390.6692273596989,11.507087133748485,278.9692212564296,0,0,0,0,0,0,0,0,0,0
141,141,141,1.18356,390.7689542073322,11.572259177367243,279.8292430636407,0,0,0,0,0,0,0,0,0,0
142,142,142,1.18358,390.8703251571307,11.663528368579172,280.6782176914802,0,0,0,0,0,0,0,0,0,0
143,143,143,1.1836,390.97506196840567,11.715330046924558,281.51611162389094,0,0,0,0,0,0,0,0,0,0
144,144,144,1.18362,391.08160805828857,11.7271954694734,282.34289178224003,0,0,0,0,0,0,0,0,0,0
145,145,145,1.18364,391.1886409994976,11.76387029624076,283.1585255266774,0,0,0,0,0,0,0,0,0,0
146,146,146,1.18366,391.29669758558606,11.82496200295732,283.9629806573648,0,0,0,0,0,0,0,0,0,0
147,147,147,1.1836799999999998,391.4089680872896,11.77962795435402,284.7562254157984,0,0,0,0,0,0,0,0,0,0
148,148,148,1.1837,391.5194914830924,11.823068586619533,285.53822848604034,0,0,0,0,0,0,0,0,0,0
149,149,149,1.18372,391.63215088190645,11.824441651739356,286.3089589959344,0,0,0,0,0,0,0,0,0,0
150,150,150,1.18374,391.74504900965417,11.848572928935482,287.0683865183806,0,0,0,0,0,0,0,0,0,0
151,151,151,1.18376,391.73886434940897,1.7263417469673024,287.81648107245303,0,0,0,0,1,0,0,0,1,0
152,152,152,1.18378,391.5905121291802,1.8269023578236097,288.5532131246802,0,0,0,0,1,0,0,0,1,0
153,153,153,1.1838,391.4422167238138,1.97606234403754,289.2785535901288,0,0,0,0,1,0,0,0,1,0
154,154,154,1.18382,391.29397802059503,2.0775572326156166,289.992473833606,0,0,0,0,1,0,0,0,1,0
155,155,155,1.18384,391.1457960874433,2.227860148220917,290.6949456707693,0,0,0,0,1,0,0,0,1,0
156,156,156,1.18386,390.9976708714671,2.33023582622615,291.3859413692207,0,0,0,0,1,0,0,0,1,0
157,157,157,1.18388,390.8496022269413,2.3902535520800803,292.0654336496456,0,0,0,0,1,0,0,0,1,0
158,158,158,1.1839,390.70158978910143,2.3941769061549087,292.7333956868401,0,0,0,0,1,0,0,0,1,0
159,159,159,1.18392,390.55363342621,2.397996852867729,293.3898011108128,0,0,0,0,1,0,0,0,1,0
160,160,160,1.18394,390.405733116679,2.401715108048972,294.03462400780734,0,0,0,0,1,0,0,0,1,0
161,161,161,1.18396,390.2578888840157,2.485824087000904,294.66783892130815,0,0,0,0,1,0,0,0,1,0
162,162,162,1.18398,390.1101007330384,2.4911043331826974,295.2894208530862,0,0,0,0,1,0,0,0,1,0
163,163,163,1.184,389.96236857062746,2.496265435980147,295.89934526413987,0,0,0,0,1,0,0,0,1,0
164,164,164,1.18402,389.81469237520713,2.5013279695548536,296.49758807570333,0,0,0,0,1,0,0,0,1,0
165,165,165,1.18404,389.66707212522726,2.506291739537496,297.08412567018024,0,0,0,0,1,0,0,0,1,0
166,166,166,1.18406,389.519507799146,2.511156549974233,297.6589348920599,0,0,0,0,1,0,0,0,1,0
167,167,167,1.18408,389.3719993754286,2.5159222088165145,298.22199304886885,0,0,0,0,1,0,0,0,1,0
168,168,168,1.1841,389.2245468325472,2.520588527930149,298.77327791202504,0,0,0,0,1,0,0,0,1,0
169,169,169,1.1841199999999998,389.07715014898224,2.5251553231026795,299.3127677177511,0,0,0,0,1,0,0,0,1,0
170,170,170,1.18414,388.9298093032213,2.529622414050703,299.8404411679181,0,0,0,0,1,0,0,0,1,0
171,171,171,1.18416,388.78252427376015,2.5339896244269458,300.35627743087207,0,0,0,0,1,0,0,0,1,0
172,172,172,1.18418,388.63529503910127,2.5382567818272608,300.86025614229,0,0,0,0,1,0,0,0,1,0
173,173,173,1.1842,388.4881215777543,2.542423717797416,301.35235740594624,0,0,0,0,1,0,0,0,1,0
174,174,174,1.18422,388.3410038682379,2.5464902678397427,301.83256179453434,0,0,0,0,1,0,0,0,1,0
175,175,175,1.18424,388.1939418890764,2.5504562714196424,302.30085035039855,0,0,0,0,1,0,0,0,1,0
176,176,176,1.18426,388.0469356188033,2.554321571971906,302.7572045863131,0,0,0,0,1,0,0,0,1,0
177,177,177,1.18428,387.8999850359589,2.558086016906916,303.20160648620185,0,0,0,0,1,0,0,0,1,0
178,178,178,1.1843,387.7530901190915,2.561749457616653,303.63403850581903,0,0,0,0,1,0,0,0,1,0
179,179,179,1.18432,387.60625084675576,2.5653117494805686,304.0544835735123,0,0,0,0,1,0,0,0,1,0
180,180,180,1.18434,387.4594671975164,2.568772751871303,304.46292509081104,0,0,0,0,1,0,0,0,1,0
181,181,181,1.18436,387.31273914994256,2.5721323281602206,304.8593469331514,0,0,0,0,1,0,0,0,1,0
182,182,182,1.18438,387.166066682614,2.5753903457228207,305.2437334504812,0,0,0,0,1,0,0,0,1,0
183,183,183,1.1844,387.0194497741165,2.578546675943956,305.61606946787185,0,0,0,0,1,0,0,0,1,0
184,184,184,1.18442,386.8728884030437,2.5816011942229227,305.9763402861418,0,0,0,0,1,0,0,0,1,0
185,185,185,1.18444,386.7263825479969,2.584553779978382,306.32453168240943,0,0,0,0,1,0,0,0,1,0
186,186,186,1.1844599999999998,386.57993218758605,2.587404316653104,306.660629910678,0,0,0,0,1,0,0,0,1,0
187,187,187,1.18448,386.4335373004273,2.590152691718586,306.98462170236763,0,0,0,0,1,0,0,0,1,0
188,188,188,1.1845,386.28719786514506,2.592798796679492,307.2964942668316,0,0,0,0,1,0,0,0,1,0
189,189,189,1.18452,386.140913860372,2.595342527077921,307.5962352918804,0,0,0,0,1,0,0,0,1,0
190,190,190,1.18454,385.99468526474726,2.597783782497551,307.8838329442464,0,0,0,0,1,0,0,0,1,0
191,191,191,1.18456,385.8485120569189,2.6001224665675964,308.15927587007184,0,0,0,0,1,0,0,0,1,0
192,192,192,1.18458,385.7023942155429,2.6023584869666,308.4225531953366,0,0,0,0,1,0,0,0,1,0
193,193,193,1.1846,385.5563317192824,2.6044917554261,308.6736545263054,0,0,0,0,1,0,0,0,1,0
194,194,194,1.18462,385.4103245468074,2.6065221877340976,308.91256994992966,0,0,0,0,1,0,0,0,1,0
195,195,195,1.18464,385.2643726767977,2.608449703738383,309.1392900342332,0,0,0,0,1,0,0,0,1,0
196,196,196,1.18466,385.11847608793926,2.6102742273497115,309.3538058286994,0,0,0,0,1,0,0,0,1,0
197,197,197,1.18468,384.9726347589264,2.6119956865448004,309.5561088646082,0,0,0,0,1,0,0,0,1,0
198,198,198,1.1847,384.82684866846125,2.613614013369159,309.74619115538405,0,0,0,0,1,0,0,0,1,0
199,199,199,1.18472,384.681117795254,2.615129143939796,309.9240451969052,0,0,0,0,1,0,0,0,1,0
