,Unnamed: 0.1,Unnamed: 0,Time / s,Vo:Measured voltage,IL:Measured current,Vin:Measured voltage,open1:Output,open3:Output,open2:Output,open4:Output,short1:Output,short2:Output,short3:Output,short4:Output,OPEN,SHORT
0,0,0,1.153574548049472,390.7395965125826,-11.585158479252335,-279.8292430636451,0,0,0,0,0,0,0,0,0,0
1,1,1,1.15358,390.843482993617,-11.612038055993404,-280.67821769149214,0,0,0,0,0,0,0,0,0,0
2,2,2,1.1536,390.9489856782014,-11.599400619955196,-281.51611162389526,0,0,0,0,0,0,0,0,0,0
3,3,3,1.15362,391.05444958624247,-11.611977399588552,-282.34289178224424,0,0,0,0,0,0,0,0,0,0
4,4,4,1.15364,391.16042063275415,-11.649389416759147,-283.1585255266816,0,0,0,0,0,0,0,0,0,0
5,5,5,1.15366,391.2674361053161,-11.711243649657607,-283.96298065736886,0,0,0,0,0,0,0,0,0,0
6,6,6,1.15368,391.3760243634576,-11.797133259464871,-284.7562254158095,0,0,0,0,0,0,0,0,0,0
7,7,7,1.1537,391.48864319507993,-11.776173934630462,-285.5382284860443,0,0,0,0,0,0,0,0,0,0
8,8,8,1.15372,391.6010129527888,-11.778358151962877,-286.3089589959384,0,0,0,0,0,0,0,0,0,0
9,9,9,1.15374,391.7136414285008,-11.803307449751268,-287.0683865183776,0,0,0,0,0,0,0,0,0,0
10,10,10,1.15376,391.8270277046991,-11.850630143246375,-287.81648107245013,0,0,0,0,0,0,0,0,0,0
11,11,11,1.15378,391.9416618678271,-11.91992155616165,-288.55321312467737,0,0,0,0,0,0,0,0,0,0
12,12,12,1.1538,392.0580247269869,-12.010764259101522,-289.278553590126,0,0,0,0,0,0,0,0,0,0
13,13,13,1.1538199999999998,392.1789606701252,-11.992035474141185,-289.99247383360324,0,0,0,0,0,0,0,0,0,0
14,14,14,1.15384,392.2996637759808,-11.99393480957051,-290.6949456707666,0,0,0,0,0,0,0,0,0,0
15,15,15,1.15386,392.42059232040623,-12.016078489623014,-291.385941369218,0,0,0,0,0,0,0,0,0,0
16,16,16,1.15388,392.54219566557,-12.058070660699991,-292.065433649643,0,0,0,0,0,0,0,0,0,0
17,17,17,1.1539,392.6649139952145,-12.119503630674195,-292.7333956868376,0,0,0,0,0,0,0,0,0,0
18,18,18,1.15392,392.7898113829655,-12.13451020916146,-293.38980111081617,0,0,0,0,0,0,0,0,0,0
19,19,19,1.15394,392.9165777475732,-12.102625186759097,-294.03462400780484,0,0,0,0,0,0,0,0,0,0
20,20,20,1.15396,393.04277879145326,-12.088881565747906,-294.6678389213057,0,0,0,0,0,0,0,0,0,0
21,21,21,1.15398,393.1688226528975,-12.092899511730389,-295.2894208530838,0,0,0,0,0,0,0,0,0,0
22,22,22,1.154,393.2951085605056,-12.114288304198253,-295.8993452641375,0,0,0,0,0,0,0,0,0,0
23,23,23,1.15402,393.42202659193583,-12.152646578523772,-296.4975880757064,0,0,0,0,0,0,0,0,0,0
24,24,24,1.15404,393.5499574383073,-12.207562573923514,-297.084125670178,0,0,0,0,0,0,0,0,0,0
25,25,25,1.15406,393.6792721743989,-12.278614387250071,-297.6589348920577,0,0,0,0,0,0,0,0,0,0
26,26,26,1.15408,393.8103320347635,-12.365370232464905,-298.22199304886664,0,0,0,0,0,0,0,0,0,0
27,27,27,1.1541,393.9434881958866,-12.467388705641111,-298.7732779120229,0,0,0,0,0,0,0,0,0,0
28,28,28,1.15412,394.08153793017175,-12.452893628984336,-299.3127677177587,0,0,0,0,0,0,0,0,0,0
29,29,29,1.15414,394.2193675508651,-12.452691506589758,-299.84044116792074,0,0,0,0,0,0,0,0,0,0
30,30,30,1.15416,394.3573017173742,-12.466388427424969,-300.3562774308701,0,0,0,0,0,0,0,0,0,0
31,31,31,1.15418,394.4956557945915,-12.493581718326956,-300.8602561422926,0,0,0,0,0,0,0,0,0,0
32,32,32,1.1542,394.63615422783727,-12.468104420743137,-301.35235740594874,0,0,0,0,0,0,0,0,0,0
33,33,33,1.15422,394.7761571053432,-12.45525803415924,-301.8325617945368,0,0,0,0,0,0,0,0,0,0
34,34,34,1.15424,394.91595284916025,-12.454653643633469,-302.30085035040094,0,0,0,0,0,0,0,0,0,0
35,35,35,1.1542599999999998,395.0558206667802,-12.46589450325861,-302.75720458631537,0,0,0,0,0,0,0,0,0,0
36,36,36,1.15428,395.1960303760528,-12.48857628967451,-303.2016064862002,0,0,0,0,0,0,0,0,0,0
37,37,37,1.1543,395.3374893552577,-12.456415734960508,-303.6340385058212,0,0,0,0,0,0,0,0,0,0
38,38,38,1.15432,395.4776269423379,-12.500745517543884,-304.05448357351065,0,0,0,0,0,0,0,0,0,0
39,39,39,1.15434,395.6195077705552,-12.48938073804094,-304.4629250908095,0,0,0,0,0,0,0,0,0,0
40,40,40,1.15436,395.76118475890223,-12.487792403727545,-304.8593469331534,0,0,0,0,0,0,0,0,0,0
41,41,41,1.15438,395.90288140549865,-12.495581205261471,-305.2437334504797,0,0,0,0,0,0,0,0,0,0
42,42,42,1.1544,396.0448117367218,-12.512341735203174,-305.61606946787043,0,0,0,0,0,0,0,0,0,0
43,43,43,1.15442,396.18718017156937,-12.537662749183204,-305.97634028614044,0,0,0,0,0,0,0,0,0,0
44,44,44,1.15444,396.33018139221065,-12.571127430470934,-306.32453168240806,0,0,0,0,0,0,0,0,0,0
45,45,45,1.15446,396.4740002207921,-12.61231365778458,-306.66062991067963,0,0,0,0,0,0,0,0,0,0
46,46,46,1.15448,396.6188115025802,-12.66079427617954,-306.9846217023664,0,0,0,0,0,0,0,0,0,0
47,47,47,1.1545,396.76477999549576,-12.7161373708513,-307.29649426683034,0,0,0,0,0,0,0,0,0,0
48,48,48,1.15452,396.9120602661148,-12.777906543686733,-307.5962352918792,0,0,0,0,0,0,0,0,0,0
49,49,49,1.15454,397.06079659218784,-12.845661192396248,-307.8838329442453,0,0,0,0,0,0,0,0,0,0
50,50,50,1.15456,397.2111228717381,-12.918956792058252,-308.1592758700708,0,0,0,0,0,0,0,0,0,0
51,51,51,1.15458,397.3648191830042,-12.93113648827078,-308.42255319533564,0,0,0,0,0,0,0,0,0,0
52,52,52,1.1545999999999998,397.5180194162775,-12.947913161029206,-308.67365452630446,0,0,0,0,0,0,0,0,0,0
53,53,53,1.15462,397.673257426362,-12.902632803093557,-308.91256994992875,0,0,0,0,0,0,0,0,0,0
54,54,54,1.15464,397.8257664601522,-12.92738026226646,-309.1392900342324,0,0,0,0,0,0,0,0,0,0
55,55,55,1.15466,397.98048886921606,-12.889221388368524,-309.3538058286986,0,0,0,0,0,0,0,0,0,0
56,56,56,1.15468,398.1342866060064,-12.854001607667993,-309.55610886460744,0,0,0,0,0,0,0,0,0,0
57,57,57,1.1546999999999998,398.2855862344306,-12.887699285901402,-309.74619115538326,0,0,0,0,0,0,0,0,0,0
58,58,58,1.15472,398.4392904476575,-12.857220456872856,-309.92404519690604,0,0,0,0,0,0,0,0,0,0
59,59,59,1.15474,398.5922376722777,-12.828481993615448,-310.08966396779465,0,0,0,0,0,0,0,0,0,0
60,60,60,1.15476,398.74361282071294,-12.867534927907826,-310.2430409297127,0,0,0,0,0,0,0,0,0,0
61,61,61,1.15478,398.89671774264366,-12.84110638645588,-310.38417002759326,0,0,0,0,0,0,0,0,0,0
62,62,62,1.1548,399.0475102795614,-12.881697568311893,-310.5130456899051,0,0,0,0,0,0,0,0,0,0
63,63,63,1.15482,399.20084476400393,-12.855955344175188,-310.62966282885554,0,0,0,0,0,0,0,0,0,0
64,64,64,1.15484,399.3535102421208,-12.829919873267412,-310.7340168406007,0,0,0,0,0,0,0,0,0,0
65,65,65,1.15486,399.5046453044833,-12.869766628717402,-310.82610360542384,0,0,0,0,0,0,0,0,0,0
66,66,66,1.15488,399.6575030502337,-12.841967888626456,-310.9059194878953,0,0,0,0,0,0,0,0,0,0
67,67,67,1.1549,399.8087780036808,-12.87927978328038,-310.97346133702223,0,0,0,0,0,0,0,0,0,0
68,68,68,1.15492,399.96170684226297,-12.848074684717696,-311.0287264863669,0,0,0,0,0,0,0,0,0,0
69,69,69,1.15494,400.11296274211287,-12.881212037210371,-311.0717127541564,0,0,0,0,0,0,0,0,0,0
70,70,70,1.15496,400.2657641149023,-12.844965309870378,-311.10241844336684,0,0,0,0,0,0,0,0,0,0
71,71,71,1.15498,400.4167653666367,-12.87229832842573,-311.1208423417896,0,0,0,0,0,0,0,0,0,0
72,72,72,1.155,400.567525313045,-12.896129720761726,-311.12698372208087,0,0,0,0,0,0,0,0,0,0
73,73,73,1.15502,400.7187427141226,-12.916058730650272,-311.1208423417896,0,0,0,0,0,0,0,0,0,0
74,74,74,1.1550399999999998,400.8719647872754,-12.864872302123372,-311.102418443367,0,0,0,0,0,0,0,0,0,0
75,75,75,1.15506,401.0230134176784,-12.875723975785805,-311.0717127541567,0,0,0,0,0,0,0,0,0,0
76,76,76,1.15508,401.1742000805033,-12.881442687473497,-311.02872648636725,0,0,0,0,0,0,0,0,0,0
77,77,77,1.1551,401.32539934278486,-12.881617544685572,-310.97346133702206,0,0,0,0,0,0,0,0,0,0
78,78,78,1.15512,401.4764762112488,-12.875841114278192,-310.9059194878958,0,0,0,0,0,0,0,0,0,0
79,79,79,1.15514,401.6272862202354,-12.863709684204323,-310.82610360542367,0,0,0,0,0,0,0,0,0,0
80,80,80,1.15516,401.7760342440072,-12.911767858703875,-310.73401684060144,0,0,0,0,0,0,0,0,0,0
81,81,81,1.15518,401.9266280012064,-12.885747474214533,-310.62966282885634,0,0,0,0,0,0,0,0,0,0
82,82,82,1.1552,402.0756073637376,-12.919160809609874,-310.51304568990486,0,0,0,0,0,0,0,0,0,0
83,83,83,1.15522,402.2268646708519,-12.877628872006996,-310.3841700275942,0,0,0,0,0,0,0,0,0,0
84,84,84,1.15524,402.37535224850495,-12.894751204612184,-310.2430409297112,0,0,0,0,0,0,0,0,0,0
85,85,85,1.15526,402.5240819587245,-12.903149373511404,-310.08966396779726,0,0,0,0,0,0,0,0,0,0
86,86,86,1.15528,402.6728453717291,-12.902412339893036,-309.9240451969073,0,0,0,0,0,0,0,0,0,0
87,87,87,1.1553,402.8214246137232,-12.892134777320653,-309.7461911553846,0,0,0,0,0,0,0,0,0,0
88,88,88,1.15532,402.9695925067304,-12.87191732800498,-309.55610886460886,0,0,0,0,0,0,0,0,0,0
89,89,89,1.15534,403.1171127143176,-12.841366855382743,-309.3538058286982,0,0,0,0,0,0,0,0,0,0
90,90,90,1.15536,403.26373989310696,-12.800096692851795,-309.139290034234,0,0,0,0,0,0,0,0,0,0
91,91,91,1.15538,403.4092198499849,-12.747726888515194,-308.91256994993046,0,0,0,0,0,0,0,0,0,0
92,92,92,1.1554,403.55328970491576,-12.68388444578853,-308.6736545263062,0,0,0,0,0,0,0,0,0,0
93,93,93,1.15542,403.69567805926033,-12.608203559727924,-308.4225531953375,0,0,0,0,0,0,0,0,0,0
94,94,94,1.15544,403.8361051694857,-12.52032584893828,-308.1592758700703,0,0,0,0,0,0,0,0,0,0
95,95,95,1.15546,403.9722489626362,-12.554523877836765,-307.88383294424733,0,0,0,0,0,0,0,0,0,0
96,96,96,1.1554799999999998,404.1089811973412,-12.575878569221494,-307.5962352918814,0,0,0,0,0,0,0,0,0,0
97,97,97,1.1555,404.2460011119842,-12.583974879332157,-307.2964942668325,0,0,0,0,0,0,0,0,0,0
98,98,98,1.15552,404.3829985955314,-12.578405921865183,-306.9846217023688,0,0,0,0,0,0,0,0,0,0
99,99,99,1.15554,404.519654381789,-12.55877321768664,-306.66062991067906,0,0,0,0,0,0,0,0,0,0
100,100,100,1.15556,404.6548092160881,-12.592112795518004,-306.3245316824106,0,0,0,0,0,0,0,0,0,0
101,101,101,1.15558,404.79050604038406,-12.610636434671637,-305.9763402861398,0,0,0,0,0,0,0,0,0,0
102,102,102,1.1556,404.92640099822125,-12.61393315056344,-305.6160694678731,0,0,0,0,0,0,0,0,0,0
103,103,103,1.15562,405.0605234371621,-12.669093293930487,-305.24373345048247,0,0,0,0,0,0,0,0,0,0
104,104,104,1.15564,405.1965211152898,-12.640754882112386,-304.8593469331528,0,0,0,0,0,0,0,0,0,0
105,105,105,1.15566,405.3307837613448,-12.663532202251806,-304.46292509081246,0,0,0,0,0,0,0,0,0,0
106,106,106,1.15568,405.4653229958556,-12.6695330461054,-304.0544835735099,0,0,0,0,0,0,0,0,0,0
107,107,107,1.1557,405.5997529186175,-12.658356329766828,-303.6340385058244,0,0,0,0,0,0,0,0,0,0
108,108,108,1.15572,405.7336787787692,-12.629611306345158,-303.20160648620333,0,0,0,0,0,0,0,0,0,0
109,109,109,1.15574,405.8666972156936,-12.58291779914476,-302.75720458631866,0,0,0,0,0,0,0,0,0,0
110,110,110,1.15576,405.99839650506135,-12.517906428716843,-302.30085035040435,0,0,0,0,0,0,0,0,0,0
111,111,111,1.15578,406.1283568098581,-12.434218833656,-301.83256179453593,0,0,0,0,0,0,0,0,0,0
112,112,112,1.1558,406.2561504362727,-12.33150788501821,-301.35235740595226,0,0,0,0,0,0,0,0,0,0
113,113,113,1.1558199999999998,406.3793473032056,-12.344864535131013,-300.86025614229624,0,0,0,0,0,0,0,0,0,0
114,114,114,1.15584,406.5025768236604,-12.33857929211417,-300.35627743087844,0,0,0,0,0,0,0,0,0,0
115,115,115,1.15586,406.6253942134881,-12.3122629524503,-299.8404411679245,0,0,0,0,0,0,0,0,0,0
116,116,116,1.15588,406.747346262719,-12.265538092666208,-299.31276771775293,0,0,0,0,0,0,0,0,0,0
117,117,117,1.1559,406.86640127426153,-12.265832906042792,-298.77327791202686,0,0,0,0,0,0,0,0,0,0
118,118,118,1.15592,406.9843594112109,-12.312849414791732,-298.22199304886567,0,0,0,0,0,0,0,0,0,0
119,119,119,1.15594,407.1030757941791,-12.33840967419868,-297.65893489206184,0,0,0,0,0,0,0,0,0,0
120,120,120,1.15596,407.22207110249934,-12.342110922308173,-297.08412567018223,0,0,0,0,0,0,0,0,0,0
121,121,121,1.15598,407.3408574275666,-12.323562950063415,-296.49758807570544,0,0,0,0,0,0,0,0,0,0
122,122,122,1.156,407.458938556166,-12.282388321151087,-295.8993452641419,0,0,0,0,0,0,0,0,0,0
123,123,123,1.15602,407.5758102584805,-12.21822258484505,-295.2894208530828,0,0,0,0,0,0,0,0,0,0
124,124,124,1.15604,407.690960580617,-12.130714481736662,-294.6678389213103,0,0,0,0,0,0,0,0,0,0
125,125,125,1.15606,407.8025229588018,-12.087477411460812,-294.03462400780955,0,0,0,0,0,0,0,0,0,0
126,126,126,1.15608,407.9122241655469,-12.088231636453289,-293.38980111081503,0,0,0,0,0,0,0,0,0,0
127,127,127,1.1561,408.0216347742148,-12.064669266894718,-292.7333956868424,0,0,0,0,0,0,0,0,0,0
128,128,128,1.15612,408.1302203743477,-12.016420306869051,-292.0654336496418,0,0,0,0,0,0,0,0,0,0
129,129,129,1.15614,408.2374388372371,-11.943128584828118,-291.385941369223,0,0,0,0,0,0,0,0,0,0
130,130,130,1.15616,408.3404016054981,-11.980533521339106,-290.6949456707717,0,0,0,0,0,0,0,0,0,0
131,131,131,1.15618,408.4438540411571,-11.99226783317247,-289.99247383360847,0,0,0,0,0,0,0,0,0,0
132,132,132,1.1562,408.54723958549386,-11.977946924080912,-289.27855359013125,0,0,0,0,0,0,0,0,0,0
133,133,133,1.15622,408.6499937702589,-11.9372004323538,-288.55321312467606,0,0,0,0,0,0,0,0,0,0
134,134,134,1.15624,408.7515445290014,-11.869672427994796,-287.8164810724556,0,0,0,0,0,0,0,0,0,0
135,135,135,1.1562599999999998,408.84999830111445,-11.84314786891464,-287.06838651838314,0,0,0,0,0,0,0,0,0,0
136,136,136,1.15628,408.9469624477638,-11.857339546217046,-286.308958995944,0,0,0,0,0,0,0,0,0,0
137,137,137,1.1563,409.0438958672055,-11.843765136016527,-285.53822848605006,0,0,0,0,0,0,0,0,0,0
138,138,138,1.15632,409.1402057819012,-11.802058790250912,-284.75622541580816,0,0,0,0,0,0,0,0,0,0
139,139,139,1.15634,409.23529203839286,-11.731869636505554,-283.9629806573747,0,0,0,0,0,0,0,0,0,0
140,140,140,1.15636,409.32854742964633,-11.63286195967151,-283.15852552668014,0,0,0,0,0,0,0,0,0,0
141,141,141,1.15638,409.41786290356094,-11.572935166243855,-282.3428917822503,0,0,0,0,0,0,0,0,0,0
142,142,142,1.1564,409.5047927085732,-11.551827125417752,-281.51611162390134,0,0,0,0,0,0,0,0,0,0
143,143,143,1.15642,409.590937448213,-11.500986540711184,-280.6782176914831,0,0,0,0,0,0,0,0,0,0
144,144,144,1.15644,409.6738391033194,-11.556600038779235,-279.82924306365135,0,0,0,0,0,0,0,0,0,0
145,145,145,1.15646,409.7581166774788,-11.5135585765886,-278.9692212564247,0,0,0,0,0,0,0,0,0,0
146,146,146,1.15648,409.8405827811469,-11.50805261880856,-278.0981862220302,0,0,0,0,0,0,0,0,0,0
147,147,147,1.1565,409.9225831897123,-11.471466100525626,-277.2161723474241,0,0,0,0,0,0,0,0,0,0
148,148,148,1.15652,410.00347416215175,-11.403454811078063,-276.32321445299584,0,0,0,0,0,0,0,0,0,0
149,149,149,1.15654,410.0826052730379,-11.303690411402869,-275.41934779121016,0,0,0,0,0,0,0,0,0,0
150,150,150,1.15656,410.1578610939034,-11.240204162564304,-274.50460804515893,0,0,0,0,0,0,0,0,0,0
151,151,151,1.15658,180.9854971093944,-14.287324652204724,-273.57903132721754,0,0,0,0,0,0,0,1,0,1
152,152,152,1.1566,8.739362535587166,-23.40791424183436,-272.6426541775618,0,0,0,0,0,0,0,1,0,1
153,153,153,1.15662,0.4195480213674177,-32.480969346517604,-271.6955135627496,0,0,0,0,0,0,0,1,0,1
154,154,154,1.15664,0.019695078217845,-41.52155009274909,-270.7376468742878,0,0,0,0,0,0,0,1,0,1
155,155,155,1.15666,0.0009681902537162,-50.53002382071893,-269.7690919270957,0,0,0,0,0,0,0,1,0,1
156,156,156,1.15668,9.921347833302336e-05,-59.50603449634686,-268.78988695808187,0,0,0,0,0,0,0,1,0,1
157,157,157,1.1566999999999998,6.844893212165312e-05,-68.4492275572996,-267.80007062457304,0,0,0,0,0,0,0,1,0,1
158,158,158,1.15672,7.735895586971075e-05,-77.35925031629564,-266.79968200281405,0,0,0,0,0,0,0,1,0,1
159,159,159,1.15674,8.623545738908222e-05,-86.23575083460045,-265.7887605864529,0,0,0,0,0,0,0,1,0,1
160,160,160,1.15676,9.507808625170164e-05,-95.07837868418773,-264.7673462849179,0,0,0,0,0,0,0,1,0,1
161,161,161,1.15678,0.0001038864933667,-103.88678477426691,-263.7354794219151,0,0,0,0,0,0,0,1,0,1
162,162,162,1.1568,0.0001126603309943,-112.66062136506362,-262.6932007337628,0,0,0,0,0,0,0,1,0,1
163,163,163,1.15682,0.0001213992527595,-121.3995420815478,-261.6405513678579,0,0,0,0,0,0,0,1,0,1
164,164,164,1.15684,0.0001301029136655,-130.1032019271086,-260.5775728809854,0,0,0,0,0,0,0,1,0,1
165,165,165,1.15686,0.0001387709701079,-138.7712572971742,-259.50430723770614,0,0,0,0,0,0,0,1,0,1
166,166,166,1.15688,0.0001474030798874,-147.40336599277634,-258.42079680872945,0,0,0,0,0,0,0,1,0,1
167,167,167,1.1569,0.0001559989022244,-155.99918723405918,-257.32708436917216,0,0,0,0,0,0,0,1,0,1
168,168,168,1.15692,0.0001645580977713,-164.55838167373517,-256.2232130969484,0,0,0,0,0,0,0,1,0,1
169,169,169,1.15694,0.0001730803286269,-173.08061141047838,-255.10922657099616,0,0,0,0,0,0,0,1,0,1
170,170,170,1.15696,0.0001815652583491,-181.56554000226697,-253.98516876958564,0,0,0,0,0,0,0,1,0,1
171,171,171,1.15698,0.0001900125519684,-190.0128324796642,-252.85108406861465,0,0,0,0,0,0,0,1,0,1
172,172,172,1.157,0.0001984218760012,-198.42215535904305,-251.70701723977427,0,0,0,0,0,0,0,1,0,1
173,173,173,1.15702,0.0002067928984627,-206.79317665575093,-250.55301344891592,0,0,0,0,0,0,0,1,0,1
174,174,174,1.1570399999999998,0.0002151252888803,-215.1255658972157,-249.38911825409173,0,0,0,0,0,0,0,1,0,1
175,175,175,1.15706,0.0002234187183065,-223.41899413599307,-248.2153776038802,0,0,0,0,0,0,0,1,0,1
176,176,176,1.15708,0.000231672859332,-231.6731339627525,-247.0318378355949,0,0,0,0,0,0,0,1,0,1
177,177,177,1.1571,0.0002398873860984,-239.88765951920297,-245.83854567332736,0,0,0,0,0,0,0,1,0,1
178,178,178,1.15712,0.0002480619743113,-248.0622465109564,-244.63554822623047,0,0,0,0,0,0,0,1,0,1
179,179,179,1.15714,0.0002561963012529,-256.1965722203313,-243.4228929865618,0,0,0,0,0,0,0,1,0,1
180,180,180,1.15716,0.000264290045795,-264.2903155190923,-242.20062782789583,0,0,0,0,0,0,0,1,0,1
181,181,181,1.15718,0.0002723428884114,-272.3431568811279,-240.96880100315715,0,0,0,0,0,0,0,1,0,1
182,182,182,1.1572,0.0002803545111906,-280.3547783950659,-239.72746114274835,0,0,0,0,0,0,0,1,0,1
183,183,183,1.15722,0.0002883245978487,-288.3248637768228,-238.47665725266407,0,0,0,0,0,0,0,1,0,1
184,184,184,1.15724,0.0002962528337411,-296.25309838208966,-237.21643871247755,0,0,0,0,0,0,0,1,0,1
185,185,185,1.15726,0.0003041389058757,-304.1391692187552,-235.94685527348167,0,0,0,0,0,0,0,1,0,1
186,186,186,1.15728,0.000311982502925,-311.9827649592626,-234.6679570566453,0,0,0,0,0,0,0,1,0,1
187,187,187,1.1573,0.0003197833152381,-319.7835759528974,-233.3797945506688,0,0,0,0,0,0,0,1,0,1
188,188,188,1.15732,0.0003275410348534,-327.5412942380136,-232.0824186100253,0,0,0,0,0,0,0,1,0,1
189,189,189,1.15734,0.0003352553555103,-335.255613554192,-230.775880452872,0,0,0,0,0,0,0,1,0,1
190,190,190,1.15736,0.0003429259726618,-342.9262293543319,-229.4602316591218,0,0,0,0,0,0,0,1,0,1
191,191,191,1.15738,0.000350552583486,-350.5528388166705,-228.13552416832468,0,0,0,0,0,0,0,1,0,1
192,192,192,1.1574,0.0003581348868984,-358.1351408567411,-226.80181027765195,0,0,0,0,0,0,0,1,0,1
193,193,193,1.15742,0.0003656725835636,-365.6728361392576,-225.45914263986847,0,0,0,0,0,0,0,1,0,1
194,194,194,1.15744,0.0003731653759073,-373.1656270899328,-224.10757426116925,0,0,0,0,0,0,0,1,0,1
195,195,195,1.15746,0.000380612968128,-380.6132179072248,-222.74715849918408,0,0,0,0,0,0,0,1,0,1
196,196,196,1.1574799999999998,0.0003880150662084,-388.015314574016,-221.37794906078565,0,0,0,0,0,0,0,1,0,1
197,197,197,1.1575,0.0003953713779274,-395.37162486922057,-220.00000000000568,0,0,0,0,0,0,0,1,0,1
198,198,198,1.15752,0.0004026816128714,-402.68185837931935,-218.6133657159385,0,0,0,0,0,0,0,1,0,1
199,199,199,1.15754,0.0004099454824459,-409.94572650982576,-217.21810095050628,0,0,0,0,0,0,0,1,0,1
200,200,200,1.15756,0.0004171626998868,-417.16294249667936,-215.81426078639817,0,0,0,0,0,0,0,1,0,1
201,201,201,1.157574548049472,0.0004171626998868,-417.16294249667936,-215.81426078639817,0,0,0,0,0,0,0,1,0,1
