,Unnamed: 0.1,Unnamed: 0,Time / s,Vo:Measured voltage,IL:Measured current,Vin:Measured voltage,open1:Output,open3:Output,open2:Output,open4:Output,short1:Output,short2:Output,short3:Output,short4:Output,OPEN,SHORT
0,0,0,1.128075904135756,410.8058129597481,7.3951507234708656,178.0990806218837,0,0,0,0,0,0,0,0,0,0
1,1,1,1.12808,410.74771320038747,7.27891555112333,176.49267710099895,0,0,0,0,0,0,0,0,0,0
2,2,2,1.1281,410.686785917091,7.178346959973444,174.87930595145522,0,0,0,0,0,0,0,0,0,0
3,3,3,1.12812,410.6229504595301,7.161663413812931,173.25903086633926,0,0,0,0,0,0,0,0,0,0
4,4,4,1.12814,410.5582594038,7.160193361706785,171.6319158113663,0,0,0,0,0,0,0,0,0,0
5,5,5,1.12816,410.4932378353254,7.105285830448575,169.9980250222233,0,0,0,0,0,0,0,0,0,0
6,6,6,1.12818,410.4272045918633,6.99673578102432,168.35742300215043,0,0,0,0,0,0,0,0,0,0
7,7,7,1.1282,410.3594762345997,6.8343499198349,166.71017451929157,0,0,0,0,0,0,0,0,0,0
8,8,8,1.12822,410.2872839068693,6.823068739137842,165.05634460418133,0,0,0,0,0,0,0,0,0,0
9,9,9,1.12824,410.21433583133006,6.825900049216048,163.39599854722283,0,0,0,0,0,0,0,0,0,0
10,10,10,1.12826,410.1411231787815,6.774257496977775,161.72920189600538,0,0,0,0,0,0,0,0,0,0
11,11,11,1.12828,410.0669847048254,6.667946007304316,160.0560204528369,0,0,0,0,0,0,0,0,0,0
12,12,12,1.1283,409.99125711827793,6.506781570986705,158.37652027204084,0,0,0,0,0,0,0,0,0,0
13,13,13,1.12832,409.9112956705396,6.49552669027694,156.69076765739322,0,0,0,0,0,0,0,0,0,0
14,14,14,1.12834,409.8306085350529,6.4973139818522565,154.99882915955132,0,0,0,0,0,0,0,0,0,0
15,15,15,1.12836,409.749656648872,6.443629694625337,153.3007715733194,0,0,0,0,0,0,0,0,0,0
16,16,16,1.12838,409.6678004121652,6.334289861751218,151.59666193513408,0,0,0,0,0,0,0,0,0,0
17,17,17,1.1283999999999998,409.5843984089745,6.1691209050913365,149.88656752031068,0,0,0,0,0,0,0,0,0,0
18,18,18,1.12842,409.4973667305676,6.08444433155096,148.170555840433,0,0,0,0,0,0,0,0,0,0
19,19,19,1.12844,409.408411615797,6.080035526537162,146.4486946407349,0,0,0,0,0,0,0,0,0,0
20,20,20,1.12846,409.3191377342213,6.01921064908672,144.72105189731712,0,0,0,0,0,0,0,0,0,0
21,21,21,1.12848,409.2289289384912,5.9017976920344095,142.9876958145882,0,0,0,0,0,0,0,0,0,0
22,22,22,1.1285,409.1371674913621,5.7276343645304255,141.24869482244696,0,0,0,0,0,0,0,0,0,0
23,23,23,1.12852,409.0416459212077,5.7010728942460345,139.5041175737064,0,0,0,0,0,0,0,0,0,0
24,24,24,1.12854,408.94519900185406,5.6855337615926524,137.75403294127338,0,0,0,0,0,0,0,0,0,0
25,25,25,1.12856,408.8483364481186,5.612672355233294,135.99851001546077,0,0,0,0,0,0,0,0,0,0
26,26,26,1.12858,408.7504671163373,5.482329241214395,134.23761810138717,0,0,0,0,0,0,0,0,0,0
27,27,27,1.1286,408.650417470332,5.362456831832615,132.4714267159547,0,0,0,0,0,0,0,0,0,0
28,28,28,1.12862,408.5476130649411,5.3890432722137485,130.70000558545485,0,0,0,0,0,0,0,0,0,0
29,29,29,1.12864,408.4448270087505,5.357592799248128,128.92342464252877,0,0,0,0,0,0,0,0,0,0
30,30,30,1.12866,408.3414958699584,5.267950568754054,127.14175402353398,0,0,0,0,0,0,0,0,0,0
31,31,31,1.12868,408.2370549694638,5.119970128593756,125.35506406580802,0,0,0,0,0,0,0,0,0,0
32,32,32,1.1287,408.1301595457388,5.04954955667063,123.5634253047788,0,0,0,0,0,0,0,0,0,0
33,33,33,1.12872,408.02172782162165,4.988455139116983,121.76690847130924,0,0,0,0,0,0,0,0,0,0
34,34,34,1.12874,407.9121749624126,4.9365061197940285,119.96558448879162,0,0,0,0,0,0,0,0,0,0
35,35,35,1.12876,407.801926096267,4.82555151078092,118.15952447039606,0,0,0,0,0,0,0,0,0,0
36,36,36,1.12878,407.68969553417134,4.791347976313932,116.34879971631226,0,0,0,0,0,0,0,0,0,0
37,37,37,1.1288,407.57694772732486,4.697812376606899,114.53348171082033,0,0,0,0,0,0,0,0,0,0
38,38,38,1.12882,407.4622578918059,4.680626847605137,112.71364211959958,0,0,0,0,0,0,0,0,0,0
39,39,39,1.1288399999999998,407.3472153445583,4.603788708728432,110.8893527867847,0,0,0,0,0,0,0,0,0,0
40,40,40,1.12886,407.2313136334503,4.467170822107917,109.06068573217824,0,0,0,0,0,0,0,0,0,0
41,41,41,1.12888,407.113354422068,4.406351942823317,107.22771314845744,0,0,0,0,0,0,0,0,0,0
42,42,42,1.1289,406.9946979503792,4.285449814964605,105.39050739820816,0,0,0,0,0,0,0,0,0,0
43,43,43,1.12892,406.8740481694877,4.239965320421449,103.5491410112009,0,0,0,0,0,0,0,0,0,0
44,44,44,1.12894,406.7523825029567,4.20188782369264,101.70368668139436,0,0,0,0,0,0,0,0,0,0
45,45,45,1.12896,406.6300276456012,4.1710515396500725,99.85421726419898,0,0,0,0,0,0,0,0,0,0
46,46,46,1.12898,406.5072569991996,4.07953677343442,98.00080577348382,0,0,0,0,0,0,0,0,0,0
47,47,47,1.129,406.3836107059902,3.927233905799369,96.1435253787442,0,0,0,0,0,0,0,0,0,0
48,48,48,1.12902,406.2579061230025,3.849452962818793,94.28244940226352,0,0,0,0,0,0,0,0,0,0
49,49,49,1.12904,406.1308475983873,3.845982210866372,92.417651316101,0,0,0,0,0,0,0,0,0,0
50,50,50,1.12906,406.00360078492287,3.781273887219907,90.54920473932576,0,0,0,0,0,0,0,0,0,0
51,51,51,1.12908,405.8757386721257,3.6552264155176575,88.67718343499254,0,0,0,0,0,0,0,0,0,0
52,52,52,1.1291,405.74638995342895,3.535364142636255,86.80166130728,0,0,0,0,0,0,0,0,0,0
53,53,53,1.12912,405.6152799036863,3.5567426905117103,84.92271239862427,0,0,0,0,0,0,0,0,0,0
54,54,54,1.12914,405.4841600745907,3.516353658512456,83.04041088665997,0,0,0,0,0,0,0,0,0,0
55,55,55,1.12916,405.3526371815129,3.4141042539258826,81.15483108151292,0,0,0,0,0,0,0,0,0,0
56,56,56,1.12918,405.2203175150625,3.24990694144594,79.2660474225771,0,0,0,0,0,0,0,0,0,0
57,57,57,1.1292,405.08586138991393,3.226215265227863,77.37413447578001,0,0,0,0,0,0,0,0,0,0
58,58,58,1.12922,404.950964307712,3.2077898110044867,75.47916693067381,0,0,0,0,0,0,0,0,0,0
59,59,59,1.12924,404.8158337414197,3.127017237976938,73.58121959728102,0,0,0,0,0,0,0,0,0,0
60,60,60,1.12926,404.680110651894,2.9838189283862206,71.68036740334696,0,0,0,0,0,0,0,0,0,0
61,61,61,1.1292799999999998,404.54311492939576,2.8455422714631387,69.77668539124429,0,0,0,0,0,0,0,0,0,0
62,62,62,1.1293,404.4047493892624,2.7794558756509247,67.87024871506195,0,0,0,0,0,0,0,0,0,0
63,63,63,1.12932,404.2657537161908,2.717989425018662,65.96113263769008,0,0,0,0,0,0,0,0,0,0
64,64,64,1.12934,404.12633304392153,2.5936565972303742,64.04941252772794,0,0,0,0,0,0,0,0,0,0
65,65,65,1.12936,403.98588606877456,2.4737213876462527,62.135163856646656,0,0,0,0,0,0,0,0,0,0
66,66,66,1.12938,403.8443323528496,2.425366242896101,60.21846219567144,0,0,0,0,0,0,0,0,0,0
67,67,67,1.1294,403.70231619213513,2.381119831042788,58.2993832129366,0,0,0,0,0,0,0,0,0,0
68,68,68,1.12942,403.5600096966496,2.2735977697803222,56.37800267037706,0,0,0,0,0,0,0,0,0,0
69,69,69,1.12944,403.4167667679809,2.237215957198632,54.45439642078932,0,0,0,0,0,0,0,0,0,0
70,70,70,1.12946,403.2732891807796,2.137366353711698,52.528640404889146,0,0,0,0,0,0,0,0,0,0
71,71,71,1.12948,403.1290593436416,2.0411846215574707,50.60081064819178,0,0,0,0,0,0,0,0,0,0
72,72,72,1.1295,402.98425213601365,1.9485600967494048,48.67098325814996,0,0,0,0,0,0,0,0,0,0
73,73,73,1.12952,402.8387014777008,1.9265194048218204,46.739234421027184,0,0,0,0,0,0,0,0,0,0
74,74,74,1.12954,402.6930097953016,1.84065436966118,44.805640398942366,0,0,0,0,0,0,0,0,0,0
75,75,75,1.12956,402.5469450229165,1.6909245132084454,42.87027752691165,0,0,0,0,0,0,0,0,0,0
76,76,76,1.12958,402.39981371387466,1.67849132712873,40.933222209712326,0,0,0,0,0,0,0,0,0,0
77,77,77,1.1296,402.2525076552967,1.6690341047695387,38.99455091900659,0,0,0,0,0,0,0,0,0,0
78,78,78,1.1296199999999998,402.1051315647941,1.5954321893442027,37.05434019019995,0,0,0,0,0,0,0,0,0,0
79,79,79,1.12964,401.9574910811489,1.4576553480909764,35.11266661947223,0,0,0,0,0,0,0,0,0,0
80,80,80,1.12966,401.80924251728567,1.3226439592261257,33.16960686080646,0,0,0,0,0,0,0,0,0,0
81,81,81,1.12968,401.66029318167335,1.3241945872636172,31.225237622839707,0,0,0,0,0,0,0,0,0,0
82,82,82,1.1297,401.51132593707456,1.261318746872663,29.27963566597537,0,0,0,0,0,0,0,0,0,0
83,83,83,1.12972,401.3621846098148,1.1339966440003026,27.33287779919448,0,0,0,0,0,0,0,0,0,0
84,84,84,1.12974,401.2125998633922,1.0090798089769066,25.385040877234683,0,0,0,0,0,0,0,0,0,0
85,85,85,1.12976,401.0625697905194,0.9533298565289592,23.43620179734485,0,0,0,0,0,0,0,0,0,0
86,86,86,1.12978,400.9123762594395,0.8997759732371443,21.48643749628436,0,0,0,0,0,0,0,0,0,0
87,87,87,1.1298,400.7620834672397,0.7815429797001634,19.535824947497463,0,0,0,0,0,0,0,0,0,0
88,88,88,1.12982,400.6114664650371,0.7321635249937226,17.584441157774677,0,0,0,0,0,0,0,0,0,0
89,89,89,1.12984,400.4607823851434,0.6180031247465864,15.632363164442026,0,0,0,0,0,0,0,0,0,0
90,90,90,1.12986,400.3098501693522,0.5724992799259802,13.679668032178542,0,0,0,0,0,0,0,0,0,0
91,91,91,1.12988,400.1588806566528,0.4621225845242194,11.72643285002682,0,0,0,0,0,0,0,0,0,0
92,92,92,1.1299,400.0077413621125,0.420215573212799,9.772734728402725,0,0,0,0,0,0,0,0,0,0
93,93,93,1.12992,399.85659154699806,0.3133538370923275,7.818650795927472,0,0,0,0,0,0,0,0,0,0
94,94,94,1.12994,399.7053531598504,0.2081649277631943,5.864258196524153,0,0,0,0,0,0,0,0,0,0
95,95,95,1.12996,399.5540611454332,0.1711839455837633,3.909634086248455,0,0,0,0,0,0,0,0,0,0
96,96,96,1.12998,399.4027919842184,0.1357138778723478,1.9548556302957127,0,0,0,0,0,0,0,0,0,0
97,97,97,1.13,399.2515594543058,0.0351558888288484,7.621568784343005e-12,0,0,0,0,0,0,0,0,0,0
98,98,98,1.13002,399.100356441741,0.0025667576140148,-1.954855630298156,0,0,0,0,0,0,0,0,0,0
99,99,99,1.13004,398.9492106924823,-0.0951617580198765,-3.9096340862332126,0,0,0,0,0,0,0,0,0,0
100,100,100,1.1300599999999998,398.7981420840272,-0.1250664373253413,-5.864258196508913,0,0,0,0,0,0,0,0,0,0
101,101,101,1.13008,398.6471447378244,-0.2201512769381718,-7.818650795929916,0,0,0,0,0,0,0,0,0,0
102,102,102,1.1301,398.4962383705844,-0.3803857423460648,-9.772734728387489,0,0,0,0,0,0,0,0,0,0
103,103,103,1.13012,398.3455292828252,-0.5393467618925721,-11.726432850029262,0,0,0,0,0,0,0,0,0,0
104,104,104,1.13014,398.1951360979312,-0.5643343828179168,-13.679668032163312,0,0,0,0,0,0,0,0,0,0
105,105,105,1.13016,398.0448474477235,-0.6545527246448956,-15.632363164444463,0,0,0,0,0,0,0,0,0,0
106,106,106,1.13018,397.894839596727,-0.7436467497357968,-17.584441157777114,0,0,0,0,0,0,0,0,0,0
107,107,107,1.1302,397.7450999037106,-0.8316429984186842,-19.535824947482247,0,0,0,0,0,0,0,0,0,0
108,108,108,1.13022,397.5956555393969,-0.9185673005002608,-21.48643749628679,0,0,0,0,0,0,0,0,0,0
109,109,109,1.13024,397.4464759888787,-1.004440593138444,-23.436201797312016,0,0,0,0,0,0,0,0,0,0
110,110,110,1.13026,397.2977918031234,-1.0230705092922074,-25.38504087723712,0,0,0,0,0,0,0,0,0,0
111,111,111,1.13028,397.1492570894813,-1.106926422568359,-27.33287779919691,0,0,0,0,0,0,0,0,0,0
112,112,112,1.1303,397.0009903114647,-1.2559527996811437,-29.27963566594259,0,0,0,0,0,0,0,0,0,0
113,113,113,1.13032,396.8533100895119,-1.3378049105945606,-31.225237622842137,0,0,0,0,0,0,0,0,0,0
114,114,114,1.13034,396.7062655102168,-1.3525656767664598,-33.16960686077372,0,0,0,0,0,0,0,0,0,0
115,115,115,1.13036,396.5593913898342,-1.432494549343042,-35.11266661947466,0,0,0,0,0,0,0,0,0,0
116,116,116,1.13038,396.4128455381952,-1.5775259604588934,-37.05434019018481,0,0,0,0,0,0,0,0,0,0
117,117,117,1.1303999999999998,396.2673541411263,-1.5894611833028784,-38.994550918991465,0,0,0,0,0,0,0,0,0,0
118,118,118,1.13042,396.1221006853636,-1.6004693537761334,-40.933222209714735,0,0,0,0,0,0,0,0,0,0
119,119,119,1.13044,395.9770341815913,-1.6765440433881178,-42.87027752689655,0,0,0,0,0,0,0,0,0,0
120,120,120,1.13046,395.8323515790733,-1.8176096514383688,-44.80564039894479,0,0,0,0,0,0,0,0,0,0
121,121,121,1.13048,395.6885446386459,-1.9576424969847763,-46.739234421012114,0,0,0,0,0,0,0,0,0,0
122,122,122,1.1304999999999998,395.5457374383543,-2.030701907885616,-48.67098325813491,0,0,0,0,0,0,0,0,0,0
123,123,123,1.13052,395.40343621648543,-2.102734621106038,-50.6008106481942,0,0,0,0,0,0,0,0,0,0
124,124,124,1.13054,395.261568659831,-2.239599615783941,-52.528640404874125,0,0,0,0,0,0,0,0,0,0
125,125,125,1.13056,395.1209359554024,-2.309505647292289,-54.45439642079172,0,0,0,0,0,0,0,0,0,0
126,126,126,1.13058,394.9809968796937,-2.378317993545858,-56.37800267036207,0,0,0,0,0,0,0,0,0,0
127,127,127,1.1306,394.8416243948443,-2.446005176514824,-58.299383212939,0,0,0,0,0,0,0,0,0,0
128,128,128,1.13062,394.7031031729161,-2.51254116171442,-60.21846219567384,0,0,0,0,0,0,0,0,0,0
129,129,129,1.13064,394.56530136008007,-2.5778876596302167,-62.13516385663173,0,0,0,0,0,0,0,0,0,0
130,130,130,1.13066,394.4282561567517,-2.6420074324199208,-64.04941252773033,0,0,0,0,0,0,0,0,0,0
131,131,131,1.13068,394.2918184608939,-2.7048570943425627,-65.96113263767518,0,0,0,0,0,0,0,0,0,0
132,132,132,1.1307,394.1563027647949,-2.7663991149114326,-67.87024871506433,0,0,0,0,0,0,0,0,0,0
133,133,133,1.13072,394.0215547306323,-2.8265830489485144,-69.77668539122944,0,0,0,0,0,0,0,0,0,0
134,134,134,1.13074,393.88733718582887,-2.9510059147746888,-71.68036740333213,0,0,0,0,0,0,0,0,0,0
135,135,135,1.13076,393.7542822011711,-3.0739294442691807,-73.5812195972834,0,0,0,0,0,0,0,0,0,0
136,136,136,1.13078,393.62295512244697,-3.064092652994531,-75.479166930659,0,0,0,0,0,0,0,0,0,0
137,137,137,1.1308,393.49180941930126,-3.118296745276405,-77.37413447578238,0,0,0,0,0,0,0,0,0,0
138,138,138,1.13082,393.36121332366025,-3.23642155743271,-79.26604742254524,0,0,0,0,0,0,0,0,0,0
139,139,139,1.1308399999999998,393.23186269727023,-3.352806076932437,-81.15483108148113,0,0,0,0,0,0,0,0,0,0
140,140,140,1.13086,393.1043550175952,-3.336350352640147,-83.0404108866623,0,0,0,0,0,0,0,0,0,0
141,141,141,1.13088,392.9769973591464,-3.3835811308454966,-84.9227123985926,0,0,0,0,0,0,0,0,0,0
142,142,142,1.1309,392.85019444948006,-3.494368675051781,-86.80166130728233,0,0,0,0,0,0,0,0,0,0
143,143,143,1.13092,392.7243500205164,-3.668577979187912,-88.67718343496098,0,0,0,0,0,0,0,0,0,0
144,144,144,1.13094,392.60124227437706,-3.6443466956819095,-90.54920473932812,0,0,0,0,0,0,0,0,0,0
145,145,145,1.13096,392.47823650854576,-3.6833986267156735,-92.41765131610336,0,0,0,0,0,0,0,0,0,0
146,146,146,1.13098,392.35577317734806,-3.7855946888455088,-94.282449402249,0,0,0,0,0,0,0,0,0,0
147,147,147,1.131,392.2342915787832,-3.9507900062821673,-96.14352537874652,0,0,0,0,0,0,0,0,0,0
148,148,148,1.13102,392.11516848306064,-4.048138183924249,-98.00080577346937,0,0,0,0,0,0,0,0,0,0
149,149,149,1.13104,391.9975958106692,-4.0775868759311615,-99.85421726420128,0,0,0,0,0,0,0,0,0,0
150,150,150,1.13106,391.880531694887,-4.169713304018263,-101.70368668139668,0,0,0,0,0,0,0,0,0,0
151,151,151,1.13108,391.7766644748595,-2.5615203044594854,-103.54914101118652,1,0,0,0,0,0,0,0,1,0
152,152,152,1.1311,391.63837453896286,0.1430253168578626,-105.39050739821046,1,0,0,0,0,0,0,0,1,0
153,153,153,1.13112,391.48976640934734,0.0946497982581567,-107.2277131484431,1,0,0,0,0,0,0,0,1,0
154,154,154,1.13114,391.34133471901913,0.0469384663209898,-109.0606857321805,1,0,0,0,0,0,0,0,1,0
155,155,155,1.13116,391.1930635024205,0.0466071465548966,-110.88935278677044,1,0,0,0,0,0,0,0,1,0
156,156,156,1.13118,391.0448982498462,-0.0001127135863298,-112.71364211958536,1,0,0,0,0,0,0,0,1,0
157,157,157,1.1312,390.8967997196957,-0.0001145334260374,-114.53348171082258,1,0,0,0,0,0,0,0,1,0
158,158,158,1.13122,390.7487607895528,-0.0001163487441614,-116.34879971629812,1,0,0,0,0,0,0,0,1,0
159,159,159,1.13124,390.600777924143,-0.0001181594690363,-118.15952447039832,1,0,0,0,0,0,0,0,1,0
160,160,160,1.13126,390.4528511022343,-0.0001199655291776,-119.96558448877757,1,0,0,0,0,0,0,0,1,0
161,161,161,1.1312799999999998,390.3049803026015,-0.0001217668532852,-121.76690847129522,1,0,0,0,0,0,0,0,1,0
162,162,162,1.1313,390.15716550402806,-0.000123563370246,-123.56342530478103,1,0,0,0,0,0,0,0,1,0
163,163,163,1.13132,390.00940668530575,-0.0001253550091365,-125.35506406579408,1,0,0,0,0,0,0,0,1,0
164,164,164,1.13134,389.8617038252345,-0.0001271416992259,-127.1417540235362,1,0,0,0,0,0,0,0,1,0
165,165,165,1.13136,389.714056902621,-0.0001289233699787,-128.9234246425149,1,0,0,0,0,0,0,0,1,0
166,166,166,1.13138,389.5664658962809,-0.0001306999510576,-130.70000558545706,1,0,0,0,0,0,0,0,1,0
167,167,167,1.1314,389.4189307850388,-0.0001324713723263,-132.4714267159569,1,0,0,0,0,0,0,0,1,0
168,168,168,1.13142,389.2714515477258,-0.0001342375638519,-134.23761810135747,1,0,0,0,0,0,0,0,1,0
169,169,169,1.13144,389.12402816318126,-0.0001359984559084,-135.99851001546295,1,0,0,0,0,0,0,0,1,0
170,170,170,1.13146,388.9766606102529,-0.0001377539789788,-137.75403294124385,1,0,0,0,0,0,0,0,1,0
171,171,171,1.13148,388.8293488677962,-0.0001395040637579,-139.50411757370858,1,0,0,0,0,0,0,0,1,0
172,172,172,1.1315,388.68209291467537,-0.0001412486411555,-141.24869482244915,1,0,0,0,0,0,0,0,1,0
173,173,173,1.13152,388.5348927297623,-0.0001429876422985,-142.98769581455898,1,0,0,0,0,0,0,0,1,0
174,174,174,1.13154,388.3877482919352,-0.0001447209985343,-144.72105189731928,1,0,0,0,0,0,0,0,1,0
175,175,175,1.13156,388.2406595800838,-0.0001464486414328,-146.44869464072147,1,0,0,0,0,0,0,0,1,0
176,176,176,1.13158,388.0936265731025,-0.0001481705027898,-148.17055584043516,1,0,0,0,0,0,0,0,1,0
177,177,177,1.1316,387.9466492498949,-0.000149886514629,-149.88656752029735,1,0,0,0,0,0,0,0,1,0
178,178,178,1.1316199999999998,387.79972758937294,-0.0001515966092052,-151.59666193512078,1,0,0,0,0,0,0,0,1,0
179,179,179,1.13164,387.6528615704568,-0.000153300719007,-153.30077157332153,1,0,0,0,0,0,0,0,1,0
180,180,180,1.13166,387.5060511720733,-0.0001549987767588,-154.9988291595381,1,0,0,0,0,0,0,0,1,0
181,181,181,1.13168,387.3592963731583,-0.0001566907154243,-156.69076765739533,1,0,0,0,0,0,0,0,1,0
182,182,182,1.1317,387.2125971526552,-0.0001583764682086,-158.3765202720277,1,0,0,0,0,0,0,0,1,0
183,183,183,1.13172,387.065953489516,-0.0001600559685612,-160.056020452839,1,0,0,0,0,0,0,0,1,0
184,184,184,1.13174,386.9193653626997,-0.0001617291501782,-161.72920189600745,1,0,0,0,0,0,0,0,1,0
185,185,185,1.13176,386.77283275117406,-0.0001633959470052,-163.39599854720984,1,0,0,0,0,0,0,0,1,0
186,186,186,1.13178,386.6263556339145,-0.0001650562932401,-165.05634460418338,1,0,0,0,0,0,0,0,1,0
187,187,187,1.1318,386.4799339899046,-0.0001667101233351,-166.71017451927872,1,0,0,0,0,0,0,0,1,0
188,188,188,1.13182,386.3335677981356,-0.0001683573719999,-168.3574230021525,1,0,0,0,0,0,0,0,1,0
189,189,189,1.13184,386.1872570376072,-0.000169997974204,-169.9980250222253,1,0,0,0,0,0,0,0,1,0
190,190,190,1.13186,386.04100168732606,-0.0001716318651791,-171.6319158113536,1,0,0,0,0,0,0,0,1,0
191,191,191,1.13188,385.894801726308,-0.000173258980422,-173.25903086634125,1,0,0,0,0,0,0,0,1,0
192,192,192,1.1319,385.7486571335756,-0.0001748792556971,-174.87930595144263,1,0,0,0,0,0,0,0,1,0
193,193,193,1.13192,385.6025678881609,-0.0001764926270385,-176.49267710100096,1,0,0,0,0,0,0,0,1,0
194,194,194,1.13194,385.45653396910245,-0.0001780990307533,-178.0990806218567,1,0,0,0,0,0,0,0,1,0
195,195,195,1.13196,385.31055535544687,-0.0001796984034233,-179.69845309596397,1,0,0,0,0,0,0,0,1,0
196,196,196,1.13198,385.16463202624976,-0.000181290681908,-181.29073138285048,1,0,0,0,0,0,0,0,1,0
197,197,197,1.132,385.0187639605738,-0.000182875803347,-182.87585262206707,1,0,0,0,0,0,0,0,1,0
198,198,198,1.13202,384.8729511374897,-0.0001844537051625,-184.45375423577008,1,0,0,0,0,0,0,0,1,0
199,199,199,1.13204,384.7271935360762,-0.0001860243250615,-186.02437393107687,1,0,0,0,0,0,0,0,1,0
200,200,200,1.1320599999999998,384.58149113542,-0.0001875876010386,-187.58764970262592,1,0,0,0,0,0,0,0,1,0
201,201,201,1.1320759041357558,384.58149113542,-0.0001875876010386,-187.58764970262592,1,0,0,0,0,0,0,0,1,0
