,Unnamed: 0.1,Unnamed: 0,Time / s,Vo:Measured voltage,IL:Measured current,Vin:Measured voltage,open1:Output,open3:Output,open2:Output,open4:Output,short1:Output,short2:Output,short3:Output,short4:Output,OPEN,SHORT
0,0,0,1.1938628886221834,392.4565393154152,-12.03779418406554,-291.3859413692195,0,0,0,0,0,0,0,0,0,0
1,1,1,1.19388,392.5786059082593,-12.078892064346029,-292.06543364964443,0,0,0,0,0,0,0,0,0,0
2,2,2,1.1939,392.701767134788,-12.13941964523557,-292.73339568683895,0,0,0,0,0,0,0,0,0,0
3,3,3,1.19392,392.82845587952096,-12.088048935829962,-293.3898011108117,0,0,0,0,0,0,0,0,0,0
4,4,4,1.19394,392.953522405752,-12.120690489874164,-294.03462400780626,0,0,0,0,0,0,0,0,0,0
5,5,5,1.19396,393.0801094072461,-12.106016916878604,-294.66783892130707,0,0,0,0,0,0,0,0,0,0
6,6,6,1.19398,393.2065178421347,-12.109095606702438,-295.2894208530851,0,0,0,0,0,0,0,0,0,0
7,7,7,1.194,393.3331467418007,-12.129536376685405,-295.8993452641388,0,0,0,0,0,0,0,0,0,0
8,8,8,1.19402,393.46038599903454,-12.166938404779089,-296.4975880757024,0,0,0,0,0,0,0,0,0,0
9,9,9,1.19404,393.5886161325368,-12.220890477200134,-297.0841256701792,0,0,0,0,0,0,0,0,0,0
10,10,10,1.19406,393.71820805721205,-12.290971241909425,-297.6589348920589,0,0,0,0,0,0,0,0,0,0
11,11,11,1.19408,393.84952286036497,-12.376749467769775,-298.2219930488679,0,0,0,0,0,0,0,0,0,0
12,12,12,1.1941,393.9829115839355,-12.477784309231804,-298.77327791202407,0,0,0,0,0,0,0,0,0,0
13,13,13,1.1941199999999998,394.121174226962,-12.462286969480068,-299.3127677177502,0,0,0,0,0,0,0,0,0,0
14,14,14,1.19414,394.2591935387903,-12.461077564552586,-299.8404411679172,0,0,0,0,0,0,0,0,0,0
15,15,15,1.19416,394.3972940788293,-12.47376277326968,-300.3562774308712,0,0,0,0,0,0,0,0,0,0
16,16,16,1.19418,394.53579112562096,-12.499940514634272,-300.8602561422937,0,0,0,0,0,0,0,0,0,0
17,17,17,1.1942,394.67564963286384,-12.473438793255992,-301.3523574059498,0,0,0,0,0,0,0,0,0,0
18,18,18,1.1942199999999998,394.81574950308686,-12.45958360917854,-301.8325617945292,0,0,0,0,0,0,0,0,0,0
19,19,19,1.19424,394.9556187961156,-12.457968325773844,-302.300850350402,0,0,0,0,0,0,0,0,0,0
20,20,20,1.19426,395.09553668668747,-12.468196795531831,-302.7572045863164,0,0,0,0,0,0,0,0,0,0
21,21,21,1.19428,395.2350080094766,-12.48986637746542,-303.2016064862012,0,0,0,0,0,0,0,0,0,0
22,22,22,1.1943,395.3764706516001,-12.456705239362291,-303.63403850582216,0,0,0,0,0,0,0,0,0,0
23,23,23,1.19432,395.5165886670202,-12.500041215862804,-304.0544835735116,0,0,0,0,0,0,0,0,0,0
24,24,24,1.19434,395.6584266484281,-12.487677011131549,-304.4629250908104,0,0,0,0,0,0,0,0,0,0
25,25,25,1.19436,395.80003750673205,-12.485090726788345,-304.8593469331508,0,0,0,0,0,0,0,0,0,0
26,26,26,1.19438,395.9416447902502,-12.491883650343407,-305.24373345048053,0,0,0,0,0,0,0,0,0,0
27,27,27,1.1944,396.0834625894455,-12.507650969697352,-305.6160694678712,0,0,0,0,0,0,0,0,0,0
28,28,28,1.19442,396.2256954012425,-12.531982033952582,-305.9763402861412,0,0,0,0,0,0,0,0,0,0
29,29,29,1.19444,396.36853799953167,-12.564460617627727,-306.32453168240886,0,0,0,0,0,0,0,0,0,0
30,30,30,1.19446,396.5121753119069,-12.6046651881145,-306.66062991067736,0,0,0,0,0,0,0,0,0,0
31,31,31,1.19448,396.65678230274233,-12.65216917621488,-306.98462170236706,0,0,0,0,0,0,0,0,0,0
32,32,32,1.1945,396.80252386264897,-12.706541249594569,-307.296494266831,0,0,0,0,0,0,0,0,0,0
33,33,33,1.19452,396.9495547043897,-12.767345588986984,-307.5962352918799,0,0,0,0,0,0,0,0,0,0
34,34,34,1.19454,397.098019265305,-12.834142166980534,-307.8838329442459,0,0,0,0,0,0,0,0,0,0
35,35,35,1.1945599999999998,397.248051616308,-12.90648702922062,-308.15927587006894,0,0,0,0,0,0,0,0,0,0
36,36,36,1.19458,397.3997753775038,-12.983932577856235,-308.4225531953362,0,0,0,0,0,0,0,0,0,0
37,37,37,1.1946,397.5558480334966,-12.933546013373142,-308.67365452630503,0,0,0,0,0,0,0,0,0,0
38,38,38,1.19462,397.71072062176125,-12.887287901661136,-308.91256994992926,0,0,0,0,0,0,0,0,0,0
39,39,39,1.19464,397.8636242190588,-12.911074731297576,-309.13929003423283,0,0,0,0,0,0,0,0,0,0
40,40,40,1.19466,398.01793538502767,-12.871938083808445,-309.3538058286991,0,0,0,0,0,0,0,0,0,0
41,41,41,1.19468,398.1696579917728,-12.902094864472051,-309.55610886460784,0,0,0,0,0,0,0,0,0,0
42,42,42,1.1947,398.323708428014,-12.868492266772124,-309.74619115538366,0,0,0,0,0,0,0,0,0,0
43,43,43,1.19472,398.4769326586626,-12.837029895223314,-309.92404519690643,0,0,0,0,0,0,0,0,0,0
44,44,44,1.19474,398.6285235973598,-12.873741461177897,-310.08966396779493,0,0,0,0,0,0,0,0,0,0
45,45,45,1.19476,398.7817951713858,-12.845394133282708,-310.24304092971306,0,0,0,0,0,0,0,0,0,0
46,46,46,1.19478,398.9327131976223,-12.88445208884618,-310.38417002759354,0,0,0,0,0,0,0,0,0,0
47,47,47,1.1948,399.0861422463319,-12.857601576518505,-310.51304568990315,0,0,0,0,0,0,0,0,0,0
48,48,48,1.19482,399.23888087895807,-12.830864420531386,-310.62966282885577,0,0,0,0,0,0,0,0,0,0
49,49,49,1.19484,399.3900768734967,-12.87039754422392,-310.73401684060093,0,0,0,0,0,0,0,0,0,0
50,50,50,1.19486,399.5429933811489,-12.842711718754956,-310.826103605424,0,0,0,0,0,0,0,0,0,0
51,51,51,1.19488,399.694334128212,-12.880524907664782,-310.9059194878954,0,0,0,0,0,0,0,0,0,0
52,52,52,1.1949,399.8473458515247,-12.850247403425753,-310.97346133702183,0,0,0,0,0,0,0,0,0,0
53,53,53,1.19492,399.9979253189136,-12.884698946368829,-311.028726486367,0,0,0,0,0,0,0,0,0,0
54,54,54,1.19494,400.1508726530973,-12.850212861423278,-311.07171275415647,0,0,0,0,0,0,0,0,0,0
55,55,55,1.19496,400.3020650165948,-12.87969224676438,-311.1024184433669,0,0,0,0,0,0,0,0,0,0
56,56,56,1.19498,400.45307119668576,-12.906073609240092,-311.1208423417896,0,0,0,0,0,0,0,0,0,0
57,57,57,1.1949999999999998,400.60624284931487,-12.862205562959048,-311.12698372208087,0,0,0,0,0,0,0,0,0,0
58,58,58,1.19502,400.7574230370319,-12.881148585697751,-311.1208423417896,0,0,0,0,0,0,0,0,0,0
59,59,59,1.19504,400.9081551933474,-12.895769800736144,-311.102418443367,0,0,0,0,0,0,0,0,0,0
60,60,60,1.19506,401.0591189916569,-12.90567411816982,-311.0717127541566,0,0,0,0,0,0,0,0,0,0
61,61,61,1.19508,401.21019873364855,-12.910448022157317,-311.02872648636713,0,0,0,0,0,0,0,0,0,0
62,62,62,1.1951,401.3612690922778,-12.909681189653597,-310.973461337022,0,0,0,0,0,0,0,0,0,0
63,63,63,1.19512,401.5121951934832,-12.902966754020458,-310.9059194878957,0,0,0,0,0,0,0,0,0,0
64,64,64,1.19514,401.66283270403153,-12.889901566424,-310.82610360542424,0,0,0,0,0,0,0,0,0,0
65,65,65,1.19516,401.8138126788606,-12.870087514488814,-310.73401684060127,0,0,0,0,0,0,0,0,0,0
66,66,66,1.19518,401.9625455137035,-12.9100837574057,-310.62966282885606,0,0,0,0,0,0,0,0,0,0
67,67,67,1.1952,402.1137143444322,-12.875566071078415,-310.51304568990463,0,0,0,0,0,0,0,0,0,0
68,68,68,1.19522,402.26228233199015,-12.900091911515858,-310.38417002759394,0,0,0,0,0,0,0,0,0,0
69,69,69,1.19524,402.4112698602128,-12.916297041550909,-310.24304092971346,0,0,0,0,0,0,0,0,0,0
70,70,70,1.19526,402.5604777876187,-12.923765524923006,-310.08966396779687,0,0,0,0,0,0,0,0,0,0
71,71,71,1.19528,402.7096974079894,-12.922086885155384,-309.9240451969069,0,0,0,0,0,0,0,0,0,0
72,72,72,1.1953,402.8587105843965,-12.910856365028009,-309.7461911553843,0,0,0,0,0,0,0,0,0,0
73,73,73,1.19532,403.0072898891868,-12.889675182505332,-309.5561088646102,0,0,0,0,0,0,0,0,0,0
74,74,74,1.1953399999999998,403.15519874985023,-12.858150782967698,-309.3538058287016,0,0,0,0,0,0,0,0,0,0
75,75,75,1.19536,403.3021916006638,-12.815897087595022,-309.1392900342335,0,0,0,0,0,0,0,0,0,0
76,76,76,1.19538,403.4480140400332,-12.762534737756384,-308.91256994992995,0,0,0,0,0,0,0,0,0,0
77,77,77,1.1954,403.59240299342,-12.697691335259597,-308.67365452630565,0,0,0,0,0,0,0,0,0,0
78,78,78,1.19542,403.7350868817709,-12.621001678318548,-308.422553195337,0,0,0,0,0,0,0,0,0,0
79,79,79,1.1954399999999998,403.8757857953332,-12.532107993098156,-308.15927587007207,0,0,0,0,0,0,0,0,0,0
80,80,80,1.19546,404.0121742468132,-12.565296729035383,-307.8838329442467,0,0,0,0,0,0,0,0,0,0
81,81,81,1.19548,404.1491277391111,-12.585636306573427,-307.5962352918808,0,0,0,0,0,0,0,0,0,0
82,82,82,1.1955,404.2863453922823,-12.592712276740324,-307.29649426683187,0,0,0,0,0,0,0,0,0,0
83,83,83,1.19552,404.4235169907409,-12.586118350796376,-306.98462170236803,0,0,0,0,0,0,0,0,0,0
84,84,84,1.19554,404.5603231775677,-12.5654566495973,-306.6606299106784,0,0,0,0,0,0,0,0,0,0
85,85,85,1.19556,404.6948298730493,-12.597769190950457,-306.3245316824098,0,0,0,0,0,0,0,0,0,0
86,86,86,1.19558,404.82985636640126,-12.615282478640443,-305.97634028614226,0,0,0,0,0,0,0,0,0,0
87,87,87,1.1956,404.96505922813446,-12.617586080230888,-305.6160694678723,0,0,0,0,0,0,0,0,0,0
88,88,88,1.19562,405.1008570789424,-12.604280226036373,-305.24373345048167,0,0,0,0,0,0,0,0,0,0
89,89,89,1.19564,405.2345017914646,-12.642473539452691,-304.859346933152,0,0,0,0,0,0,0,0,0,0
90,90,90,1.19566,405.36877831486265,-12.664301020625544,-304.4629250908116,0,0,0,0,0,0,0,0,0,0
91,91,91,1.19568,405.50330983730055,-12.669352027620626,-304.0544835735128,0,0,0,0,0,0,0,0,0,0
92,92,92,1.1957,405.6377104729294,-12.657226016090425,-303.6340385058234,0,0,0,0,0,0,0,0,0,0
93,93,93,1.19572,405.7715854974922,-12.627532778145747,-303.2016064862024,0,0,0,0,0,0,0,0,0,0
94,94,94,1.19574,405.90453158920553,-12.579892675229967,-302.7572045863177,0,0,0,0,0,0,0,0,0,0
95,95,95,1.19576,406.0361370747736,-12.513936864865022,-302.30085035040327,0,0,0,0,0,0,0,0,0,0
96,96,96,1.1957799999999998,406.1659821803822,-12.42930752114348,-301.8325617945392,0,0,0,0,0,0,0,0,0,0
97,97,97,1.1958,406.2936392875442,-12.325658048843112,-301.35235740595124,0,0,0,0,0,0,0,0,0,0
98,98,98,1.19582,406.41668045656456,-12.338092398893467,-300.8602561422952,0,0,0,0,0,0,0,0,0,0
99,99,99,1.19584,406.53973370595617,-12.33088903006164,-300.3562774308773,0,0,0,0,0,0,0,0,0,0
100,100,100,1.19586,406.66235435862296,-12.303659244620455,-299.8404411679234,0,0,0,0,0,0,0,0,0,0
101,101,101,1.19588,406.78408932291546,-12.256026122063464,-299.3127677177518,0,0,0,0,0,0,0,0,0,0
102,102,102,1.1959,406.9036636541263,-12.255426184894668,-298.7732779120306,0,0,0,0,0,0,0,0,0,0
103,103,103,1.19592,407.0213675189432,-12.301540006390344,-298.22199304887454,0,0,0,0,0,0,0,0,0,0
104,104,104,1.19594,407.1398098324222,-12.326204087959772,-297.6589348920606,0,0,0,0,0,0,0,0,0,0
105,105,105,1.19596,407.2585114306708,-12.329016146889648,-297.084125670181,0,0,0,0,0,0,0,0,0,0
106,106,106,1.19598,407.3769845723538,-12.309586449379673,-296.49758807570413,0,0,0,0,0,0,0,0,0,0
107,107,107,1.196,407.4947332219276,-12.267538030133522,-295.8993452641406,0,0,0,0,0,0,0,0,0,0
108,108,108,1.19602,407.6112533375477,-12.202506904950814,-295.28942085308694,0,0,0,0,0,0,0,0,0,0
109,109,109,1.19604,407.726033163489,-12.114142276208833,-294.66783892130894,0,0,0,0,0,0,0,0,0,0
110,110,110,1.19606,407.8379523460752,-12.070063220124789,-294.03462400780813,0,0,0,0,0,0,0,0,0,0
111,111,111,1.19608,407.9472510389136,-12.069973598323797,-293.3898011108136,0,0,0,0,0,0,0,0,0,0
112,112,112,1.1961,408.05624098621234,-12.045577338820117,-292.7333956868409,0,0,0,0,0,0,0,0,0,0
113,113,113,1.19612,408.1643880063062,-11.996504877560335,-292.0654336496465,0,0,0,0,0,0,0,0,0,0
114,114,114,1.19614,408.2711502085516,-11.922400469216443,-291.38594136922154,0,0,0,0,0,0,0,0,0,0
115,115,115,1.19616,408.3736458050688,-11.959015106991922,-290.6949456707701,0,0,0,0,0,0,0,0,0,0
116,116,116,1.19618,408.4766143668974,-11.969970450472806,-289.9924738336069,0,0,0,0,0,0,0,0,0,0
117,117,117,1.1962,408.57949958958943,-11.95488229458778,-289.27855359012966,0,0,0,0,0,0,0,0,0,0
118,118,118,1.1962199999999998,408.6817372674204,-11.913380662648976,-288.5532131246811,0,0,0,0,0,0,0,0,0,0
119,119,119,1.19624,408.7827556045799,-11.845110003336526,-287.81648107245394,0,0,0,0,0,0,0,0,0,0
120,120,120,1.19626,408.8813910988927,-11.817860453424291,-287.06838651838154,0,0,0,0,0,0,0,0,0,0
121,121,121,1.19628,408.9777993630504,-11.831328653067605,-286.3089589959423,0,0,0,0,0,0,0,0,0,0
122,122,122,1.1963,409.0741619064859,-11.817043982968393,-285.5382284860483,0,0,0,0,0,0,0,0,0,0
123,123,123,1.19632,409.1698862413343,-11.774640940208611,-284.75622541580645,0,0,0,0,0,0,0,0,0,0
124,124,124,1.19634,409.26437251095024,-11.703768990640803,-283.9629806573729,0,0,0,0,0,0,0,0,0,0
125,125,125,1.19636,409.3570138120977,-11.604092750382437,-283.15852552668576,0,0,0,0,0,0,0,0,0,0
126,126,126,1.19638,409.44491870702944,-11.611743179422874,-282.3428917822485,0,0,0,0,0,0,0,0,0,0
127,127,127,1.1964,409.5326429417207,-11.589999715683348,-281.5161116238995,0,0,0,0,0,0,0,0,0,0
128,128,128,1.19642,409.61956833736514,-11.538505660461167,-280.6782176914889,0,0,0,0,0,0,0,0,0,0
129,129,129,1.19644,409.7045065811427,-11.525188743391602,-279.8292430636496,0,0,0,0,0,0,0,0,0,0
130,130,130,1.19646,409.78754307504965,-11.549740915114947,-278.96922125643846,0,0,0,0,0,0,0,0,0,0
131,131,131,1.19648,409.8707365011731,-11.543555865749695,-278.0981862220283,0,0,0,0,0,0,0,0,0,0
132,132,132,1.1965,409.9534497980263,-11.506274006178588,-277.2161723474302,0,0,0,0,0,0,0,0,0,0
133,133,133,1.19652,410.0350388986876,-11.437551458336726,-276.32321445299385,0,0,0,0,0,0,0,0,0,0
134,134,134,1.19654,410.1148530588816,-11.337060223029338,-275.41934779120817,0,0,0,0,0,0,0,0,0,0
135,135,135,1.1965599999999998,410.1907715945179,-11.272837339452408,-274.50460804516524,0,0,0,0,0,0,0,0,0,0
136,136,136,1.19658,410.264249371326,-11.24462432739287,-273.5790313272155,0,0,0,0,0,0,0,0,0,0
137,137,137,1.1966,410.3355602051428,-11.252126520268206,-272.64265417755973,0,0,0,0,0,0,0,0,0,0
138,138,138,1.19662,410.4066635617674,-11.226657944173056,-271.6955135627475,0,0,0,0,0,0,0,0,0,0
139,139,139,1.19664,410.4763412924571,-11.236274592031116,-270.7376468742857,0,0,0,0,0,0,0,0,0,0
140,140,140,1.1966599999999998,410.5458474803849,-11.21225259528608,-269.7690919271024,0,0,0,0,0,0,0,0,0,0
141,141,141,1.19668,410.61450609410167,-11.154251344100697,-268.7898869580797,0,0,0,0,0,0,0,0,0,0
142,142,142,1.1967,410.68163470969927,-11.061946491505289,-267.8000706245708,0,0,0,0,0,0,0,0,0,0
143,143,143,1.19672,410.7465448399258,-10.93503010255473,-266.79968200281183,0,0,0,0,0,0,0,0,0,0
144,144,144,1.19674,410.8063790035444,-10.91011800589724,-265.7887605864507,0,0,0,0,0,0,0,0,0,0
145,145,145,1.19676,410.86416250263727,-10.918513597994671,-264.7673462849156,0,0,0,0,0,0,0,0,0,0
146,146,146,1.19678,410.92174209435376,-10.891447374092898,-263.7354794219128,0,0,0,0,0,0,0,0,0,0
147,147,147,1.1968,410.97789531691154,-10.897070514580538,-262.69320073377,0,0,0,0,0,0,0,0,0,0
148,148,148,1.19682,411.0337847922252,-10.866583118949018,-261.6405513678556,0,0,0,0,0,0,0,0,0,0
149,149,149,1.19684,411.0887072063041,-10.799657659557022,-260.57757288098304,0,0,0,0,0,0,0,0,0,0
150,150,150,1.19686,411.14195332048047,-10.69598310690753,-259.50430723770376,0,0,0,0,0,0,0,0,0,0
151,151,151,1.19688,411.0316315188856,0.0001526108036711,-258.42079680872706,0,0,1,0,0,0,0,0,1,0
152,152,152,1.1969,410.8759726502052,0.0001535488569132,-257.32708436917966,0,0,1,0,0,0,0,0,1,0
153,153,153,1.19692,410.7203733219472,0.0001544964781491,-256.22321309694604,0,0,1,0,0,0,0,0,1,0
154,154,154,1.19694,410.56483338638,0.0001529653984435,-255.10922657099368,0,0,1,0,0,0,0,0,1,0
155,155,155,1.19696,410.4093528156552,-0.0049671660859184,-253.9851687695832,0,0,1,0,0,0,0,0,1,0
156,156,156,1.19698,410.2539313509924,-0.2744037583606384,-252.85108406861207,0,0,1,0,0,0,0,0,1,0
157,157,157,1.1969999999999998,410.0985691537613,-0.1950766788415981,-251.7070172397925,0,0,1,0,0,0,0,0,1,0
158,158,158,1.19702,409.9432657645924,-0.110659123520573,-250.55301344891336,0,0,1,0,0,0,0,0,1,0
159,159,159,1.19704,409.7880174344076,-4.120306570216847,-249.3891182540892,0,0,1,0,0,0,0,0,1,0
160,160,160,1.19706,409.6328349463592,-0.3378224555739996,-248.21537760387764,0,0,1,0,0,0,0,0,1,0
161,161,161,1.19708,409.4777078511662,-0.3007871128780498,-247.03183783560303,0,0,1,0,0,0,0,0,1,0
162,162,162,1.1971,409.32263947395774,-0.2584510664398381,-245.83854567332472,0,0,1,0,0,0,0,0,1,0
163,163,163,1.19712,409.16762982358034,-0.1763012383999464,-244.6355482262278,0,0,1,0,0,0,0,0,1,0
164,164,164,1.19714,409.01267880490417,-0.1342043543262319,-243.42289298657016,0,0,1,0,0,0,0,0,1,0
165,165,165,1.19716,408.8577791938652,-8.05386281717273,-242.2006278278932,0,0,1,0,0,0,0,0,1,0
166,166,166,1.19718,408.7029487142112,-4.414498047287225,-240.96880100315445,0,0,1,0,0,0,0,0,1,0
167,167,167,1.1972,408.5481772142076,-0.3582950149591558,-239.72746114274565,0,0,1,0,0,0,0,0,1,0
168,168,168,1.19722,408.3934534223784,-8.326941103516234,-238.4766572526613,0,0,1,0,0,0,0,0,1,0
169,169,169,1.19724,408.2387990526773,-4.274462049001178,-237.21643871248625,0,0,1,0,0,0,0,0,1,0
170,170,170,1.19726,408.0842032040253,-0.2354443545315224,-235.9468552734789,0,0,1,0,0,0,0,0,1,0
171,171,171,1.19728,407.9296551266458,-8.077663589065352,-234.66795705664256,0,0,1,0,0,0,0,0,1,0
172,172,172,1.1973,407.7751763787456,-3.858700960264187,-233.379794550666,0,0,1,0,0,0,0,0,1,0
173,173,173,1.19732,407.6207453348149,-11.613850002651215,-232.0824186100224,0,0,1,0,0,0,0,0,1,0
174,174,174,1.1973399999999998,407.46638637916607,-4.291722806944674,-230.77588045288093,0,0,1,0,0,0,0,0,1,0
175,175,175,1.19736,407.3120722789943,-11.959640060543986,-229.46023165911896,0,0,1,0,0,0,0,0,1,0
176,176,176,1.19738,407.1578304948122,-4.250550426045336,-228.13552416832167,0,0,1,0,0,0,0,0,1,0
177,177,177,1.1974,407.0036332497364,-11.830182850368034,-226.80181027764905,0,0,1,0,0,0,0,0,1,0
178,178,178,1.19742,406.8495081567174,-4.163942522136133,-225.45914263986552,0,0,1,0,0,0,0,0,1,0
179,179,179,1.1974399999999998,406.6954276782896,-11.65410812430714,-224.10757426117857,0,0,1,0,0,0,0,0,1,0
180,180,180,1.19746,406.54141917833056,-4.040201918406637,-222.74715849918115,0,0,1,0,0,0,0,0,1,0
181,181,181,1.19748,406.387455378174,-11.439730070810802,-221.37794906078267,0,0,1,0,0,0,0,0,1,0
182,182,182,1.1975,406.2335633136549,-3.953197547823581,-220.00000000000264,0,0,1,0,0,0,0,0,1,0
183,183,183,1.19752,406.0797161034852,-11.26090732318776,-218.61336571593543,0,0,1,0,0,0,0,0,1,0
184,184,184,1.19754,405.92594060403457,-3.5932474884305923,-217.21810095050324,0,0,1,0,0,0,0,0,1,0
185,185,185,1.19756,405.7722098955526,-10.808075673351306,-215.81426078639512,0,0,1,0,0,0,0,0,1,0
186,186,186,1.19758,405.6185532608805,-0.4670840117194657,-214.4019006448044,0,0,1,0,0,0,0,0,1,0
187,187,187,1.1976,405.46493896494894,-7.588813029560094,-212.9810762832783,0,0,1,0,0,0,0,0,1,0
188,188,188,1.19762,405.31138284523206,-14.660675337733435,-211.5518437935554,0,0,1,0,0,0,0,0,1,0
189,189,189,1.19764,405.1578979568641,-7.229341737145544,-210.1142595992483,0,0,1,0,0,0,0,0,1,0
190,190,190,1.19766,405.0044581185342,-14.205501489297395,-208.66838045377148,0,0,1,0,0,0,0,0,1,0
191,191,191,1.19768,404.8510920094386,-3.882125859340027,-207.2142634379451,0,0,1,0,0,0,0,0,1,0
192,192,192,1.1977,404.69776836347546,-10.762476807400931,-205.75196595776623,0,0,1,0,0,0,0,0,1,0
193,193,193,1.19772,404.54451833376095,-0.419101679579096,-204.28154574230163,0,0,1,0,0,0,0,0,1,0
194,194,194,1.19774,404.39131079219953,-7.202595728398814,-202.8030608411837,0,0,1,0,0,0,0,0,1,0
195,195,195,1.19776,404.2381612728085,-13.93442078586625,-201.31656962249176,0,0,1,0,0,0,0,0,1,0
196,196,196,1.1977799999999998,404.0850850251526,-3.7478842129407983,-199.82213077034027,0,0,1,0,0,0,0,0,1,0
197,197,197,1.1978,403.93205147840354,-10.381248635998212,-198.3198032826028,0,0,1,0,0,0,0,0,1,0
198,198,198,1.19782,403.77909090900056,-0.3717136742418927,-196.8096464686232,0,0,1,0,0,0,0,0,1,0
199,199,199,1.19784,403.6261732471641,-6.90554360454256,-195.29171994677927,0,0,1,0,0,0,0,0,1,0
200,200,200,1.19786,403.473313497716,-13.386478186790647,-193.7660836422388,0,0,1,0,0,0,0,0,1,0
201,201,201,1.1978628886221832,403.473313497716,-13.386478186790647,-193.7660836422388,0,0,1,0,0,0,0,0,1,0
