,Unnamed: 0.1,Unnamed: 0,Time / s,Vo:Measured voltage,IL:Measured current,Vin:Measured voltage,open1:Output,open3:Output,open2:Output,open4:Output,short1:Output,short2:Output,short3:Output,short4:Output,OPEN,SHORT
0,0,0,1.1570185537621258,411.4199198131779,-10.40845538080656,-251.70701723977427,0,0,0,0,0,0,0,0,0,0
1,1,1,1.15702,411.4589112941707,-10.275106731381255,-250.55301344891592,0,0,0,0,0,0,0,0,0,0
2,2,2,1.1570399999999998,411.4936739281695,-10.170936034703988,-249.38911825409173,0,0,0,0,0,0,0,0,0,0
3,3,3,1.15706,411.5245670881352,-10.164280966279415,-248.2153776038802,0,0,0,0,0,0,0,0,0,0
4,4,4,1.15708,411.5542432422002,-10.186302941162532,-247.0318378355949,0,0,0,0,0,0,0,0,0,0
5,5,5,1.1571,411.583941037192,-10.168115616485949,-245.83854567332736,0,0,0,0,0,0,0,0,0,0
6,6,6,1.15712,411.61292664473774,-10.109406974520738,-244.63554822623047,0,0,0,0,0,0,0,0,0,0
7,7,7,1.15714,411.64046099091206,-10.009881344269996,-243.4228929865618,0,0,0,0,0,0,0,0,0,0
8,8,8,1.15716,411.66580005641214,-9.869259513934727,-242.20062782789583,0,0,0,0,0,0,0,0,0,0
9,9,9,1.15718,411.6858600230851,-9.824481537314778,-240.96880100315715,0,0,0,0,0,0,0,0,0,0
10,10,10,1.1572,411.7036012224446,-9.87532149593926,-239.72746114274835,0,0,0,0,0,0,0,0,0,0
11,11,11,1.15722,411.72185880238817,-9.88427213403924,-238.47665725266407,0,0,0,0,0,0,0,0,0,0
12,12,12,1.15724,411.7398936888439,-9.85102184438309,-237.21643871247755,0,0,0,0,0,0,0,0,0,0
13,13,13,1.15726,411.7569617527648,-9.775275052518024,-235.94685527348167,0,0,0,0,0,0,0,0,0,0
14,14,14,1.15728,411.7723140947136,-9.656752321856064,-234.6679570566453,0,0,0,0,0,0,0,0,0,0
15,15,15,1.1573,411.78519733113376,-9.495190453161303,-233.3797945506688,0,0,0,0,0,0,0,0,0,0
16,16,16,1.15732,411.7921958859456,-9.496203722442802,-232.0824186100253,0,0,0,0,0,0,0,0,0,0
17,17,17,1.15734,411.7981535238909,-9.522314417823443,-230.775880452872,0,0,0,0,0,0,0,0,0,0
18,18,18,1.15736,411.804177652572,-9.504608151446131,-229.4602316591218,0,0,0,0,0,0,0,0,0,0
19,19,19,1.15738,411.8095223188103,-9.442794261253209,-228.13552416832468,0,0,0,0,0,0,0,0,0,0
20,20,20,1.1574,411.81343705398575,-9.336597830971822,-226.80181027765195,0,0,0,0,0,0,0,0,0,0
21,21,21,1.15742,411.8151671436828,-9.185759781457897,-225.45914263986847,0,0,0,0,0,0,0,0,0,0
22,22,22,1.15744,411.81178664895646,-9.127283687711218,-224.10757426116925,0,0,0,0,0,0,0,0,0,0
23,23,23,1.15746,411.80600522025696,-9.160942650372874,-222.74715849918408,0,0,0,0,0,0,0,0,0,0
24,24,24,1.1574799999999998,411.80040248773406,-9.14920726939764,-221.37794906078565,0,0,0,0,0,0,0,0,0,0
25,25,25,1.1575,411.7942333617316,-9.09179578658448,-220.00000000000568,0,0,0,0,0,0,0,0,0,0
26,26,26,1.15752,411.78674855022746,-8.988441743135521,-218.6133657159385,0,0,0,0,0,0,0,0,0,0
27,27,27,1.15754,411.777194811413,-8.838894062140227,-217.21810095050628,0,0,0,0,0,0,0,0,0,0
28,28,28,1.15756,411.7627318134965,-8.780148528714351,-215.81426078639817,0,0,0,0,0,0,0,0,0,0
29,29,29,1.15758,411.7459465704149,-8.811975922687699,-214.40190064478188,0,0,0,0,0,0,0,0,0,0
30,30,30,1.1576,411.7292962817798,-8.796870681999604,-212.9810762832685,0,0,0,0,0,0,0,0,0,0
31,31,31,1.15762,411.71203932839455,-8.734563212722737,-211.55184379355856,0,0,0,0,0,0,0,0,0,0
32,32,32,1.15764,411.6934302412564,-8.624798726581686,-210.11425959925148,0,0,0,0,0,0,0,0,0,0
33,33,33,1.15766,411.6727199368575,-8.467337314298035,-208.66838045377463,0,0,0,0,0,0,0,0,0,0
34,34,34,1.15768,411.64680921171134,-8.467747662048883,-207.2142634379219,0,0,0,0,0,0,0,0,0,0
35,35,35,1.1577,411.6199214620661,-8.48858769926141,-205.75196595776944,0,0,0,0,0,0,0,0,0,0
36,36,36,1.15772,411.5929893341112,-8.46099688096981,-204.28154574230484,0,0,0,0,0,0,0,0,0,0
37,37,37,1.15774,411.5652772140996,-8.38472037337507,-202.8030608411869,0,0,0,0,0,0,0,0,0,0
38,38,38,1.15776,411.53604601465,-8.259517613743553,-201.316569622495,0,0,0,0,0,0,0,0,0,0
39,39,39,1.15778,411.504553392745,-8.085162374675944,-199.82213077033003,0,0,0,0,0,0,0,0,0,0
40,40,40,1.1578,411.4678321316813,-8.067148946429164,-198.31980328260607,0,0,0,0,0,0,0,0,0,0
41,41,41,1.1578199999999998,411.4299008815517,-8.068096026912054,-196.80964646862645,0,0,0,0,0,0,0,0,0,0
42,42,42,1.15784,411.39163151808407,-8.019187569505796,-195.29171994678268,0,0,0,0,0,0,0,0,0,0
43,43,43,1.15786,411.35229736685767,-7.920185462717563,-193.76608364224208,0,0,0,0,0,0,0,0,0,0
44,44,44,1.15788,411.3111686655433,-7.7708652894877215,-192.23279778448625,0,0,0,0,0,0,0,0,0,0
45,45,45,1.1579,411.26537426754567,-7.776622727507735,-190.69192290504296,0,0,0,0,0,0,0,0,0,0
46,46,46,1.1579199999999998,411.2187371568693,-7.800135392732884,-189.14351983500032,0,0,0,0,0,0,0,0,0,0
47,47,47,1.15794,411.1720858389749,-7.77262455080288,-187.58764970264613,0,0,0,0,0,0,0,0,0,0
48,48,48,1.15796,411.12470755810926,-7.693857205916034,-186.0243739310973,0,0,0,0,0,0,0,0,0,0
49,49,49,1.15798,411.0758866722573,-7.563613406637171,-184.45375423577624,0,0,0,0,0,0,0,0,0,0
50,50,50,1.158,411.02490483638655,-7.381686296101701,-182.8758526220876,0,0,0,0,0,0,0,0,0,0
51,51,51,1.15802,410.96848101154194,-7.421830260573995,-181.29073138285668,0,0,0,0,0,0,0,0,0,0
52,52,52,1.15804,410.9122619223178,-7.409839849078724,-179.69845309598463,0,0,0,0,0,0,0,0,0,0
53,53,53,1.15806,410.85555095971455,-7.345489395085352,-178.09908062187745,0,0,0,0,0,0,0,0,0,0
54,54,54,1.15808,410.7976488528688,-7.228565609711882,-176.49267710100727,0,0,0,0,0,0,0,0,0,0
55,55,55,1.1581,410.7378538353641,-7.05886762652592,-174.87930595146355,0,0,0,0,0,0,0,0,0,0
56,56,56,1.15812,410.673008792594,-7.109960111831409,-173.2590308663476,0,0,0,0,0,0,0,0,0,0
57,57,57,1.15814,410.608495251096,-7.107829122398585,-171.6319158113747,0,0,0,0,0,0,0,0,0,0
58,58,58,1.15816,410.5436344140071,-7.052258147250996,-169.99802502224654,0,0,0,0,0,0,0,0,0,0
59,59,59,1.15818,410.477745061097,-6.943042382091725,-168.35742300214403,0,0,0,0,0,0,0,0,0,0
60,60,60,1.1582,410.4101436989063,-6.77998876878704,-166.71017451930007,0,0,0,0,0,0,0,0,0,0
61,61,61,1.15822,410.3380487857849,-6.768062551758816,-165.05634460417485,0,0,0,0,0,0,0,0,0,0
62,62,62,1.15824,410.2652280169342,-6.770255841621585,-163.39599854721632,0,0,0,0,0,0,0,0,0,0
63,63,63,1.1582599999999998,410.19212642717815,-6.717973546610868,-161.72920189601396,0,0,0,0,0,0,0,0,0,0
64,64,64,1.15828,410.11808272640445,-6.611020807806722,-160.05602045283035,0,0,0,0,0,0,0,0,0,0
65,65,65,1.1583,410.0424335806919,-6.449213832750617,-158.37652027203427,0,0,0,0,0,0,0,0,0,0
66,66,66,1.15832,409.96300880442726,-6.369018441261581,-156.69076765738663,0,0,0,0,0,0,0,0,0,0
67,67,67,1.15834,409.88161682072337,-6.3702076254257705,-154.99882915954473,0,0,0,0,0,0,0,0,0,0
68,68,68,1.15836,409.79994490993823,-6.315934123219908,-153.30077157331277,0,0,0,0,0,0,0,0,0,0
69,69,69,1.15838,409.7173535508278,-6.206014156757663,-151.59666193512743,0,0,0,0,0,0,0,0,0,0
70,70,70,1.1584,409.6332014084989,-6.040274335814158,-149.886567520304,0,0,0,0,0,0,0,0,0,0
71,71,71,1.15842,409.54498523708025,-6.0233048459551535,-148.1705558404263,0,0,0,0,0,0,0,0,0,0
72,72,72,1.15844,409.45607394495,-6.018361411533724,-146.44869464072818,0,0,0,0,0,0,0,0,0,0
73,73,73,1.15846,409.36682927968417,-5.957001333484297,-144.7210518973104,0,0,0,0,0,0,0,0,0,0
74,74,74,1.15848,409.2766350652622,-5.839052779362845,-142.98769581458143,0,0,0,0,0,0,0,0,0,0
75,75,75,1.1585,409.1840761659009,-5.732542459768515,-141.24869482245597,0,0,0,0,0,0,0,0,0,0
76,76,76,1.15852,409.0896686819058,-5.637281550111427,-139.50411757369957,0,0,0,0,0,0,0,0,0,0
77,77,77,1.15854,408.993231736629,-5.621233938977466,-137.75403294126653,0,0,0,0,0,0,0,0,0,0
78,78,78,1.15856,408.8963650208635,-5.547863894274716,-135.9985100154698,0,0,0,0,0,0,0,0,0,0
79,79,79,1.15858,408.7984773682685,-5.417012141661588,-134.2376181013803,0,0,0,0,0,0,0,0,0,0
80,80,80,1.1586,408.6978243810536,-5.3647492168597015,-132.47142671597982,0,0,0,0,0,0,0,0,0,0
81,81,81,1.15862,408.5958733502957,-5.322749073925486,-130.70000558546397,0,0,0,0,0,0,0,0,0,0
82,82,82,1.15864,408.4930675125264,-5.29081864982524,-128.92342464253792,0,0,0,0,0,0,0,0,0,0
83,83,83,1.15866,408.3897029241444,-5.200696630970044,-127.14175402354316,0,0,0,0,0,0,0,0,0,0
84,84,84,1.15868,408.2852148880544,-5.0522367103959525,-125.35506406581722,0,0,0,0,0,0,0,0,0,0
85,85,85,1.1586999999999998,408.1779652209004,-4.98134948936681,-123.56342530480428,0,0,0,0,0,0,0,0,0,0
86,86,86,1.15872,408.06915898010647,-4.987811619607348,-121.7669084713185,0,0,0,0,0,0,0,0,0,0
87,87,87,1.15874,407.9601788526333,-4.935403272477548,-119.96558448880091,0,0,0,0,0,0,0,0,0,0
88,88,88,1.15876,407.8504891564533,-4.823983563490778,-118.159524470389,0,0,0,0,0,0,0,0,0,0
89,89,89,1.15878,407.7388885271303,-4.721368782197254,-116.3487997163216,0,0,0,0,0,0,0,0,0,0
90,90,90,1.1588,407.6257851444024,-4.627387845058179,-114.53348171081323,0,0,0,0,0,0,0,0,0,0
91,91,91,1.15882,407.51103999145806,-4.609779691708334,-112.71364211959248,0,0,0,0,0,0,0,0,0,0
92,92,92,1.15884,407.3959293313728,-4.5325193957484,-110.88935278677756,0,0,0,0,0,0,0,0,0,0
93,93,93,1.15886,407.27931553604026,-4.463353109413134,-109.06068573217108,0,0,0,0,0,0,0,0,0,0
94,94,94,1.15888,407.16156701537966,-4.402112710003891,-107.22771314845023,0,0,0,0,0,0,0,0,0,0
95,95,95,1.1589,407.04311303497167,-4.28078715112011,-105.39050739820097,0,0,0,0,0,0,0,0,0,0
96,96,96,1.15892,406.9230653152517,-4.167076769252964,-103.54914101119373,0,0,0,0,0,0,0,0,0,0
97,97,97,1.15894,406.80119483287245,-4.128613067291916,-101.70368668140388,0,0,0,0,0,0,0,0,0,0
98,98,98,1.15896,406.67850871965146,-4.09739893970211,-99.85421726419176,0,0,0,0,0,0,0,0,0,0
99,99,99,1.15898,406.55539938954206,-4.005509072126298,-98.0008057734766,0,0,0,0,0,0,0,0,0,0
100,100,100,1.159,406.43140699895207,-3.852833906158364,-96.14352537873695,0,0,0,0,0,0,0,0,0,0
101,101,101,1.15902,406.3050650370333,-3.8424141442789455,-94.28244940225626,0,0,0,0,0,0,0,0,0,0
102,102,102,1.1590399999999998,406.17816379549527,-3.838591097664129,-92.41765131611062,0,0,0,0,0,0,0,0,0,0
103,103,103,1.15906,406.0510670094096,-3.773529259464381,-90.54920473931848,0,0,0,0,0,0,0,0,0,0
104,104,104,1.15908,405.9233476538087,-3.647127109047773,-88.67718343498525,0,0,0,0,0,0,0,0,0,0
105,105,105,1.1591,405.79407414513867,-3.5269158841864905,-86.80166130727265,0,0,0,0,0,0,0,0,0,0
106,106,106,1.15912,405.6630983340981,-3.5479693923491435,-84.92271239861692,0,0,0,0,0,0,0,0,0,0
107,107,107,1.1591399999999998,405.53210585254726,-3.507254369059239,-83.0404108866867,0,0,0,0,0,0,0,0,0,0
108,108,108,1.15916,405.40070340436415,-3.4046780699108807,-81.15483108150556,0,0,0,0,0,0,0,0,0,0
109,109,109,1.15918,405.2684972691682,-3.2401530079740017,-79.26604742256974,0,0,0,0,0,0,0,0,0,0
110,110,110,1.1592,405.1343580002178,-3.1486350192315373,-77.37413447578977,0,0,0,0,0,0,0,0,0,0
111,111,111,1.15922,404.9991790306421,-3.1299301961984023,-75.47916693068355,0,0,0,0,0,0,0,0,0,0
112,112,112,1.15924,404.8637602745287,-3.0488800232318334,-73.58121959729078,0,0,0,0,0,0,0,0,0,0
113,113,113,1.15926,404.7277426981326,-2.9054059218137174,-71.68036740335675,0,0,0,0,0,0,0,0,0,0
114,114,114,1.15928,404.590139654353,-2.834292158461212,-69.77668539125409,0,0,0,0,0,0,0,0,0,0
115,115,115,1.1593,404.4517736420048,-2.767938161218824,-67.87024871507177,0,0,0,0,0,0,0,0,0,0
116,116,116,1.15932,404.31286071541024,-2.7062132061965585,-65.96113263769992,0,0,0,0,0,0,0,0,0,0
117,117,117,1.15934,404.1735165871704,-2.5816213924759013,-64.04941252772048,0,0,0,0,0,0,0,0,0,0
118,118,118,1.15936,404.0328565696743,-2.52877099455179,-62.1351638566392,0,0,0,0,0,0,0,0,0,0
119,119,119,1.15938,403.8918407541227,-2.412845826664125,-60.218462195698656,0,0,0,0,0,0,0,0,0,0
120,120,120,1.1594,403.74989115398336,-2.3683695630400794,-58.29938321292912,0,0,0,0,0,0,0,0,0,0
121,121,121,1.15942,403.6076452879232,-2.2606173047273725,-56.37800267036957,0,0,0,0,0,0,0,0,0,0
122,122,122,1.15944,403.46432155001935,-2.224018036161546,-54.454396420781805,0,0,0,0,0,0,0,0,0,0
123,123,123,1.15946,403.3207622517589,-2.1239513839326647,-52.52864040488162,0,0,0,0,0,0,0,0,0,0
124,124,124,1.1594799999999998,403.17651659088807,-2.027562281194898,-50.60081064820172,0,0,0,0,0,0,0,0,0,0
125,125,125,1.1595,403.03175586151775,-1.9347395789472408,-48.67098325814242,0,0,0,0,0,0,0,0,0,0
126,126,126,1.15952,402.8861302375419,-1.9125136686746973,-46.739234421019646,0,0,0,0,0,0,0,0,0,0
127,127,127,1.15954,402.74036293645656,-1.8264637447613927,-44.80564039893483,0,0,0,0,0,0,0,0,0,0
128,128,128,1.15956,402.59422189406473,-1.6765493316363005,-42.8702775269041,0,0,0,0,0,0,0,0,0,0
129,129,129,1.15958,402.4470744995834,-1.6639566945868731,-40.933222209704766,0,0,0,0,0,0,0,0,0,0
130,130,130,1.1596,402.2997008025867,-1.6543467503341744,-38.99455091899903,0,0,0,0,0,0,0,0,0,0
131,131,131,1.15962,402.1522566304366,-1.5805923665610189,-37.05434019019238,0,0,0,0,0,0,0,0,0,0
132,132,132,1.15964,402.0045476230694,-1.4426633118913978,-35.112666619464655,0,0,0,0,0,0,0,0,0,0
133,133,133,1.15966,401.8561901460377,-1.3075065984229073,-33.16960686079888,0,0,0,0,0,0,0,0,0,0
134,134,134,1.15968,401.70718170165566,-1.3089369220673757,-31.225237622832125,0,0,0,0,0,0,0,0,0,0
135,135,135,1.1597,401.558155074645,-1.2459409600401277,-29.279635665967778,0,0,0,0,0,0,0,0,0,0
136,136,136,1.15972,401.4089540920557,-1.118498918954258,-27.33287779922212,0,0,0,0,0,0,0,0,0,0
137,137,137,1.15974,401.2591914525028,-1.0603461331715691,-25.385040877244712,0,0,0,0,0,0,0,0,0,0
138,138,138,1.15976,401.1092983027824,-0.9376261883502024,-23.436201797337247,0,0,0,0,0,0,0,0,0,0
139,139,139,1.15978,400.9590549894972,-0.8839838740021467,-21.4864374962944,0,0,0,0,0,0,0,0,0,0
140,140,140,1.1598,400.8087122703896,-0.7656625698343673,-19.535824947507503,0,0,0,0,0,0,0,0,0,0
141,141,141,1.15982,400.6580037227393,-0.7162084968385746,-17.58444115780238,0,0,0,0,0,0,0,0,0,0
142,142,142,1.15984,400.5072329449503,-0.6019737005134094,-15.632363164452077,0,0,0,0,0,0,0,0,0,0
143,143,143,1.15986,400.35626131632495,-0.5564130840561855,-13.679668032188594,0,0,0,0,0,0,0,0,0,0
144,144,144,1.15988,400.20518015411216,-0.5126797827953856,-11.726432850036876,0,0,0,0,0,0,0,0,0,0
145,145,145,1.1599,400.0540403214813,-0.4707083110281659,-9.77273472841278,0,0,0,0,0,0,0,0,0,0
146,146,146,1.1599199999999998,399.9028948422359,-0.3637821866249534,-7.818650795955211,0,0,0,0,0,0,0,0,0,0
147,147,147,1.15994,399.7516846852269,-0.1919108706382644,-5.864258196516532,0,0,0,0,0,0,0,0,0,0
148,148,148,1.15996,399.6003439253221,-0.221512631690605,-3.909634086258517,0,0,0,0,0,0,0,0,0,0
149,149,149,1.15998,399.44906447116034,-0.1860089338311876,-1.9548556302880904,0,0,0,0,0,0,0,0,0,0
150,150,150,1.16,399.29782657746273,-0.0854173832068061,1.540652627552874e-15,0,0,0,0,0,0,0,0,0,0
151,151,151,1.16002,399.1466033069661,1.9547969658551994e-06,1.9548556303057785,0,0,0,1,0,0,0,0,1,0
152,152,152,1.16004,398.995439924394,3.909575405709317e-06,3.9096340862408354,0,0,0,1,0,0,0,0,1,0
153,153,153,1.16006,398.844333790271,5.864199502220786e-06,5.864258196516534,0,0,0,1,0,0,0,0,1,0
154,154,154,1.16008,398.6932848826537,7.818592090194499e-06,7.818650795937534,0,0,0,1,0,0,0,0,1,0
155,155,155,1.1601,398.54229318035993,9.772676013522496e-06,9.772734728395104,0,0,0,1,0,0,0,0,1,0
156,156,156,1.16012,398.3913586617245,1.1726374128352646e-05,11.72643285003688,0,0,0,1,0,0,0,0,1,0
157,157,157,1.16014,398.2404813050909,1.3679609305993308e-05,13.679668032170929,0,0,0,1,0,0,0,0,1,0
158,158,158,1.16016,398.0896610888096,1.5632304436081923e-05,15.632363164434416,0,0,0,1,0,0,0,0,1,0
159,159,159,1.16018,397.93889799124247,1.7584382429575644e-05,17.584441157784724,0,0,0,1,0,0,0,0,1,0
160,160,160,1.1602,397.78819199075593,1.953576622174278e-05,19.535824947489854,0,0,0,1,0,0,0,0,1,0
161,161,161,1.16022,397.6375430657261,2.1486378775327723e-05,21.4864374962944,0,0,0,1,0,0,0,0,1,0
162,162,162,1.16024,397.4869511945376,2.343614308345154e-05,23.43620179731961,0,0,0,1,0,0,0,0,1,0
163,163,163,1.1602599999999998,397.33641635558206,2.538498217277564e-05,25.385040877227087,0,0,0,1,0,0,0,0,1,0
164,164,164,1.16028,397.1859385272607,2.733281910648704e-05,27.332877799204507,0,0,0,1,0,0,0,0,1,0
165,165,165,1.1603,397.0355176879816,2.9279576987284067e-05,29.27963566595017,0,0,0,1,0,0,0,0,1,0
166,166,166,1.16032,396.8851538161613,3.1225178960533614e-05,31.225237622832125,0,0,0,1,0,0,0,0,1,0
167,167,167,1.16034,396.73484689022496,3.316954821716627e-05,33.1696068607813,0,0,0,1,0,0,0,0,1,0
168,168,168,1.16036,396.5845968886064,3.511260799684846e-05,35.11266661946466,0,0,0,1,0,0,0,0,1,0
169,169,169,1.16038,396.4344037897464,3.705428159087168e-05,37.05434019017482,0,0,0,1,0,0,0,0,1,0
170,170,170,1.1604,396.2842675720936,3.8994492345304886e-05,38.99455091898148,0,0,0,1,0,0,0,0,1,0
171,171,171,1.16042,396.1341882141061,4.093316366396692e-05,40.933222209704766,0,0,0,1,0,0,0,0,1,0
172,172,172,1.16044,395.9841656942498,4.287021901139888e-05,42.87027752688658,0,0,0,1,0,0,0,0,1,0
173,173,173,1.16046,395.83419999099806,4.480558191602473e-05,44.80564039895233,0,0,0,1,0,0,0,0,1,0
174,174,174,1.16048,395.6842910828327,4.673917597294369e-05,46.739234421002166,0,0,0,1,0,0,0,0,1,0
175,175,175,1.1605,395.5344389482436,4.8670924847243046e-05,48.67098325812497,0,0,0,1,0,0,0,0,1,0
176,176,176,1.16052,395.3846435657295,5.0600752276802006e-05,50.60081064820172,0,0,0,1,0,0,0,0,1,0
177,177,177,1.16054,395.2349049137952,5.2528582075268745e-05,52.52864040488164,0,0,0,1,0,0,0,0,1,0
178,178,178,1.16056,395.08522297095607,5.445433813527592e-05,54.45439642079922,0,0,0,1,0,0,0,0,1,0
179,179,179,1.16058,394.9355977157341,5.637794443123684e-05,56.378002670369575,0,0,0,1,0,0,0,0,1,0
180,180,180,1.1606,394.7860291266603,5.829932502248626e-05,58.29938321292912,0,0,0,1,0,0,0,0,1,0
181,181,181,1.16062,394.6365171822729,6.0218404056225366e-05,60.21846219568132,0,0,0,1,0,0,0,0,1,0
182,182,182,1.16064,394.4870618611187,6.213510577046564e-05,62.1351638566392,0,0,0,1,0,0,0,0,1,0
183,183,183,1.16066,394.33766314175256,6.404935449713952e-05,64.04941252773779,0,0,0,1,0,0,0,0,1,0
184,184,184,1.16068,394.1883210027378,6.596107466495075e-05,65.96113263768264,0,0,0,1,0,0,0,0,1,0
185,185,185,1.1606999999999998,394.0390354226445,6.787019080247775e-05,67.87024871505452,0,0,0,1,0,0,0,0,1,0
186,186,186,1.16072,393.88980638005256,6.977662754110132e-05,69.77668539123687,0,0,0,1,0,0,0,0,1,0
187,187,187,1.16074,393.740633853549,7.168030961792924e-05,71.68036740333955,0,0,0,1,0,0,0,0,1,0
188,188,188,1.16076,393.5915178217288,7.35811618788868e-05,73.58121959729078,0,0,0,1,0,0,0,0,1,0
189,189,189,1.16078,393.4424582631961,7.547910928154746e-05,75.47916693066641,0,0,0,1,0,0,0,0,1,0
190,190,190,1.1608,393.29345515656127,7.737407689823171e-05,77.37413447578977,0,0,0,1,0,0,0,0,1,0
191,191,191,1.16082,393.1445084804439,7.926598991882857e-05,79.26604742255262,0,0,0,1,0,0,0,0,1,0
192,192,192,1.16084,392.995618213472,8.115477365386878e-05,81.15483108148851,0,0,0,1,0,0,0,0,1,0
193,193,193,1.16086,392.84678433428064,8.304035353742101e-05,83.04041088666966,0,0,0,1,0,0,0,0,1,0
194,194,194,1.16088,392.69800682151424,8.49226551299866e-05,84.92271239859993,0,0,0,1,0,0,0,0,1,0
195,195,195,1.1609,392.5492856538239,8.680160412155566e-05,86.80166130727268,0,0,0,1,0,0,0,0,1,0
196,196,196,1.16092,392.4006208098695,8.867712633440505e-05,88.67718343496828,0,0,0,1,0,0,0,0,1,0
197,197,197,1.16094,392.2520122683196,9.054914772614646e-05,90.5492047393016,0,0,0,1,0,0,0,0,1,0
198,198,198,1.16096,392.1034600078492,9.241759439259732e-05,92.41765131609374,0,0,0,1,0,0,0,0,1,0
199,199,199,1.16098,391.95496400714313,9.428239257064905e-05,94.28244940223942,0,0,0,1,0,0,0,0,1,0
200,200,200,1.161,391.8065242448926,9.614346864129624e-05,96.14352537873695,0,0,0,1,0,0,0,0,1,0
201,201,201,1.1610185537621256,391.8065242448926,9.614346864129624e-05,96.14352537873695,0,0,0,1,0,0,0,0,1,0
