,Unnamed: 0.1,Unnamed: 0,Time / s,Vo:Measured voltage,IL:Measured current,Vin:Measured voltage,open1:Output,open3:Output,open2:Output,open4:Output,short1:Output,short2:Output,short3:Output,short4:Output,OPEN,SHORT
0,0,0,1.1150039943531185,400.4944263885533,-12.858096783716157,-311.12698372208087,0,0,0,0,0,0,0,0,0,0
1,1,1,1.11502,400.6455863685058,-12.879929004925332,-311.1208423417897,0,0,0,0,0,0,0,0,0,0
2,2,2,1.11504,400.79636616098486,-12.897438847811095,-311.10241844336684,0,0,0,0,0,0,0,0,0,0
3,3,3,1.11506,400.9474453797086,-12.91022947020136,-311.0717127541568,0,0,0,0,0,0,0,0,0,0
4,4,4,1.1150799999999998,401.0987082256055,-12.91788560661436,-311.02872648636736,0,0,0,0,0,0,0,0,0,0
5,5,5,1.1151,401.2500292298606,-12.919995187628883,-310.9734613370223,0,0,0,0,0,0,0,0,0,0
6,6,6,1.11512,401.4012733357413,-12.916149604552208,-310.905919487896,0,0,0,0,0,0,0,0,0,0
7,7,7,1.11514,401.5522959865687,-12.905943971872452,-310.82610360542384,0,0,0,0,0,0,0,0,0,0
8,8,8,1.11516,401.70294321979407,-12.888977387336404,-310.73401684060167,0,0,0,0,0,0,0,0,0,0
9,9,9,1.11518,401.8538362709052,-12.864854249402857,-310.6296628288546,0,0,0,0,0,0,0,0,0,0
10,10,10,1.1152,402.0023776418382,-12.900143150650504,-310.5130456899052,0,0,0,0,0,0,0,0,0,0
11,11,11,1.11522,402.1532384084723,-12.860509554109754,-310.3841700275945,0,0,0,0,0,0,0,0,0,0
12,12,12,1.11524,402.3013765893856,-12.879527446068616,-310.24304092971147,0,0,0,0,0,0,0,0,0,0
13,13,13,1.11526,402.4498013550135,-12.889829426427896,-310.0896639677962,0,0,0,0,0,0,0,0,0,0
14,14,14,1.11528,402.59830443791776,-12.891003312708047,-309.92404519690456,0,0,0,0,0,0,0,0,0,0
15,15,15,1.1153,402.746668099862,-12.88264263106938,-309.7461911553851,0,0,0,0,0,0,0,0,0,0
16,16,16,1.11532,402.8946652715725,-12.86434687327257,-309.55610886460926,0,0,0,0,0,0,0,0,0,0
17,17,17,1.11534,403.0420596984089,-12.835721749947789,-309.3538058286987,0,0,0,0,0,0,0,0,0,0
18,18,18,1.11536,403.1886060918401,-12.796379440021186,-309.1392900342345,0,0,0,0,0,0,0,0,0,0
19,19,19,1.11538,403.3340502866354,-12.745938836150996,-308.91256994992887,0,0,0,0,0,0,0,0,0,0
20,20,20,1.1154,403.47812940367055,-12.684025786027057,-308.6736545263068,0,0,0,0,0,0,0,0,0,0
21,21,21,1.11542,403.6205720182576,-12.61027332939092,-308.4225531953381,0,0,0,0,0,0,0,0,0,0
22,22,22,1.11544,403.7610983338863,-12.524321930635727,-308.15927587007087,0,0,0,0,0,0,0,0,0,0
23,23,23,1.11546,403.89738440788096,-12.560418026879145,-307.883832944248,0,0,0,0,0,0,0,0,0,0
24,24,24,1.11548,404.0343025268476,-12.583666476926604,-307.5962352918794,0,0,0,0,0,0,0,0,0,0
25,25,25,1.1155,404.1715518007423,-12.593651134360035,-307.29649426683324,0,0,0,0,0,0,0,0,0,0
26,26,26,1.1155199999999998,404.30882196480496,-12.589964013880255,-306.98462170236945,0,0,0,0,0,0,0,0,0,0
27,27,27,1.11554,404.4457935739157,-12.572205541659386,-306.66062991067975,0,0,0,0,0,0,0,0,0,0
28,28,28,1.11556,404.5805309610169,-12.607396977758658,-306.32453168241136,0,0,0,0,0,0,0,0,0,0
29,29,29,1.11558,404.7158538363692,-12.627782292629655,-305.9763402861406,0,0,0,0,0,0,0,0,0,0
30,30,30,1.1156,404.8514185696295,-12.632949403704764,-305.6160694678739,0,0,0,0,0,0,0,0,0,0
31,31,31,1.11562,404.98764354308463,-12.622496896399912,-305.24373345047985,0,0,0,0,0,0,0,0,0,0
32,32,32,1.11564,405.1217771642209,-12.663512934262004,-304.85934693315363,0,0,0,0,0,0,0,0,0,0
33,33,33,1.11566,405.2574584179906,-12.620623768531718,-304.46292509081337,0,0,0,0,0,0,0,0,0,0
34,34,34,1.11568,405.39107137215314,-12.628472911494107,-304.0544835735109,0,0,0,0,0,0,0,0,0,0
35,35,35,1.1157,405.5246176215428,-12.619166964746992,-303.6340385058253,0,0,0,0,0,0,0,0,0,0
36,36,36,1.11572,405.65770289758905,-12.592314108317282,-303.2016064862004,0,0,0,0,0,0,0,0,0,0
37,37,37,1.11574,405.78992429726566,-12.54753308076817,-302.7572045863197,0,0,0,0,0,0,0,0,0,0
38,38,38,1.11576,405.9208705288853,-12.484453406872056,-302.30085035040537,0,0,0,0,0,0,0,0,0,0
39,39,39,1.11578,406.050122162892,-12.402715619034726,-301.832561794537,0,0,0,0,0,0,0,0,0,0
40,40,40,1.1158,406.1758661962624,-12.369651154111684,-301.35235740595334,0,0,0,0,0,0,0,0,0,0
41,41,41,1.11582,406.2999707208536,-12.384973653023891,-300.86025614228834,0,0,0,0,0,0,0,0,0,0
42,42,42,1.11584,406.4241513726308,-12.380631163265516,-300.35627743087497,0,0,0,0,0,0,0,0,0,0
43,43,43,1.11586,406.54796282122845,-12.356233417704788,-299.8404411679257,0,0,0,0,0,0,0,0,0,0
44,44,44,1.11588,406.6709512869765,-12.311401943109267,-299.3127677177541,0,0,0,0,0,0,0,0,0,0
45,45,45,1.1159,406.79107724897335,-12.313551264379738,-298.7732779120281,0,0,0,0,0,0,0,0,0,0
46,46,46,1.11592,406.9109712380368,-12.294580458418062,-298.22199304886686,0,0,0,0,0,0,0,0,0,0
47,47,47,1.11594,407.02933115911696,-12.32193247786904,-297.65893489206303,0,0,0,0,0,0,0,0,0,0
48,48,48,1.1159599999999998,407.14800985951575,-12.327433513741036,-297.08412567018354,0,0,0,0,0,0,0,0,0,0
49,49,49,1.11598,407.26651958233793,-12.31069238462912,-296.4975880757067,0,0,0,0,0,0,0,0,0,0
50,50,50,1.116,407.3843642444761,-12.271330678530664,-295.8993452641432,0,0,0,0,0,0,0,0,0,0
51,51,51,1.11602,407.5010397245596,-12.208982966215556,-295.2894208530841,0,0,0,0,0,0,0,0,0,0
52,52,52,1.11604,407.616034155437,-12.12329700748454,-294.66783892131167,0,0,0,0,0,0,0,0,0,0
53,53,53,1.11606,407.7274818865615,-12.081872721655538,-294.0346240078051,0,0,0,0,0,0,0,0,0,0
54,54,54,1.11608,407.83710890865046,-12.084429340149846,-293.38980111081645,0,0,0,0,0,0,0,0,0,0
55,55,55,1.1161,407.9464846924138,-12.062670503943949,-292.73339568684383,0,0,0,0,0,0,0,0,0,0
56,56,56,1.11612,408.05507482704695,-12.016225272388466,-292.0654336496433,0,0,0,0,0,0,0,0,0,0
57,57,57,1.11614,408.1623371628891,-11.944736529545684,-291.3859413692245,0,0,0,0,0,0,0,0,0,0
58,58,58,1.11616,408.26538207172274,-11.983917734277144,-290.69494567076686,0,0,0,0,0,0,0,0,0,0
59,59,59,1.11618,408.3689548002959,-11.997425747141827,-289.99247383361,0,0,0,0,0,0,0,0,0,0
60,60,60,1.1162,408.4724987105136,-11.984875070146598,-289.27855359013284,0,0,0,0,0,0,0,0,0,0
61,61,61,1.11622,408.5754492354065,-11.945894442029568,-288.55321312467765,0,0,0,0,0,0,0,0,0,0
62,62,62,1.11624,408.6772341905199,-11.88012703589466,-287.81648107245724,0,0,0,0,0,0,0,0,0,0
63,63,63,1.11626,408.77727408935607,-11.787230649372148,-287.068386518378,0,0,0,0,0,0,0,0,0,0
64,64,64,1.11628,408.87309802814656,-11.803138104962033,-286.30895899594566,0,0,0,0,0,0,0,0,0,0
65,65,65,1.1162999999999998,408.96892833721273,-11.791305473252734,-285.5382284860517,0,0,0,0,0,0,0,0,0,0
66,66,66,1.11632,409.06417276713,-11.751366031820156,-284.75622541580987,0,0,0,0,0,0,0,0,0,0
67,67,67,1.11634,409.1582316736857,-11.682968021872494,-283.9629806573765,0,0,0,0,0,0,0,0,0,0
68,68,68,1.11636,409.2504983399716,-11.585774830353351,-283.1585255266746,0,0,0,0,0,0,0,0,0,0
69,69,69,1.11638,409.3380862897352,-11.595880624677864,-282.3428917822521,0,0,0,0,0,0,0,0,0,0
70,70,70,1.1164,409.42554509844615,-11.576598969647245,-281.5161116238881,0,0,0,0,0,0,0,0,0,0
71,71,71,1.11642,409.5122566900876,-11.527571979783268,-280.67821769148486,0,0,0,0,0,0,0,0,0,0
72,72,72,1.11644,409.5970341132551,-11.516708297247732,-279.8292430636455,0,0,0,0,0,0,0,0,0,0
73,73,73,1.11646,409.6799617065549,-11.543698615065434,-278.9692212564266,0,0,0,0,0,0,0,0,0,0
74,74,74,1.11648,409.76309652322647,-11.539953350103389,-278.0981862220321,0,0,0,0,0,0,0,0,0,0
75,75,75,1.1165,409.8458015047439,-11.505111773119715,-277.216172347418,0,0,0,0,0,0,0,0,0,0
76,76,76,1.11652,409.92743256365935,-11.438828866245574,-276.3232144529978,0,0,0,0,0,0,0,0,0,0
77,77,77,1.11654,410.00733891170256,-11.340775491335142,-275.41934779121215,0,0,0,0,0,0,0,0,0,0
78,78,78,1.11656,410.0833988668698,-11.278969644264713,-274.50460804516086,0,0,0,0,0,0,0,0,0,0
79,79,79,1.11658,410.1570661073085,-11.253151791355045,-273.5790313272196,0,0,0,0,0,0,0,0,0,0
80,80,80,1.1166,410.2298495728239,-11.194669248280531,-272.64265417755536,0,0,0,0,0,0,0,0,0,0
81,81,81,1.11662,410.29931209593775,-11.239931380649438,-271.69551356275167,0,0,0,0,0,0,0,0,0,0
82,82,82,1.11664,410.36931947596287,-11.251904582585931,-270.73764687428985,0,0,0,0,0,0,0,0,0,0
83,83,83,1.11666,410.43920223192,-11.230231104571804,-269.76909192709786,0,0,0,0,0,0,0,0,0,0
84,84,84,1.11668,410.508284143617,-11.174569307566282,-268.789886958084,0,0,0,0,0,0,0,0,0,0
85,85,85,1.1167,410.57588257793645,-11.084593819890186,-267.80007062456616,0,0,0,0,0,0,0,0,0,0
86,86,86,1.11672,410.641308818058,-10.95999568683143,-266.7996820028162,0,0,0,0,0,0,0,0,0,0
87,87,87,1.1167399999999998,410.702451705144,-10.868917349182729,-265.7887605864551,0,0,0,0,0,0,0,0,0,0
88,88,88,1.11676,410.7594913635545,-10.879560196268836,-264.76734628492005,0,0,0,0,0,0,0,0,0,0
89,89,89,1.11678,410.8170389452488,-10.854756840884404,-263.7354794219174,0,0,0,0,0,0,0,0,0,0
90,90,90,1.1168,410.8725421257399,-10.8626249281866,-262.69320073376514,0,0,0,0,0,0,0,0,0,0
91,91,91,1.11682,410.9278254641079,-10.83439560884341,-261.64055136786016,0,0,0,0,0,0,0,0,0,0
92,92,92,1.11684,410.9821858752056,-10.769740414578283,-260.57757288097804,0,0,0,0,0,0,0,0,0,0
93,93,93,1.11686,411.0349143308388,-10.668347370686,-259.5043072377085,0,0,0,0,0,0,0,0,0,0
94,94,94,1.11688,411.0852961831517,-10.529921130950228,-258.4207968087318,0,0,0,0,0,0,0,0,0,0
95,95,95,1.1169,411.1293837901068,-10.559708053867856,-257.32708436917454,0,0,0,0,0,0,0,0,0,0
96,96,96,1.11692,411.1736635168017,-10.55194529164285,-256.2232130969509,0,0,0,0,0,0,0,0,0,0
97,97,97,1.11694,411.2169179749772,-10.57482652576892,-255.1092265709784,0,0,0,0,0,0,0,0,0,0
98,98,98,1.11696,411.2602254211507,-10.559510625695372,-253.9851687695881,0,0,0,0,0,0,0,0,0,0
99,99,99,1.11698,411.3028652419917,-10.505673820235303,-252.85108406861715,0,0,0,0,0,0,0,0,0,0
100,100,100,1.117,411.3441111699093,-10.413008815609723,-251.7070172397768,0,0,0,0,0,0,0,0,0,0
101,101,101,1.11702,411.3832315958941,-10.28122492014358,-250.553013448908,0,0,0,0,0,0,0,0,0,0
102,102,102,1.11704,411.4181513274672,-10.178603211626816,-249.3891182540731,0,0,0,0,0,0,0,0,0,0
103,103,103,1.11706,411.44985556238913,-10.173471525630534,-248.2153776038828,0,0,0,0,0,0,0,0,0,0
104,104,104,1.11708,411.4797406385924,-10.196984361781247,-247.03183783559749,0,0,0,0,0,0,0,0,0,0
105,105,105,1.1171,411.50967433661634,-10.180283251485866,-245.83854567333,0,0,0,0,0,0,0,0,0,0
106,106,106,1.11712,411.5389227285045,-10.12305563903276,-244.63554822623308,0,0,0,0,0,0,0,0,0,0
107,107,107,1.11714,411.5667466310263,-10.025005317602838,-243.42289298656448,0,0,0,0,0,0,0,0,0,0
108,108,108,1.11716,411.5924019058912,-9.885852541929232,-242.2006278278985,0,0,0,0,0,0,0,0,0,0
109,109,109,1.1171799999999998,411.6127991387923,-9.842512421747529,-240.96880100315985,0,0,0,0,0,0,0,0,0,0
110,110,110,1.1172,411.63220651010727,-9.826167994902026,-239.72746114275108,0,0,0,0,0,0,0,0,0,0
111,111,111,1.11722,411.6496396171219,-9.836513724468851,-238.4766572526668,0,0,0,0,0,0,0,0,0,0
112,112,112,1.11724,411.66687499496703,-9.804674028785415,-237.21643871248028,0,0,0,0,0,0,0,0,0,0
113,113,113,1.11726,411.6831687732836,-9.730352846104712,-235.94685527348443,0,0,0,0,0,0,0,0,0,0
114,114,114,1.11728,411.6977723026185,-9.613270247695672,-234.66795705663657,0,0,0,0,0,0,0,0,0,0
115,115,115,1.1173,411.7099324406144,-9.453162537500354,-233.3797945506716,0,0,0,0,0,0,0,0,0,0
116,116,116,1.11732,411.71557474694936,-9.524214773330575,-232.0824186100281,0,0,0,0,0,0,0,0,0,0
117,117,117,1.11734,411.7220487233146,-9.551746735142734,-230.7758804528748,0,0,0,0,0,0,0,0,0,0
118,118,118,1.11736,411.7286130239738,-9.535451666435849,-229.46023165912467,0,0,0,0,0,0,0,0,0,0
119,119,119,1.11738,411.7345215121371,-9.475038463470629,-228.1355241683156,0,0,0,0,0,0,0,0,0,0
120,120,120,1.1174,411.7390235281825,-9.370231771853607,-226.80181027765488,0,0,0,0,0,0,0,0,0,0
121,121,121,1.11742,411.74136415936016,-9.220772078017852,-225.45914263987143,0,0,0,0,0,0,0,0,0,0
122,122,122,1.11744,411.73982810502713,-9.095028189619592,-224.10757426117223,0,0,0,0,0,0,0,0,0,0
123,123,123,1.11746,411.7335568712254,-9.129991692299704,-222.7471584991871,0,0,0,0,0,0,0,0,0,0
124,124,124,1.11748,411.7274859315037,-9.119569272966498,-221.37794906077625,0,0,0,0,0,0,0,0,0,0
125,125,125,1.1175,411.7208703226128,-9.063478782247945,-220.0000000000087,0,0,0,0,0,0,0,0,0,0
126,126,126,1.1175199999999998,411.7129608724709,-8.961453368018395,-218.6133657159416,0,0,0,0,0,0,0,0,0,0
127,127,127,1.11754,411.7030044527135,-8.813241557999348,-217.21810095050927,0,0,0,0,0,0,0,0,0,0
128,128,128,1.11756,411.68897191908746,-8.755817884577278,-215.8142607864013,0,0,0,0,0,0,0,0,0,0
129,129,129,1.11758,411.6718414085042,-8.788930595032529,-214.401900644785,0,0,0,0,0,0,0,0,0,0
130,130,130,1.1176,411.6548662773613,-8.775116272458222,-212.98107628327165,0,0,0,0,0,0,0,0,0,0
131,131,131,1.11762,411.6373049841786,-8.714104967344305,-211.5518437935357,0,0,0,0,0,0,0,0,0,0
132,132,132,1.11764,411.6184121320289,-8.605641534591513,-210.11425959925464,0,0,0,0,0,0,0,0,0,0
133,133,133,1.11766,411.5974387038202,-8.449485706954388,-208.6683804537778,0,0,0,0,0,0,0,0,0,0
134,134,134,1.11768,411.5712930842312,-8.451168133663625,-207.21426343792507,0,0,0,0,0,0,0,0,0,0
135,135,135,1.1177,411.5441923395367,-8.473271232408985,-205.75196595777263,0,0,0,0,0,0,0,0,0,0
136,136,136,1.11772,411.51706645535774,-8.446946654520707,-204.2815457422947,0,0,0,0,0,0,0,0,0,0
137,137,137,1.11774,411.4891798563832,-8.371939244722665,-202.80306084119024,0,0,0,0,0,0,0,0,0,0
138,138,138,1.11776,411.4597934887788,-8.24800811825783,-201.3165696224983,0,0,0,0,0,0,0,0,0,0
139,139,139,1.11778,411.4273229527449,-8.14348855417222,-199.8221307703333,0,0,0,0,0,0,0,0,0,0
140,140,140,1.1178,411.39149706051495,-8.126706352289219,-198.31980328260937,0,0,0,0,0,0,0,0,0,0
141,141,141,1.11782,411.354469616464,-8.128857158240292,-196.80964646861608,0,0,0,0,0,0,0,0,0,0
142,142,142,1.11784,411.31712111488,-8.081137621299957,-195.291719946786,0,0,0,0,0,0,0,0,0,0
143,143,143,1.11786,411.2787246576208,-7.983309361456758,-193.76608364224543,0,0,0,0,0,0,0,0,0,0
144,144,144,1.11788,411.2385502548436,-7.835147696788638,-192.2327977844896,0,0,0,0,0,0,0,0,0,0
145,145,145,1.1179,411.19402202314575,-7.773486470414487,-190.6919229050463,0,0,0,0,0,0,0,0,0,0
146,146,146,1.11792,411.1473758537613,-7.798093758055718,-189.1435198349897,0,0,0,0,0,0,0,0,0,0
147,147,147,1.11794,411.1007307351288,-7.771677363434016,-187.58764970264951,0,0,0,0,0,0,0,0,0,0
148,148,148,1.1179599999999998,411.053373901646,-7.694004056916194,-186.0243739311007,0,0,0,0,0,0,0,0,0,0
149,149,149,1.11798,411.0045896981948,-7.564853653453492,-184.45375423577968,0,0,0,0,0,0,0,0,0,0
150,150,150,1.118,410.9536597633932,-7.384019062835662,-182.87585262209103,0,0,0,0,0,0,0,0,0,0
151,151,151,1.11802,36.38071115185516,-13.452233595600807,-181.29073138286017,0,0,0,0,0,0,0,1,0,1
152,152,152,1.11804,1.7555855028188825,-19.47208678798233,-179.69845309598813,0,0,0,0,0,0,0,1,0,1
153,153,153,1.11806,0.0832125007938242,-25.435496953531533,-178.09908062186642,0,0,0,0,0,0,0,1,0,1
154,154,154,1.11808,0.0039270410508226,-31.345377991585305,-176.4926771010108,0,0,0,0,0,0,0,1,0,1
155,155,155,1.1181,0.0002176070915439,-37.20159582820423,-174.87930595146707,0,0,0,0,0,0,0,1,0,1
156,156,156,1.11812,4.929259345107968e-05,-43.003919193161884,-173.25903086633645,0,0,0,0,0,0,0,1,0,1
157,157,157,1.11814,4.875192949910152e-05,-48.75211890361124,-171.63191581137826,0,0,0,0,0,0,0,1,0,1
158,158,158,1.11816,5.4445780583893074e-05,-54.44596826229006,-169.99802502222045,0,0,0,0,0,0,0,1,0,1
159,159,159,1.11818,6.008505642816925e-05,-60.08524237238902,-168.35742300214764,0,0,0,0,0,0,0,1,0,1
160,160,160,1.1182,6.566953440472339e-05,-65.66971860676995,-166.71017451928876,0,0,0,0,0,0,0,1,0,1
161,161,161,1.11822,7.119899404967457e-05,-71.19917650162063,-165.0563446041785,0,0,0,0,0,0,0,1,0,1
162,162,162,1.11824,7.667321707117137e-05,-76.67339776515881,-163.39599854721996,0,0,0,0,0,0,0,1,0,1
163,163,163,1.11826,8.209198735800998e-05,-82.09216628624998,-161.7292018960025,0,0,0,0,0,0,0,1,0,1
164,164,164,1.11828,8.74550909881654e-05,-87.455268142939,-160.05602045283402,0,0,0,0,0,0,0,1,0,1
165,165,165,1.1182999999999998,9.276231623723696e-05,-92.76249161089508,-158.37652027203796,0,0,0,0,0,0,0,1,0,1
166,166,166,1.11832,9.801345358680696e-05,-98.01362717177088,-156.69076765739032,0,0,0,0,0,0,0,1,0,1
167,167,167,1.11834,0.0001032082957327,-103.20846752147273,-154.99882915954842,0,0,0,0,0,0,0,1,0,1
168,168,168,1.11836,0.0001083466375932,-108.3468075783464,-153.30077157331647,0,0,0,0,0,0,0,1,0,1
169,169,169,1.11838,0.0001134282763171,-113.4284444912725,-151.59666193513115,0,0,0,0,0,0,0,1,0,1
170,170,170,1.1183999999999998,0.0001184530112918,-118.45317764767442,-149.88656752030775,0,0,0,0,0,0,0,1,0,1
171,171,171,1.11842,0.0001234206441511,-123.42080868143788,-148.17055584043007,0,0,0,0,0,0,0,1,0,1
172,172,172,1.11844,0.0001283309787831,-128.3311414807436,-146.44869464073196,0,0,0,0,0,0,0,1,0,1
173,173,173,1.11846,0.0001331838213379,-133.18398219580777,-144.72105189731414,0,0,0,0,0,0,0,1,0,1
174,174,174,1.11848,0.0001379789802354,-137.97913924653596,-142.98769581458524,0,0,0,0,0,0,0,1,0,1
175,175,175,1.1185,0.0001427162661726,-142.71642333008575,-141.24869482244398,0,0,0,0,0,0,0,1,0,1
176,176,176,1.11852,0.0001473954921314,-147.3956474283413,-139.5041175737034,0,0,0,0,0,0,0,1,0,1
177,177,177,1.11854,0.0001520164733857,-152.0166268152941,-137.75403294127037,0,0,0,0,0,0,0,1,0,1
178,178,178,1.11856,0.0001565790275088,-156.5791790643381,-135.99851001547364,0,0,0,0,0,0,0,1,0,1
179,179,179,1.11858,0.0001610829743806,-161.08312405547073,-134.23761810138413,0,0,0,0,0,0,0,1,0,1
180,180,180,1.1186,0.0001655281361948,-165.52828398240274,-132.47142671596768,0,0,0,0,0,0,0,1,0,1
181,181,181,1.11862,0.0001699143374657,-169.91448335957907,-130.70000558546784,0,0,0,0,0,0,0,1,0,1
182,182,182,1.11864,0.0001742414050354,-174.24154902910638,-128.92342464254182,0,0,0,0,0,0,0,1,0,1
183,183,183,1.11866,0.0001785091680804,-178.50931016758858,-127.14175402354704,0,0,0,0,0,0,0,1,0,1
184,184,184,1.11868,0.0001827174581184,-182.7175982928716,-125.35506406582113,0,0,0,0,0,0,0,1,0,1
185,185,185,1.1187,0.0001868661090152,-186.86624727069287,-123.56342530477572,0,0,0,0,0,0,0,1,0,1
186,186,186,1.11872,0.0001909549569908,-190.95509332124183,-121.76690847132244,0,0,0,0,0,0,0,1,0,1
187,187,187,1.1187399999999998,0.0001949838406263,-194.9839750256256,-119.96558448880484,0,0,0,0,0,0,0,1,0,1
188,188,188,1.11876,0.00019895260087,-198.9527333322403,-118.15952447039297,0,0,0,0,0,0,0,1,0,1
189,189,189,1.11878,0.0002028610810437,-202.8612115630512,-116.34879971630914,0,0,0,0,0,0,0,1,0,1
190,190,190,1.1188,0.0002067091268492,-206.70925541977792,-114.53348171081718,0,0,0,0,0,0,0,1,0,1
191,191,191,1.11882,0.0002104965863739,-210.4967129899848,-112.71364211959646,0,0,0,0,0,0,0,1,0,1
192,192,192,1.11884,0.0002142233100971,-214.22343475308017,-110.88935278676504,0,0,0,0,0,0,0,1,0,1
193,193,193,1.11886,0.000217889150896,-217.8892735862172,-109.06068573217507,0,0,0,0,0,0,0,1,0,1
194,194,194,1.11888,0.0002214939640511,-221.4940847701029,-107.22771314845426,0,0,0,0,0,0,0,1,0,1
195,195,195,1.1189,0.0002250376072523,-225.03772599471284,-105.390507398205,0,0,0,0,0,0,0,1,0,1
196,196,196,1.11892,0.0002285199406045,-228.5200573649061,-103.54914101119772,0,0,0,0,0,0,0,1,0,1
197,197,197,1.11894,0.0002319408266328,-231.94094140595,-101.7036866813912,0,0,0,0,0,0,0,1,0,1
198,198,198,1.11896,0.0002353001302882,-235.3002430689481,-99.8542172641958,0,0,0,0,0,0,0,1,0,1
199,199,199,1.11898,0.000238597718953,-238.5978297361698,-98.00080577348064,0,0,0,0,0,0,0,1,0,1
200,200,200,1.119,0.0002418334624456,-241.8335712262877,-96.143525378741,0,0,0,0,0,0,0,1,0,1
201,201,201,1.119003994353118,0.0002418334624456,-241.8335712262877,-96.143525378741,0,0,0,0,0,0,0,1,0,1
