,Unnamed: 0.1,Unnamed: 0,Time / s,Vo:Measured voltage,IL:Measured current,Vin:Measured voltage,short1:Output,short2:Output,short3:Output,short4:Output,open1:Output,open3:Output,open2:Output,open4:Output,OPEN,SHORT
0,0,0,1.163515610667749,390.4553954337461,11.496386875500292,277.2161723474241,0,0,0,0,0,0,0,0,0,0
1,1,1,1.16352,390.5544047208795,11.508561045255632,278.0981862220302,0,0,0,0,0,0,0,0,0,0
2,2,2,1.16354,390.6539265280561,11.547602062559484,278.96922125643255,0,0,0,0,0,0,0,0,0,0
3,3,3,1.16356,390.7545344681932,11.613121880306169,279.8292430636436,0,0,0,0,0,0,0,0,0,0
4,4,4,1.1635799999999998,390.8567934325624,11.704717877708854,280.6782176914831,0,0,0,0,0,0,0,0,0,0
5,5,5,1.1636,390.962883509682,11.691683745234975,281.5161116238938,0,0,0,0,0,0,0,0,0,0
6,6,6,1.16362,391.06892164683273,11.703849752857176,282.3428917822428,0,0,0,0,0,0,0,0,0,0
7,7,7,1.16364,391.1754535167241,11.740837244891395,283.15852552668014,0,0,0,0,0,0,0,0,0,0
8,8,8,1.16366,391.28301617198713,11.802253527678188,283.9629806573675,0,0,0,0,0,0,0,0,0,0
9,9,9,1.16368,391.39479335993207,11.757260439684035,284.75622541580816,0,0,0,0,0,0,0,0,0,0
10,10,10,1.1637,391.50483463719854,11.801051503752834,285.538228486043,0,0,0,0,0,0,0,0,0,0
11,11,11,1.16372,391.6170166435896,11.802789009050072,286.3089589959371,0,0,0,0,0,0,0,0,0,0
12,12,12,1.16374,391.7294457473988,11.827296208348043,287.0683865183764,0,0,0,0,0,0,0,0,0,0
13,13,13,1.16376,391.8426211693792,11.874181699585996,287.8164810724489,0,0,0,0,0,0,0,0,0,0
14,14,14,1.16378,391.9570331404792,11.943041085703468,288.55321312467606,0,0,0,0,0,0,0,0,0,0
15,15,15,1.1638,392.07316262045686,12.033457212918456,289.2785535901248,0,0,0,0,0,0,0,0,0,0
16,16,16,1.16382,392.1926757897402,12.079650206426598,289.99247383360205,0,0,0,0,0,0,0,0,0,0
17,17,17,1.16384,392.31386279558376,12.081135048236488,290.69494567076543,0,0,0,0,0,0,0,0,0,0
18,18,18,1.16386,392.43526218052784,12.102852352376791,291.3859413692168,0,0,0,0,0,0,0,0,0,0
19,19,19,1.16388,392.557323107011,12.144406593225566,292.0654336496418,0,0,0,0,0,0,0,0,0,0
20,20,20,1.1639,392.68223011950863,12.139962507766857,292.7333956868364,0,0,0,0,0,0,0,0,0,0
21,21,21,1.1639199999999998,392.8064630136389,12.154485124277612,293.3898011108091,0,0,0,0,0,0,0,0,0,0
22,22,22,1.16394,392.9329260770815,12.122132786936234,294.0346240078037,0,0,0,0,0,0,0,0,0,0
23,23,23,1.16396,393.0588118570744,12.107929510099057,294.6678389213046,0,0,0,0,0,0,0,0,0,0
24,24,24,1.16398,393.18452870330793,12.111495757195163,295.2894208530883,0,0,0,0,0,0,0,0,0,0
25,25,25,1.164,393.31047606247023,12.132441100152482,295.89934526413646,0,0,0,0,0,0,0,0,0,0
26,26,26,1.16402,393.437044236866,12.170364461223745,296.4975880757108,0,0,0,0,0,0,0,0,0,0
27,27,27,1.16404,393.5646141486894,12.224854360788395,297.08412567018223,0,0,0,0,0,0,0,0,0,0
28,28,28,1.16406,393.69355711008745,12.295489170985752,297.65893489206184,0,0,0,0,0,0,0,0,0,0
29,29,29,1.16408,393.8242345991344,12.3818373750326,298.2219930488708,0,0,0,0,0,0,0,0,0,0
30,30,30,1.1641,393.9569980418504,12.483457832074505,298.77327791202686,0,0,0,0,0,0,0,0,0,0
31,31,31,1.16412,394.093424036811,12.534233770374192,299.31276771775777,0,0,0,0,0,0,0,0,0,0
32,32,32,1.16414,394.2316017964128,12.533656273985583,299.8404411679199,0,0,0,0,0,0,0,0,0,0
33,33,33,1.16416,394.3698726581927,12.546969070999308,300.35627743087383,0,0,0,0,0,0,0,0,0,0
34,34,34,1.16418,394.5103570223604,12.508037877286526,300.86025614229175,0,0,0,0,0,0,0,0,0,0
35,35,35,1.1642,394.64823575757566,12.547894334126877,301.3523574059479,0,0,0,0,0,0,0,0,0,0
36,36,36,1.16422,394.788172252463,12.534664886204672,301.83256179453593,0,0,0,0,0,0,0,0,0,0
37,37,37,1.16424,394.92788985593694,12.533679203141196,302.30085035040014,0,0,0,0,0,0,0,0,0,0
38,38,38,1.16426,395.06766789971607,12.544540839730551,302.75720458631463,0,0,0,0,0,0,0,0,0,0
39,39,39,1.16428,395.2095797045285,12.500997307018269,303.2016064861994,0,0,0,0,0,0,0,0,0,0
40,40,40,1.1643,395.348751721008,12.534312827369677,303.63403850582046,0,0,0,0,0,0,0,0,0,0
41,41,41,1.16432,395.49057057247455,12.512385542672176,304.0544835735099,0,0,0,0,0,0,0,0,0,0
42,42,42,1.16434,395.6301400198119,12.56655940290616,304.4629250908088,0,0,0,0,0,0,0,0,0,0
43,43,43,1.1643599999999998,395.7728379030045,12.564625450669816,304.85934693314925,0,0,0,0,0,0,0,0,0,0
44,44,44,1.16438,395.915545770975,12.5720425150643,305.24373345047906,0,0,0,0,0,0,0,0,0,0
45,45,45,1.1644,396.0584770779009,12.588405448344355,305.6160694678698,0,0,0,0,0,0,0,0,0,0
46,46,46,1.16442,396.2018356770655,12.613303280420157,305.9763402861398,0,0,0,0,0,0,0,0,0,0
47,47,47,1.16444,396.3458156917381,12.646319483254274,306.3245316824075,0,0,0,0,0,0,0,0,0,0
48,48,48,1.16446,396.4906013923136,12.687032238491314,306.66062991067906,0,0,0,0,0,0,0,0,0,0
49,49,49,1.16448,396.6363670797778,12.735014708157507,306.98462170236587,0,0,0,0,0,0,0,0,0,0
50,50,50,1.1645,396.78327697556784,12.789835308266564,307.2964942668298,0,0,0,0,0,0,0,0,0,0
51,51,51,1.16452,396.9314851178854,12.851057985165667,307.5962352918787,0,0,0,0,0,0,0,0,0,0
52,52,52,1.16454,397.0811352645304,12.91824249445452,307.8838329442448,0,0,0,0,0,0,0,0,0,0
53,53,53,1.16456,397.2323608023022,12.990944682308504,308.1592758700727,0,0,0,0,0,0,0,0,0,0
54,54,54,1.16458,397.3870526559151,12.936291703784544,308.4225531953375,0,0,0,0,0,0,0,0,0,0
55,55,55,1.1646,397.53996712450544,12.952446970577538,308.67365452630406,0,0,0,0,0,0,0,0,0,0
56,56,56,1.16462,397.69373584221023,12.90655108384778,308.91256994993046,0,0,0,0,0,0,0,0,0,0
57,57,57,1.16464,397.84593080260873,12.930722859385831,309.139290034234,0,0,0,0,0,0,0,0,0,0
58,58,58,1.16466,397.99915483697055,12.891995200708108,309.35380582870016,0,0,0,0,0,0,0,0,0,0
59,59,59,1.16468,398.15018739737735,12.922587887496144,309.55610886460886,0,0,0,0,0,0,0,0,0,0
60,60,60,1.1646999999999998,398.3031699726299,12.889440093370496,309.7461911553846,0,0,0,0,0,0,0,0,0,0
61,61,61,1.16472,398.45408405938576,12.9248528529009,309.9240451969057,0,0,0,0,0,0,0,0,0,0
62,62,62,1.16474,398.60705209422775,12.895660629594838,310.08966396779584,0,0,0,0,0,0,0,0,0,0
63,63,63,1.16476,398.75928847317465,12.867819498334368,310.24304092971244,0,0,0,0,0,0,0,0,0,0
64,64,64,1.16478,398.9103550911952,12.907404665777529,310.38417002759303,0,0,0,0,0,0,0,0,0,0
65,65,65,1.1648,399.06277267729286,12.881082961758004,310.51304568990486,0,0,0,0,0,0,0,0,0,0
66,66,66,1.16482,399.2140458363577,12.92141608620586,310.62966282885526,0,0,0,0,0,0,0,0,0,0
67,67,67,1.16484,399.366678824906,12.894968980080105,310.73401684060053,0,0,0,0,0,0,0,0,0,0
68,68,68,1.16486,399.5173691081134,12.934408313323129,310.82610360542367,0,0,0,0,0,0,0,0,0,0
69,69,69,1.16488,399.67017454057,12.906210628222068,310.9059194878952,0,0,0,0,0,0,0,0,0,0
70,70,70,1.1649,399.82098524501134,12.9431282201542,310.97346133702206,0,0,0,0,0,0,0,0,0,0
71,71,71,1.16492,399.9738428314872,12.91153788467696,311.0287264863668,0,0,0,0,0,0,0,0,0,0
72,72,72,1.16494,400.1246159786805,12.94429504183818,311.07171275415635,0,0,0,0,0,0,0,0,0,0
73,73,73,1.16496,400.27732809169896,12.907677754696572,311.10241844336684,0,0,0,0,0,0,0,0,0,0
74,74,74,1.16498,400.4286146084216,12.934641702259563,311.1208423417895,0,0,0,0,0,0,0,0,0,0
75,75,75,1.165,400.5796510723409,12.958101769068694,311.12698372208087,0,0,0,0,0,0,0,0,0,0
76,76,76,1.16502,400.7323942200157,12.910880237429176,311.1208423417897,0,0,0,0,0,0,0,0,0,0
77,77,77,1.16504,400.8834481158781,12.926090914009803,311.10241844336707,0,0,0,0,0,0,0,0,0,0
78,78,78,1.16506,401.0347473740365,12.936576164302735,311.0717127541568,0,0,0,0,0,0,0,0,0,0
79,79,79,1.16508,401.1853907160997,12.941926040730928,311.02872648636736,0,0,0,0,0,0,0,0,0,0
80,80,80,1.1651,401.3360387443942,12.941746238116082,310.97346133702223,0,0,0,0,0,0,0,0,0,0
81,81,81,1.16512,401.4873420006587,12.935625609211602,310.905919487896,0,0,0,0,0,0,0,0,0,0
82,82,82,1.1651399999999998,401.63837051291694,12.92314427401468,310.8261036054246,0,0,0,0,0,0,0,0,0,0
83,83,83,1.16516,401.787712496406,12.970851029538029,310.7340168406007,0,0,0,0,0,0,0,0,0,0
84,84,84,1.16518,401.9385085953915,12.944465016730462,310.62966282885645,0,0,0,0,0,0,0,0,0,0
85,85,85,1.1652,402.089324666924,12.910508431476512,310.513045689904,0,0,0,0,0,0,0,0,0,0
86,86,86,1.16522,402.23794041303057,12.935602307466915,310.38417002759326,0,0,0,0,0,0,0,0,0,0
87,87,87,1.16524,402.38698932688334,12.952374052151423,310.2430409297114,0,0,0,0,0,0,0,0,0,0
88,88,88,1.16526,402.5375299476464,12.893334288581872,310.0896639677961,0,0,0,0,0,0,0,0,0,0
89,89,89,1.16528,402.6852727865033,12.89221133184496,309.92404519690604,0,0,0,0,0,0,0,0,0,0
90,90,90,1.1653,402.8328236469149,12.881574200648364,309.746191155385,0,0,0,0,0,0,0,0,0,0
91,91,91,1.16532,402.9799560018458,12.861023729320056,309.5561088646092,0,0,0,0,0,0,0,0,0,0
92,92,92,1.16534,403.1264341698244,12.830166956639712,309.3538058286986,0,0,0,0,0,0,0,0,0,0
93,93,93,1.16536,403.27201346605614,12.788617374477154,309.1392900342344,0,0,0,0,0,0,0,0,0,0
94,94,94,1.16538,403.4164403592413,12.73599517244951,308.91256994993086,0,0,0,0,0,0,0,0,0,0
95,95,95,1.1654,403.5594526339865,12.671927478452202,308.6736545263067,0,0,0,0,0,0,0,0,0,0
96,96,96,1.16542,403.70077955872176,12.596048594920626,308.422553195338,0,0,0,0,0,0,0,0,0,0
97,97,97,1.16544,403.8373043097402,12.642577706726382,308.1592758700708,0,0,0,0,0,0,0,0,0,0
98,98,98,1.16546,403.9747072553802,12.676654571413271,307.88383294424784,0,0,0,0,0,0,0,0,0,0
99,99,99,1.1654799999999998,404.1126965009955,12.697856293112183,307.5962352918819,0,0,0,0,0,0,0,0,0,0
100,100,100,1.1655,404.2509706155612,12.705767895787972,307.2964942668331,0,0,0,0,0,0,0,0,0,0
101,101,101,1.16552,404.3892188205842,12.699982577790548,306.9846217023693,0,0,0,0,0,0,0,0,0,0
102,102,102,1.16554,404.52712118474864,12.680101961512367,306.66062991067963,0,0,0,0,0,0,0,0,0,0
103,103,103,1.16556,404.66434882417707,12.64573633800752,306.3245316824112,0,0,0,0,0,0,0,0,0,0
104,104,104,1.1655799999999998,404.8001075986618,12.663952358462648,305.9763402861436,0,0,0,0,0,0,0,0,0,0
105,105,105,1.1656,404.9360588465506,12.666940062568756,305.6160694678738,0,0,0,0,0,0,0,0,0,0
106,106,106,1.16562,405.071849563801,12.654297879294642,305.24373345048315,0,0,0,0,0,0,0,0,0,0
107,107,107,1.16564,405.20588122990256,12.693152262952722,304.8593469331534,0,0,0,0,0,0,0,0,0,0
108,108,108,1.16566,405.3405605277701,12.71563095652776,304.46292509081314,0,0,0,0,0,0,0,0,0,0
109,109,109,1.16568,405.47675306576514,12.653759531488134,304.0544835735069,0,0,0,0,0,0,0,0,0,0
110,110,110,1.1657,405.6100516416674,12.64225761614382,303.63403850582506,0,0,0,0,0,0,0,0,0,0
111,111,111,1.16572,405.7428406651075,12.613215848551906,303.2016064862042,0,0,0,0,0,0,0,0,0,0
112,112,112,1.16574,405.874717455832,12.566254180500858,302.75720458631537,0,0,0,0,0,0,0,0,0,0
113,113,113,1.16576,406.0052709722996,12.501003343974524,302.30085035040094,0,0,0,0,0,0,0,0,0,0
114,114,114,1.16578,406.13408206231605,12.41710507189393,301.83256179453247,0,0,0,0,0,0,0,0,0,0
115,115,115,1.1658,406.25793848647953,12.449597473599567,301.35235740594874,0,0,0,0,0,0,0,0,0,0
116,116,116,1.16582,406.38226308422566,12.462821024385748,300.8602561422926,0,0,0,0,0,0,0,0,0,0
117,117,117,1.16584,406.50661920126015,12.456374992318416,300.3562774308747,0,0,0,0,0,0,0,0,0,0
118,118,118,1.16586,406.6305614934333,12.429870213609,299.84044116792074,0,0,0,0,0,0,0,0,0,0
119,119,119,1.16588,406.753636191932,12.382929318308218,299.31276771775384,0,0,0,0,0,0,0,0,0,0
120,120,120,1.1659,406.8753813733488,12.315186949352189,298.7732779120278,0,0,0,0,0,0,0,0,0,0
121,121,121,1.1659199999999998,406.9936741443482,12.361921448366727,298.2219930488717,0,0,0,0,0,0,0,0,0,0
122,122,122,1.16594,407.1139339075584,12.319354907939212,297.6589348920628,0,0,0,0,0,0,0,0,0,0
123,123,123,1.16596,407.23175283076654,12.322753192817236,297.08412567018325,0,0,0,0,0,0,0,0,0,0
124,124,124,1.16598,407.3493583737428,12.303931067913522,296.4975880757064,0,0,0,0,0,0,0,0,0,0
125,125,125,1.166,407.4662549927889,12.262511195276954,295.89934526414294,0,0,0,0,0,0,0,0,0,0
126,126,126,1.16602,407.5819391292832,12.198129206220434,295.2894208530838,0,0,0,0,0,0,0,0,0,0
127,127,127,1.16604,407.69416735016097,12.17836424948595,294.6678389213114,0,0,0,0,0,0,0,0,0,0
128,128,128,1.16606,407.8046696968944,12.202937266735384,294.0346240078106,0,0,0,0,0,0,0,0,0,0
129,129,129,1.16608,407.9154079831,12.203552562595211,293.38980111081617,0,0,0,0,0,0,0,0,0,0
130,130,130,1.1661,408.02585533777153,12.179826526561564,292.7333956868435,0,0,0,0,0,0,0,0,0,0
131,131,131,1.16612,408.13547686957446,12.131389181221897,292.065433649643,0,0,0,0,0,0,0,0,0,0
132,132,132,1.16614,408.243729969503,12.057884385062692,291.3859413692242,0,0,0,0,0,0,0,0,0,0
133,133,133,1.16616,408.34888281312806,12.027013481736956,290.6949456707729,0,0,0,0,0,0,0,0,0,0
134,134,134,1.16618,408.45260034038574,12.038485226772506,289.99247383360967,0,0,0,0,0,0,0,0,0,0
135,135,135,1.1662,408.5562470256549,12.023895678284964,289.2785535901325,0,0,0,0,0,0,0,0,0,0
136,136,136,1.16622,408.6592583013884,11.982874571910743,288.55321312467737,0,0,0,0,0,0,0,0,0,0
137,137,137,1.16624,408.7610620039193,11.915066077313597,287.81648107245684,0,0,0,0,0,0,0,0,0,0
138,138,138,1.16626,408.8593949777924,11.88825407985168,287.06838651838444,0,0,0,0,0,0,0,0,0,0
139,139,139,1.16628,408.955866276162,11.902164467921168,286.30895899594526,0,0,0,0,0,0,0,0,0,0
140,140,140,1.1663,409.0523051315564,11.88832047726376,285.53822848605137,0,0,0,0,0,0,0,0,0,0
141,141,141,1.16632,409.148119072823,11.846356297489308,284.7562254158024,0,0,0,0,0,0,0,0,0,0
142,142,142,1.16634,409.2427082533439,11.775921086695387,283.96298065736886,0,0,0,0,0,0,0,0,0,0
143,143,143,1.1663599999999998,409.33546577321766,11.676679153117473,283.15852552668895,0,0,0,0,0,0,0,0,0,0
144,144,144,1.16638,409.4246330836984,11.616533522532544,282.34289178224424,0,0,0,0,0,0,0,0,0,0
145,145,145,1.1664,409.5117630387204,11.595209866767066,281.5161116238952,0,0,0,0,0,0,0,0,0,0
146,146,146,1.16642,409.5964681611492,11.612397727088654,280.6782176914846,0,0,0,0,0,0,0,0,0,0
147,147,147,1.16644,409.68118999705297,11.59953543801752,279.8292430636451,0,0,0,0,0,0,0,0,0,0
148,148,148,1.16646,409.7643665006029,11.624544572721764,278.9692212564262,0,0,0,0,0,0,0,0,0,0
149,149,149,1.16648,409.8477137125692,11.618813290963182,278.0981862220317,0,0,0,0,0,0,0,0,0,0
150,150,150,1.1665,409.9305945527459,11.581981694254305,277.21617234742564,0,0,0,0,0,0,0,0,0,0
151,151,151,1.16652,302.82392172144534,12.111265412117048,276.32321445299726,0,1,0,0,0,0,0,0,0,1
152,152,152,1.16654,68.18102514739307,18.721553378071533,275.4193477912117,0,1,0,0,0,0,0,0,0,1
153,153,153,1.16656,15.165945302079145,27.296316746582345,274.50460804516047,0,1,0,0,0,0,0,0,0,1
154,154,154,1.16658,3.58831689563553,36.29315938207085,273.5790313272192,0,1,0,0,0,0,0,0,0,1
155,155,155,1.1666,1.1154031671376832,45.3560825240068,272.64265417756343,0,1,0,0,0,0,0,0,0,1
156,156,156,1.16662,0.6427851485854063,54.406591922905214,271.6955135627512,0,1,0,0,0,0,0,0,0,1
157,157,157,1.16664,0.6146005966848748,63.427226838374914,270.7376468742894,0,1,0,0,0,0,0,0,0,1
158,158,158,1.16666,0.6949100492600103,72.41394707644798,269.7690919270974,0,1,0,0,0,0,0,0,0,1
159,159,159,1.16668,0.7840629937914029,81.365312484455,268.7898869580836,0,1,0,0,0,0,0,0,0,1
160,160,160,1.1666999999999998,0.8733033251593137,90.2808842633903,267.80007062457474,0,1,0,0,0,0,0,0,0,1
161,161,161,1.16672,0.9622048842527852,99.160316651769,266.79968200281576,0,1,0,0,0,0,0,0,0,1
162,162,162,1.16674,1.0507438518930496,108.00326973673376,265.78876058645466,0,1,0,0,0,0,0,0,0,1
163,163,163,1.16676,1.1389158550727834,116.8094052556972,264.76734628491965,0,1,0,0,0,0,0,0,0,1
164,164,164,1.16678,1.2267174737728213,125.57838640627384,263.73547942191686,0,1,0,0,0,0,0,0,0,1
165,165,165,1.1667999999999998,1.314145347890203,134.30987784975133,262.69320073377406,0,1,0,0,0,0,0,0,0,1
166,166,166,1.16682,1.401196134230004,143.00354572385567,261.6405513678597,0,1,0,0,0,0,0,0,0,1
167,167,167,1.16684,1.4878665045537125,151.6590576559121,260.5775728809872,0,1,0,0,0,0,0,0,0,1
168,168,168,1.16686,1.574153145609964,160.2760827759635,259.50430723769824,0,1,0,0,0,0,0,0,0,1
169,169,169,1.16688,1.6600527592605023,168.8542917298353,258.42079680873127,0,1,0,0,0,0,0,0,0,1
170,170,170,1.1669,1.745562062610171,177.3933566921401,257.3270843691641,0,1,0,0,0,0,0,0,0,1
171,171,171,1.16692,1.8306777881365248,185.89295137921889,256.2232130969403,0,1,0,0,0,0,0,0,0,1
172,172,172,1.16694,1.9153966838187984,194.3527510620244,255.109226570988,0,1,0,0,0,0,0,0,0,1
173,173,173,1.16696,1.9997155132663416,202.77243257894128,253.9851687695774,0,1,0,0,0,0,0,0,0,1
174,174,174,1.16698,2.083631055846386,211.15167434854675,252.85108406860627,0,1,0,0,0,0,0,0,0,1
175,175,175,1.167,2.167140106811201,219.49015638230537,251.70701723977623,0,1,0,0,0,0,0,0,0,1
176,176,176,1.16702,2.2502394774246235,227.7875602972042,250.55301344890745,0,1,0,0,0,0,0,0,0,1
177,177,177,1.16704,2.3329259950879453,236.0435693283228,249.3891182540832,0,1,0,0,0,0,0,0,0,1
178,178,178,1.16706,2.415196503465217,244.2578683413399,248.21537760388225,0,1,0,0,0,0,0,0,0,1
179,179,179,1.16708,2.4970478626077925,252.43014384497465,247.0318378355969,0,1,0,0,0,0,0,0,0,1
180,180,180,1.1671,2.578476949078377,260.56008400336543,245.83854567332943,0,1,0,0,0,0,0,0,0,1
181,181,181,1.16712,2.6594806560742965,268.6473786483805,244.6355482262325,0,1,0,0,0,0,0,0,0,1
182,182,182,1.1671399999999998,2.7400558935501693,276.6917192918642,243.42289298657488,0,1,0,0,0,0,0,0,0,1
183,183,183,1.16716,2.820199588339931,284.692799137818,242.200627827898,0,1,0,0,0,0,0,0,0,1
184,184,184,1.16718,2.8999086842781567,292.6503130945135,240.96880100315929,0,1,0,0,0,0,0,0,0,1
185,185,185,1.1672,2.979180142320717,300.563957786535,239.72746114275049,0,1,0,0,0,0,0,0,0,1
186,186,186,1.16722,3.05801094066476,308.4334315667604,238.47665725266623,0,1,0,0,0,0,0,0,0,1
187,187,187,1.16724,3.136398074868048,316.25843452827075,237.2164387124797,0,1,0,0,0,0,0,0,0,1
188,188,188,1.16726,3.214338557967556,324.03866851619114,235.94685527348383,0,1,0,0,0,0,0,0,0,1
189,189,189,1.16728,3.291829420597426,331.7738371394637,234.6679570566476,0,1,0,0,0,0,0,0,0,1
190,190,190,1.1673,3.3688677111061627,339.46364578254224,233.37979455067105,0,1,0,0,0,0,0,0,0,1
191,191,191,1.16732,3.4454504956732137,347.1078016170372,232.08241861002747,0,1,0,0,0,0,0,0,0,1
192,192,192,1.16734,3.521574858424789,354.706013613266,230.77588045287416,0,1,0,0,0,0,0,0,0,1
193,193,193,1.16736,3.597237901548989,362.2579925517505,229.4602316591241,0,1,0,0,0,0,0,0,0,1
194,194,194,1.16738,3.6724367454101934,369.7634510346314,228.13552416832687,0,1,0,0,0,0,0,0,0,1
195,195,195,1.1674,3.747168528662789,377.22210349701845,226.80181027765423,0,1,0,0,0,0,0,0,0,1
196,196,196,1.16742,3.8214304083641393,384.63366621826447,225.4591426398708,0,1,0,0,0,0,0,0,0,1
197,197,197,1.16744,3.895219560086806,391.9978573331676,224.1075742611593,0,1,0,0,0,0,0,0,0,1
198,198,198,1.16746,3.968533178030096,399.31439684309856,222.74715849918644,0,1,0,0,0,0,0,0,0,1
199,199,199,1.16748,4.0413684751308105,406.5830066270578,221.37794906078804,0,1,0,0,0,0,0,0,0,1
