,Unnamed: 0.1,Unnamed: 0,Time / s,Vo:Measured voltage,IL:Measured current,Vin:Measured voltage,open1:Output,open3:Output,open2:Output,open4:Output,short1:Output,short2:Output,short3:Output,short4:Output,OPEN,SHORT
0,0,0,1.097799805561385,411.36798006164446,-8.112087532942537,-199.8221307703417,0,0,0,0,0,0,0,0,0,0
1,1,1,1.0978,411.3322245642259,-8.0962774873855,-198.3198032826178,0,0,0,0,0,0,0,0,0,0
2,2,2,1.09782,411.294784000072,-8.099385168267133,-196.80964646861088,0,0,0,0,0,0,0,0,0,0
3,3,3,1.09784,411.2570364966999,-8.052628836936371,-195.2917199467808,0,0,0,0,0,0,0,0,0,0
4,4,4,1.09786,411.2182552410314,-7.9557698857262364,-193.7660836422264,0,0,0,0,0,0,0,0,0,0
5,5,5,1.09788,411.17771032493584,-7.808583403764451,-192.23279778448432,0,0,0,0,0,0,0,0,0,0
6,6,6,1.0979,411.1335734228642,-7.747887307862262,-190.69192290504105,0,0,0,0,0,0,0,0,0,0
7,7,7,1.09792,411.0865998797606,-7.7734285243172465,-189.14351983498432,0,0,0,0,0,0,0,0,0,0
8,8,8,1.09794,411.0396405606705,-7.747950808783942,-187.58764970264417,0,0,0,0,0,0,0,0,0,0
9,9,9,1.09796,410.99198275978966,-7.671220728340303,-186.0243739310812,0,0,0,0,0,0,0,0,0,0
10,10,10,1.09798,410.94291087893816,-7.543017893790446,-184.45375423577423,0,0,0,0,0,0,0,0,0,0
11,11,11,1.098,410.890948938321,-7.431608554349195,-182.8758526220856,0,0,0,0,0,0,0,0,0,0
12,12,12,1.09802,410.8352543587763,-7.4737023874229855,-181.29073138285472,0,0,0,0,0,0,0,0,0,0
13,13,13,1.09804,410.77979015745376,-7.463650597762358,-179.6984530959826,0,0,0,0,0,0,0,0,0,0
14,14,14,1.09806,410.7238595632268,-7.401227146062498,-178.09908062186094,0,0,0,0,0,0,0,0,0,0
15,15,15,1.09808,410.6667631382118,-7.286218373150387,-176.49267710100526,0,0,0,0,0,0,0,0,0,0
16,16,16,1.0981,410.6077989441199,-7.118423044856643,-174.87930595146156,0,0,0,0,0,0,0,0,0,0
17,17,17,1.09812,410.54406524663926,-7.1029004834647775,-173.25903086634557,0,0,0,0,0,0,0,0,0,0
18,18,18,1.09814,410.4795222005662,-7.10257612670044,-171.63191581137266,0,0,0,0,0,0,0,0,0,0
19,19,19,1.09816,410.4146548589577,-7.048811686995375,-169.99802502222968,0,0,0,0,0,0,0,0,0,0
20,20,20,1.09818,410.3487819895889,-6.9414020381810895,-168.35742300215685,0,0,0,0,0,0,0,0,0,0
21,21,21,1.0981999999999998,410.2812200829142,-6.780153800511059,-166.71017451929805,0,0,0,0,0,0,0,0,0,0
22,22,22,1.09822,410.20969931030703,-6.701605163377116,-165.0563446041878,0,0,0,0,0,0,0,0,0,0
23,23,23,1.09824,410.1361322281125,-6.705527896710642,-163.3959985472293,0,0,0,0,0,0,0,0,0,0
24,24,24,1.09826,410.0623056242697,-6.654984507295813,-161.72920189601186,0,0,0,0,0,0,0,0,0,0
25,25,25,1.09828,409.98755831353554,-6.549779849655922,-160.05602045284346,0,0,0,0,0,0,0,0,0,0
26,26,26,1.0983,409.911227063338,-6.389729843458197,-158.37652027203214,0,0,0,0,0,0,0,0,0,0
27,27,27,1.09832,409.83067619747214,-6.379556014060496,-156.69076765739982,0,0,0,0,0,0,0,0,0,0
28,28,28,1.09834,409.7494652813092,-6.382417933464697,-154.99882915955794,0,0,0,0,0,0,0,0,0,0
29,29,29,1.09836,409.6679936119912,-6.329814406084044,-153.30077157332602,0,0,0,0,0,0,0,0,0,0
30,30,30,1.09838,409.5856216278392,-6.221561412011255,-151.59666193514073,0,0,0,0,0,0,0,0,0,0
31,31,31,1.0984,409.5017079507565,-6.05748531958016,-149.88656752028638,0,0,0,0,0,0,0,0,0,0
32,32,32,1.09842,409.4137407261493,-6.0421103581198174,-148.17055584042416,0,0,0,0,0,0,0,0,0,0
33,33,33,1.09844,409.32509281204347,-6.038736114660964,-146.44869464074162,0,0,0,0,0,0,0,0,0,0
34,34,34,1.09846,409.236128520836,-5.978941630636697,-144.72105189730823,0,0,0,0,0,0,0,0,0,0
35,35,35,1.09848,409.14623162973095,-5.862554870718116,-142.98769581457927,0,0,0,0,0,0,0,0,0,0
36,36,36,1.0985,409.0547843261037,-5.689413516807625,-141.248694822438,0,0,0,0,0,0,0,0,0,0
37,37,37,1.09852,408.95941845681335,-5.66382685733894,-139.5041175736974,0,0,0,0,0,0,0,0,0,0
38,38,38,1.0985399999999998,408.86331185139966,-5.649247555461702,-137.75403294126434,0,0,0,0,0,0,0,0,0,0
39,39,39,1.09856,408.76679045432974,-5.577341668665396,-135.99851001546762,0,0,0,0,0,0,0,0,0,0
40,40,40,1.09858,408.6692630499591,-5.447949754058013,-134.2376181013781,0,0,0,0,0,0,0,0,0,0
41,41,41,1.0986,408.5693933630308,-5.329008390658395,-132.4714267159616,0,0,0,0,0,0,0,0,0,0
42,42,42,1.09862,408.4671459396111,-5.28840908566181,-130.70000558546175,0,0,0,0,0,0,0,0,0,0
43,43,43,1.09864,408.3640626207188,-5.25786087231308,-128.92342464251962,0,0,0,0,0,0,0,0,0,0
44,44,44,1.09866,408.2604340696208,-5.16912363833064,-127.14175402354093,0,0,0,0,0,0,0,0,0,0
45,45,45,1.09868,408.1549818039383,-5.090069153167025,-125.355064065815,0,0,0,0,0,0,0,0,0,0
46,46,46,1.0987,408.04814305879466,-5.02051670618784,-123.5634253047858,0,0,0,0,0,0,0,0,0,0
47,47,47,1.09872,407.93993027539153,-4.960277668534047,-121.76690847131626,0,0,0,0,0,0,0,0,0,0
48,48,48,1.09874,407.83075473258174,-4.909168867754426,-119.96558448878235,0,0,0,0,0,0,0,0,0,0
49,49,49,1.09876,407.7208815142207,-4.799050296397327,-118.15952447040311,0,0,0,0,0,0,0,0,0,0
50,50,50,1.09878,407.6087367976564,-4.765647990076977,-116.34879971631932,0,0,0,0,0,0,0,0,0,0
51,51,51,1.0988,407.496077226977,-4.672912422693457,-114.5334817108274,0,0,0,0,0,0,0,0,0,0
52,52,52,1.09882,407.3819380633423,-4.588606158843232,-112.71364211960667,0,0,0,0,0,0,0,0,0,0
53,53,53,1.09884,407.2667018100525,-4.5125563440415855,-110.88935278677528,0,0,0,0,0,0,0,0,0,0
54,54,54,1.09886,407.14997558428735,-4.444579846596624,-109.06068573218536,0,0,0,0,0,0,0,0,0,0
55,55,55,1.09888,407.0321272573916,-4.384508388675801,-107.22771314846456,0,0,0,0,0,0,0,0,0,0
56,56,56,1.0989,406.9135830731972,-4.264352341812564,-105.39050739821532,0,0,0,0,0,0,0,0,0,0
57,57,57,1.09892,406.7933172166549,-4.219588524669956,-103.54914101120808,0,0,0,0,0,0,0,0,0,0
58,58,58,1.09894,406.67249961179454,-4.11444022332618,-101.70368668138484,0,0,0,0,0,0,0,0,0,0
59,59,59,1.09896,406.5497589633145,-4.084302197153835,-99.8542172642062,0,0,0,0,0,0,0,0,0,0
60,60,60,1.0989799999999998,406.42660326995934,-3.993488582358808,-98.00080577349104,0,0,0,0,0,0,0,0,0,0
61,61,61,1.099,406.3025726859288,-3.8418897524143767,-96.14352537873464,0,0,0,0,0,0,0,0,0,0
62,62,62,1.09902,406.17620519754365,-3.832481958759713,-94.2824494022708,0,0,0,0,0,0,0,0,0,0
63,63,63,1.09904,406.0492869971618,-3.829649328782809,-92.4176513160914,0,0,0,0,0,0,0,0,0,0
64,64,64,1.09906,405.9221801597598,-3.765577756568853,-90.54920473931617,0,0,0,0,0,0,0,0,0,0
65,65,65,1.09908,405.7944576565203,-3.640165668588215,-88.67718343496595,0,0,0,0,0,0,0,0,0,0
66,66,66,1.0991,405.6651888060888,-3.5209227787088886,-86.80166130727034,0,0,0,0,0,0,0,0,0,0
67,67,67,1.09912,405.5342265502176,-3.542879898968867,-84.92271239861459,0,0,0,0,0,0,0,0,0,0
68,68,68,1.09914,405.4032533667728,-3.5030681348817208,-83.0404108866673,0,0,0,0,0,0,0,0,0,0
69,69,69,1.09916,405.27187595508695,-3.401394701954992,-81.15483108150323,0,0,0,0,0,0,0,0,0,0
70,70,70,1.09918,405.13970058997614,-3.237772073215309,-79.26604742255027,0,0,0,0,0,0,0,0,0,0
71,71,71,1.0992,405.00563782920176,-3.1471137392084807,-77.3741344757874,0,0,0,0,0,0,0,0,0,0
72,72,72,1.09922,404.8705011980988,-3.1292243125838213,-75.47916693068119,0,0,0,0,0,0,0,0,0,0
73,73,73,1.09924,404.7351294568092,-3.048989032981533,-73.58121959728845,0,0,0,0,0,0,0,0,0,0
74,74,74,1.09926,404.5991635668374,-2.906329292421379,-71.68036740335438,0,0,0,0,0,0,0,0,0,0
75,75,75,1.09928,404.4616163562454,-2.8359864806854005,-69.77668539123448,0,0,0,0,0,0,0,0,0,0
76,76,76,1.0993,404.3233099870103,-2.7703814617483227,-67.8702487150694,0,0,0,0,0,0,0,0,0,0
77,77,77,1.09932,404.1844601685999,-2.709383513422809,-65.96113263769753,0,0,0,0,0,0,0,0,0,0
78,78,78,1.09934,404.0451828676659,-2.585518137186249,-64.0494125277354,0,0,0,0,0,0,0,0,0,0
79,79,79,1.09936,403.90459199791536,-2.5333508161002705,-62.13516385665414,0,0,0,0,0,0,0,0,0,0
80,80,80,1.09938,403.76364861381086,-2.4181081563221465,-60.21846219567892,0,0,0,0,0,0,0,0,0,0
81,81,81,1.0994,403.62177293001554,-2.3742710878361986,-58.299383212944086,0,0,0,0,0,0,0,0,0,0
82,82,82,1.0994199999999998,403.479603855928,-2.2671574668629235,-56.37800267038457,0,0,0,0,0,0,0,0,0,0
83,83,83,1.09944,403.33635761324126,-2.2311535849306354,-54.45439642079682,0,0,0,0,0,0,0,0,0,0
84,84,84,1.09946,403.1928783051173,-2.131681781267573,-52.528640404896656,0,0,0,0,0,0,0,0,0,0
85,85,85,1.09948,403.0487138663728,-2.035865662889804,-50.60081064819931,0,0,0,0,0,0,0,0,0,0
86,86,86,1.0995,402.904035327706,-1.9435941068110616,-48.67098325815749,0,0,0,0,0,0,0,0,0,0
87,87,87,1.09952,402.75849118949697,-1.9218762444544129,-46.73923442099976,0,0,0,0,0,0,0,0,0,0
88,88,88,1.09954,402.612807189548,-1.836333889925012,-44.80564039894992,0,0,0,0,0,0,0,0,0,0
89,89,89,1.09956,402.4667512612209,-1.6869265605366517,-42.8702775269192,0,0,0,0,0,0,0,0,0,0
90,90,90,1.09958,402.3196858586721,-1.6747767657038326,-40.93322220970235,0,0,0,0,0,0,0,0,0,0
91,91,91,1.0996,402.1723938258744,-1.665588005284343,-38.99455091899661,0,0,0,0,0,0,0,0,0,0
92,92,92,1.09962,402.025032562463,-1.5922544047605491,-37.0543401901724,0,0,0,0,0,0,0,0,0,0
93,93,93,1.09964,401.877407706684,-1.4547457287315553,-35.11266661946223,0,0,0,0,0,0,0,0,0,0
94,94,94,1.09966,401.7291337296916,-1.3199877885239406,-33.169606860796456,0,0,0,0,0,0,0,0,0,0
95,95,95,1.09968,401.5802040611978,-1.321752945503919,-31.22523762282969,0,0,0,0,0,0,0,0,0,0
96,96,96,1.0997,401.4312569914253,-1.2590915030669347,-29.27963566596535,0,0,0,0,0,0,0,0,0,0
97,97,97,1.09972,401.2821363463648,-1.131983665840424,-27.33287779920208,0,0,0,0,0,0,0,0,0,0
98,98,98,1.09974,401.13254066062586,-1.0072665114348152,-25.38504087724228,0,0,0,0,0,0,0,0,0,0
99,99,99,1.0997599999999998,400.9825023578952,-0.9516895383223872,-23.43620179733481,0,0,0,0,0,0,0,0,0,0
100,100,100,1.09978,400.8323328556025,-0.898296296580391,-21.48643749629196,0,0,0,0,0,0,0,0,0,0
101,101,101,1.0998,400.68206437210193,-0.7802238389646104,-19.53582494750507,0,0,0,0,0,0,0,0,0,0
102,102,102,1.09982,400.53142600270974,-0.7309761440628944,-17.584441157782287,0,0,0,0,0,0,0,0,0,0
103,103,103,1.09984,400.3807256890963,-0.6169475433053065,-15.632363164449638,0,0,0,0,0,0,0,0,0,0
104,104,104,1.09986,400.22982021677103,-0.5715507412605771,-13.679668032168488,0,0,0,0,0,0,0,0,0,0
105,105,105,1.09988,400.0788030674584,-0.5279600255435672,-11.726432850034438,0,0,0,0,0,0,0,0,0,0
106,106,106,1.0999,399.9277250394949,-0.4861099401934642,-9.77273472841034,0,0,0,0,0,0,0,0,0,0
107,107,107,1.09992,399.776641451795,-0.3793051011270906,-7.818650795935091,0,0,0,0,0,0,0,0,0,0
108,108,108,1.09994,399.62549327308426,-0.2075549693428447,-5.864258196531774,0,0,0,0,0,0,0,0,0,0
109,109,109,1.09996,399.474224775578,-0.170613277592116,-3.909634086238393,0,0,0,0,0,0,0,0,0,0
110,110,110,1.09998,399.32297767273405,-0.1351684016108535,-1.954855630303336,0,0,0,0,0,0,0,0,0,0
111,111,111,1.1,399.1717721359192,-0.0346356426735551,-1.5244678221313565e-11,0,0,0,0,0,0,0,0,0,0
112,112,112,1.10002,399.0205871368421,-0.0685492130538145,1.9548556302905329,0,0,0,0,0,0,0,0,0,0
113,113,113,1.10004,398.8694437163627,-0.1037582154729306,3.9096340862255903,0,0,0,0,0,0,0,0,0,0
114,114,114,1.10006,398.718356797706,-0.073759046287032,5.864258196518973,0,0,0,0,0,0,0,0,0,0
115,115,115,1.10008,398.56734378674014,0.0214211391832878,7.818650795922294,0,0,0,0,0,0,0,0,0,0
116,116,116,1.1001,398.4164290486394,0.1817495192705269,9.772734728379866,0,0,0,0,0,0,0,0,0,0
117,117,117,1.10012,398.26562995460296,0.407194447568071,11.726432850021643,0,0,0,0,0,0,0,0,0,0
118,118,118,1.10014,398.1150497417136,0.6313679099045449,13.679668032155696,0,0,0,0,0,0,0,0,0,0
119,119,119,1.10016,397.96488759055313,0.7216464747200024,15.632363164454516,0,0,0,0,0,0,0,0,0,0
120,120,120,1.10018,397.8148941432425,0.8771151586090387,17.58444115778716,0,0,0,0,0,0,0,0,0,0
121,121,121,1.1001999999999998,397.6653441423816,0.965175098625012,19.53582494747464,0,0,0,0,0,0,0,0,0,0
122,122,122,1.10022,397.51621300637294,0.985923293189039,21.48643749629683,0,0,0,0,0,0,0,0,0,0
123,123,123,1.10024,397.3672194484083,1.071909531924114,23.436201797322045,0,0,0,0,0,0,0,0,0,0
124,124,124,1.10026,397.21868456802906,1.0906765249614547,25.385040877247143,0,0,0,0,0,0,0,0,0,0
125,125,125,1.10028,397.0702993524672,1.1746691664913385,27.332877799206937,0,0,0,0,0,0,0,0,0,0
126,126,126,1.1003,396.9223437176064,1.2576792892024329,29.27963566597021,0,0,0,0,0,0,0,0,0,0
127,127,127,1.10032,396.77476951259627,1.3397163797314275,31.225237622834552,0,0,0,0,0,0,0,0,0,0
128,128,128,1.10034,396.6277550242416,1.3546856799298848,33.16960686078372,0,0,0,0,0,0,0,0,0,0
129,129,129,1.10036,396.4809114898984,1.4348229296793589,35.112666619467085,0,0,0,0,0,0,0,0,0,0
130,130,130,1.10038,396.33439671900834,1.5800625598522031,37.05434019017724,0,0,0,0,0,0,0,0,0,0
131,131,131,1.1004,396.1888985373661,1.5922440175097787,38.99455091900145,0,0,0,0,0,0,0,0,0,0
132,132,132,1.10042,396.0436780787192,1.6035123386917154,40.93322220970719,0,0,0,0,0,0,0,0,0,0
133,133,133,1.10044,395.8986453498732,1.679846971391418,42.870277526889005,0,0,0,0,0,0,0,0,0,0
134,134,134,1.10046,395.7539972993824,1.821172312395957,44.80564039893724,0,0,0,0,0,0,0,0,0,0
135,135,135,1.10048,395.6101676254604,1.9614763561045223,46.739234421004575,0,0,0,0,0,0,0,0,0,0
136,136,136,1.1005,395.4673381257576,2.0348330796702028,48.67098325814485,0,0,0,0,0,0,0,0,0,0
137,137,137,1.10052,395.3250757002705,2.107177322399592,50.60081064818667,0,0,0,0,0,0,0,0,0,0
138,138,138,1.10054,395.1832480616099,2.2443535721462933,52.52864040486661,0,0,0,0,0,0,0,0,0,0
139,139,139,1.10056,395.0425224145834,2.314593884852856,54.45439642078421,0,0,0,0,0,0,0,0,0,0
140,140,140,1.10058,394.9025580675252,2.3837552050927893,56.378002670354576,0,0,0,0,0,0,0,0,0,0
141,141,141,1.1006,394.7632317578224,2.4518056200996927,58.29938321293151,0,0,0,0,0,0,0,0,0,0
142,142,142,1.10062,394.6246835346189,2.518715994140595,60.21846219566636,0,0,0,0,0,0,0,0,0,0
143,143,143,1.1006399999999998,394.486778115681,2.5844485390644665,62.13516385662426,0,0,0,0,0,0,0,0,0,0
144,144,144,1.10066,394.3497073780428,2.648969232107104,64.04941252772288,0,0,0,0,0,0,0,0,0,0
145,145,145,1.10068,394.2133259975488,2.7122341033079524,65.96113263766773,0,0,0,0,0,0,0,0,0,0
146,146,146,1.1007,394.07778450587375,2.774202304298344,67.87024871507415,0,0,0,0,0,0,0,0,0,0
147,147,147,1.10072,393.9429251826255,2.834824040699337,69.776685391222,0,0,0,0,0,0,0,0,0,0
148,148,148,1.10074,393.8085938458193,2.9596851252191527,71.68036740335914,0,0,0,0,0,0,0,0,0,0
149,149,149,1.10076,393.6755160652232,3.083061972615917,73.58121959729318,0,0,0,0,0,0,0,0,0,0
150,150,150,1.10078,393.5440753066516,3.0737159105225,75.47916693066877,0,0,0,0,0,0,0,0,0,0
151,151,151,1.1008,393.41281401587855,3.128411214682806,77.37413447579213,0,0,0,0,0,0,0,1,0,1
152,152,152,1.10082,393.2821004358205,3.2470276286864967,79.26604742255499,0,0,0,0,0,0,0,1,0,1
153,153,153,1.10084,393.15273380799255,3.363919041040496,81.15483108150792,0,0,0,0,0,0,0,1,0,1
154,154,154,1.10086,393.0249325069675,3.413511351210003,83.040410886672,0,0,0,0,0,0,0,1,0,1
155,155,155,1.10088,392.89787552486337,3.461269528953021,84.92271239860227,0,0,0,0,0,0,0,1,0,1
156,156,156,1.1009,392.7713717912961,3.572582111602177,86.80166130727503,0,0,0,0,0,0,0,1,0,1
157,157,157,1.10092,392.6458250324941,3.747314102325713,88.67718343497064,0,0,0,0,0,0,0,1,0,1
158,158,158,1.10094,392.5230608318576,3.723655193919005,90.54920473932084,0,0,0,0,0,0,0,1,0,1
159,159,159,1.10096,392.4003977541696,3.763276591378285,92.41765131609608,0,0,0,0,0,0,0,1,0,1
160,160,160,1.1009799999999998,392.27827624315125,3.866039216763329,94.28244940224172,0,0,0,0,0,0,0,1,0,1
161,161,161,1.101,392.1571355864239,4.0317981998756505,96.14352537873928,0,0,0,0,0,0,0,1,0,1
162,162,162,1.10102,392.0386575196238,4.06439497022228,98.00080577346212,0,0,0,0,0,0,0,1,0,1
163,163,163,1.10104,391.92097842902166,4.094468193319512,99.85421726419406,0,0,0,0,0,0,0,1,0,1
164,164,164,1.10106,391.803808012821,4.187219738643401,101.70368668138948,0,0,0,0,0,0,0,1,0,1
165,165,165,1.10108,391.6876202457749,4.342495119288926,103.549141011196,0,0,0,0,0,0,0,1,0,1
166,166,166,1.1011,391.573649277076,4.4296156503788815,105.39050739820328,0,0,0,0,0,0,0,1,0,1
167,167,167,1.10112,391.461547012126,4.448521802268552,107.22771314843595,0,0,0,0,0,0,0,1,0,1
168,168,168,1.10114,391.34989500624494,4.52959281900244,109.06068573217335,0,0,0,0,0,0,0,1,0,1
169,169,169,1.10116,391.2397238555973,4.607463336845036,110.88935278676333,0,0,0,0,0,0,0,1,0,1
170,170,170,1.10118,391.1307507317199,4.682009780769508,112.71364211959477,0,0,0,0,0,0,0,1,0,1
171,171,171,1.1012,391.02333034203406,4.753115409755114,114.53348171081548,0,0,0,0,0,0,0,1,0,1
172,172,172,1.10122,390.91716739927614,4.820649437435461,116.34879971629104,0,0,0,0,0,0,0,1,0,1
173,173,173,1.10124,390.8124567991401,4.884486609041328,118.15952447039126,0,0,0,0,0,0,0,1,0,1
174,174,174,1.10126,390.7088865677629,4.944491371375155,119.96558448877056,0,0,0,0,0,0,0,1,0,1
175,175,175,1.10128,390.6061762173583,5.065630014623605,121.76690847132076,0,0,0,0,0,0,0,1,0,1
176,176,176,1.1013,390.5059194164314,5.117559638415081,123.56342530477404,0,0,0,0,0,0,0,1,0,1
177,177,177,1.10132,390.40705021604975,5.165243140119088,125.35506406578708,0,0,0,0,0,0,0,1,0,1
178,178,178,1.10134,390.3092259455376,5.2085334106368135,127.1417540235454,0,0,0,0,0,0,0,1,0,1
179,179,179,1.10136,390.2121489881327,5.312319754317708,128.92342464252405,0,0,0,0,0,0,0,1,0,1
180,180,180,1.10138,390.11711575388046,5.411396752339067,130.7000055854662,0,0,0,0,0,0,0,1,0,1
181,181,181,1.1014,390.0237815803504,5.5056010615353,132.471426715966,0,0,0,0,0,0,0,1,0,1
182,182,182,1.1014199999999998,389.9326254897791,5.529790023608961,134.23761810136654,0,0,0,0,0,0,0,1,0,1
183,183,183,1.10144,389.8420582883592,5.613782215147662,135.998510015472,0,0,0,0,0,0,0,1,0,1
184,184,184,1.10146,389.7534457688325,5.692425453117252,137.7540329412529,0,0,0,0,0,0,0,1,0,1
185,185,185,1.10148,389.6664096774507,5.765544721762448,139.50411757370176,0,0,0,0,0,0,0,1,0,1
186,186,186,1.1015,389.5811395180903,5.832971978615219,141.24869482244236,0,0,0,0,0,0,0,1,0,1
187,187,187,1.10152,389.4972372116002,5.894528863401056,142.98769581458362,0,0,0,0,0,0,0,1,0,1
188,188,188,1.10154,389.4143561217096,6.0149403464334,144.72105189731255,0,0,0,0,0,0,0,1,0,1
189,189,189,1.10156,389.3343857620864,6.064223706607461,146.4486946407147,0,0,0,0,0,0,0,1,0,1
190,190,190,1.10158,389.2559951408673,6.107094588860493,148.17055584042845,0,0,0,0,0,0,0,1,0,1
191,191,191,1.1016,389.17874950864,6.143364633023909,149.88656752029064,0,0,0,0,0,0,0,1,0,1
192,192,192,1.10162,389.10228190553545,6.237697211010068,151.59666193512956,0,0,0,0,0,0,0,1,0,1
193,193,193,1.10164,389.0272592388882,6.389867895002857,153.30077157331488,0,0,0,0,0,0,0,1,0,1
194,194,194,1.10166,388.9563897138908,6.4051855229771135,154.9988291595315,0,0,0,0,0,0,0,1,0,1
195,195,195,1.10168,388.8863788831037,6.413114611527136,156.69076765738873,0,0,0,0,0,0,0,1,0,1
196,196,196,1.1017,388.8168342300459,6.478262414023261,158.37652027202114,0,0,0,0,0,0,0,1,0,1
197,197,197,1.10172,388.7484476400569,6.600399370511044,160.05602045283248,0,0,0,0,0,0,0,1,0,1
198,198,198,1.10174,388.68280567392526,6.71451358345856,161.72920189600094,0,0,0,0,0,0,0,1,0,1
199,199,199,1.10176,388.62017100095466,6.7556145314477805,163.39599854720333,0,0,0,0,0,0,0,1,0,1
200,200,200,1.10178,388.5587522570997,6.78826082218314,165.05634460417693,0,0,0,0,0,0,0,1,0,1
201,201,201,1.1017998055613845,388.5587522570997,6.78826082218314,165.05634460417693,0,0,0,0,0,0,0,1,0,1
