,Unnamed: 0.1,Unnamed: 0,Time / s,Vo:Measured voltage,IL:Measured current,Vin:Measured voltage,short1:Output,short2:Output,short3:Output,short4:Output,open1:Output,open3:Output,open2:Output,open4:Output,OPEN,SHORT
0,0,0,1.1856950580537713,405.4962603820839,12.69579027274399,304.0544835735121,0,0,0,0,0,0,0,0,0,0
1,1,1,1.1857,405.630500963105,12.68378539303335,303.6340385058227,0,0,0,0,0,0,0,0,0,0
2,2,2,1.18572,405.7642199401003,12.654217303381738,303.2016064862017,0,0,0,0,0,0,0,0,0,0
3,3,3,1.18574,405.8970141101195,12.606706265349263,302.7572045863169,0,0,0,0,0,0,0,0,0,0
4,4,4,1.18576,406.0284719163079,12.540883333640632,302.3008503504025,0,0,0,0,0,0,0,0,0,0
5,5,5,1.18578,406.1581736988328,12.456390576657997,301.83256179453406,0,0,0,0,0,0,0,0,0,0
6,6,6,1.1858,406.28391791722265,12.420576118202346,301.3523574059504,0,0,0,0,0,0,0,0,0,0
7,7,7,1.18582,406.40757492313287,12.433169590610484,300.8602561422943,0,0,0,0,0,0,0,0,0,0
8,8,8,1.18584,406.5312497612952,12.426110170907108,300.35627743087645,0,0,0,0,0,0,0,0,0,0
9,9,9,1.18586,406.6544974706822,12.39900902674612,299.84044116792256,0,0,0,0,0,0,0,0,0,0
10,10,10,1.18588,406.7768646727827,12.35148911005307,299.31276771775566,0,0,0,0,0,0,0,0,0,0
11,11,11,1.1859,406.8978898414519,12.283185375897606,298.7732779120297,0,0,0,0,0,0,0,0,0,0
12,12,12,1.18592,407.0154603480463,12.329383837257952,298.2219930488736,0,0,0,0,0,0,0,0,0,0
13,13,13,1.18594,407.13377274288047,12.354135854486174,297.65893489206474,0,0,0,0,0,0,0,0,0,0
14,14,14,1.18596,407.25234796238567,12.357039061767871,297.0841256701852,0,0,0,0,0,0,0,0,0,0
15,15,15,1.18598,407.3706983635872,12.337703639789709,296.49758807570845,0,0,0,0,0,0,0,0,0,0
16,16,16,1.186,407.4883280072901,12.295752535378906,295.89934526414504,0,0,0,0,0,0,0,0,0,0
17,17,17,1.18602,407.6047329459286,12.230821674145242,295.2894208530915,0,0,0,0,0,0,0,0,0,0
18,18,18,1.18604,407.7194015159421,12.142560166013398,294.66783892130786,0,0,0,0,0,0,0,0,0,0
19,19,19,1.18606,407.829106774209,12.166540472483668,294.0346240078128,0,0,0,0,0,0,0,0,0,0
20,20,20,1.18608,407.9390355547543,12.166582391971229,293.38980111081247,0,0,0,0,0,0,0,0,0,0
21,21,21,1.1861,408.0486614162294,12.142302605023165,292.73339568683974,0,0,0,0,0,0,0,0,0,0
22,22,22,1.1861199999999998,408.1574499030296,12.09333141486613,292.06543364964534,0,0,0,0,0,0,0,0,0,0
23,23,23,1.18614,408.26485884772313,12.019312950071996,291.38594136922035,0,0,0,0,0,0,0,0,0,0
24,24,24,1.18616,408.3691627915738,11.98795225836462,290.694945670769,0,0,0,0,0,0,0,0,0,0
25,25,25,1.18618,408.47202733999006,11.998957916919387,289.9924738336057,0,0,0,0,0,0,0,0,0,0
26,26,26,1.1862,408.5748115618636,11.983922626297208,289.27855359012847,0,0,0,0,0,0,0,0,0,0
27,27,27,1.18622,408.6769513332218,11.942476339384951,288.5532131246732,0,0,0,0,0,0,0,0,0,0
28,28,28,1.18624,408.77787493836695,11.874263432526014,287.8164810724527,0,0,0,0,0,0,0,0,0,0
29,29,29,1.18626,408.8743636542965,11.915202260668975,287.06838651838024,0,0,0,0,0,0,0,0,0,0
30,30,30,1.18628,408.9713970246132,11.928754129822938,286.308958995941,0,0,0,0,0,0,0,0,0,0
31,31,31,1.1863,409.0683899975387,11.914538634009569,285.53822848604693,0,0,0,0,0,0,0,0,0,0
32,32,32,1.18632,409.16474983152347,11.872190152893724,284.7562254158051,0,0,0,0,0,0,0,0,0,0
33,33,33,1.18634,409.2598764137518,11.801358040868957,283.9629806573716,0,0,0,0,0,0,0,0,0,0
34,34,34,1.18636,409.3531625824556,11.701706808608018,283.1585255266844,0,0,0,0,0,0,0,0,0,0
35,35,35,1.18638,409.4428458031159,11.641142685172536,282.3428917822471,0,0,0,0,0,0,0,0,0,0
36,36,36,1.1864,409.5304788726996,11.61939181252824,281.5161116238981,0,0,0,0,0,0,0,0,0,0
37,37,37,1.18642,409.6173151839517,11.567892574921974,280.6782176914874,0,0,0,0,0,0,0,0,0,0
38,38,38,1.18644,409.70180801021127,11.554573670021126,279.82924306364805,0,0,0,0,0,0,0,0,0,0
39,39,39,1.1864599999999998,409.7840457041815,11.579130906139998,278.969221256437,0,0,0,0,0,0,0,0,0,0
40,40,40,1.18648,409.8664453724214,11.57296915237358,278.0981862220347,0,0,0,0,0,0,0,0,0,0
41,41,41,1.1865,409.9483703814472,11.535728700856907,277.21617234742865,0,0,0,0,0,0,0,0,0,0
42,42,42,1.18652,410.029177089456,11.467065545119164,276.32321445300045,0,0,0,0,0,0,0,0,0,0
43,43,43,1.18654,410.1082151742078,11.366651547970028,275.4193477912148,0,0,0,0,0,0,0,0,0,0
44,44,44,1.1865599999999998,410.1837068093297,11.302524991722995,274.504608045172,0,0,0,0,0,0,0,0,0,0
45,45,45,1.18658,410.2571052550758,11.274415576088572,273.5790313272224,0,0,0,0,0,0,0,0,0,0
46,46,46,1.1866,410.3279922982336,11.282019369231383,272.64265417756667,0,0,0,0,0,0,0,0,0,0
47,47,47,1.18662,410.39777406983154,11.32504846654952,271.6955135627459,0,0,0,0,0,0,0,0,0,0
48,48,48,1.18664,410.4680607492237,11.334782504244291,270.73764687429275,0,0,0,0,0,0,0,0,0,0
49,49,49,1.18666,410.5381828108638,11.310864615116913,269.7690919270919,0,0,0,0,0,0,0,0,0,0
50,50,50,1.18668,410.60746400747,11.252954043131291,268.789886958078,0,0,0,0,0,0,0,0,0,0
51,51,51,1.1867,410.6752216963097,11.160726299913838,267.8000706245691,0,0,0,0,0,0,0,0,0,0
52,52,52,1.18672,410.7407671684141,11.03387331397436,266.79968200281013,0,0,0,0,0,0,0,0,0,0
53,53,53,1.18674,410.80231439918407,10.94055760525527,265.78876058644886,0,0,0,0,0,0,0,0,0,0
54,54,54,1.18676,410.85969732447575,10.948984953263247,264.76734628491386,0,0,0,0,0,0,0,0,0,0
55,55,55,1.18678,410.9175480527385,10.921963285098874,263.73547942191107,0,0,0,0,0,0,0,0,0,0
56,56,56,1.1868,410.9729730316875,10.92762155492686,262.6932007337682,0,0,0,0,0,0,0,0,0,0
57,57,57,1.18682,411.0281407388789,10.897184971857758,261.64055136785373,0,0,0,0,0,0,0,0,0,0
58,58,58,1.18684,411.0823482128373,10.830325866663287,260.5775728809812,0,0,0,0,0,0,0,0,0,0
59,59,59,1.18686,411.1348865642474,10.72673306078678,259.50430723770194,0,0,0,0,0,0,0,0,0,0
60,60,60,1.18688,411.1850412992724,10.586112000937389,258.4207968087252,0,0,0,0,0,0,0,0,0,0
61,61,61,1.1868999999999998,411.22916639899455,10.613759110504663,257.3270843691778,0,0,0,0,0,0,0,0,0,0
62,62,62,1.18692,411.2740953148209,10.603860665812922,256.2232130969441,0,0,0,0,0,0,0,0,0,0
63,63,63,1.18694,411.31698381870297,10.624607101583727,255.10922657099167,0,0,0,0,0,0,0,0,0,0
64,64,64,1.18696,411.3598911535787,10.607164823901549,253.9851687695813,0,0,0,0,0,0,0,0,0,0
65,65,65,1.18698,411.4020969345506,10.551210766157684,252.85108406861025,0,0,0,0,0,0,0,0,0,0
66,66,66,1.187,411.4428751353378,10.456438334204398,251.70701723978016,0,0,0,0,0,0,0,0,0,0
67,67,67,1.18702,411.48149440101446,10.322557530786671,250.5530134489114,0,0,0,0,0,0,0,0,0,0
68,68,68,1.18704,411.5147649368933,10.286439717868586,249.3891182540872,0,0,0,0,0,0,0,0,0,0
69,69,69,1.18706,411.5462003822458,10.279281320115963,248.21537760388628,0,0,0,0,0,0,0,0,0,0
70,70,70,1.18708,411.5767124822469,10.300792703339436,247.031837835601,0,0,0,0,0,0,0,0,0,0
71,71,71,1.1871,411.6072425527296,10.282078420016708,245.8385456733336,0,0,0,0,0,0,0,0,0,0
72,72,72,1.18712,411.6370565189704,10.2228265324988,244.6355482262367,0,0,0,0,0,0,0,0,0,0
73,73,73,1.18714,411.6654150620484,10.122741454767468,243.4228929865791,0,0,0,0,0,0,0,0,0,0
74,74,74,1.18716,411.6915739191018,9.981544064872107,242.2006278279021,0,0,0,0,0,0,0,0,0,0
75,75,75,1.18718,411.7134251648668,9.867576214769768,240.96880100316352,0,0,0,0,0,0,0,0,0,0
76,76,76,1.1872,411.7307035808973,9.917829660210868,239.72746114274352,0,0,0,0,0,0,0,0,0,0
77,77,77,1.18722,411.7484946948831,9.92620310457818,238.4766572526592,0,0,0,0,0,0,0,0,0,0
78,78,78,1.18724,411.7660596461205,9.892385010404714,237.2164387124955,0,0,0,0,0,0,0,0,0,0
79,79,79,1.18726,411.78265451979263,9.816079868854974,235.9468552734767,0,0,0,0,0,0,0,0,0,0
80,80,80,1.18728,411.79753063147183,9.69700830479532,234.6679570566404,0,0,0,0,0,0,0,0,0,0
81,81,81,1.1873,411.808617579586,9.603527917025804,233.3797945506637,0,0,0,0,0,0,0,0,0,0
82,82,82,1.18732,411.8169812149391,9.5354033258655,232.08241861002017,0,0,0,0,0,0,0,0,0,0
83,83,83,1.1873399999999998,411.822431374628,9.561000953793954,230.77588045287868,0,0,0,0,0,0,0,0,0,0
84,84,84,1.18736,411.8279462892124,9.542791447639566,229.46023165911663,0,0,0,0,0,0,0,0,0,0
85,85,85,1.18738,411.832780218968,9.480484176148844,228.1355241683195,0,0,0,0,0,0,0,0,0,0
86,86,86,1.1874,411.8361829088752,9.373804249858168,226.8018102776468,0,0,0,0,0,0,0,0,0,0
87,87,87,1.18742,411.83739985819017,9.222492612436298,225.45914263986324,0,0,0,0,0,0,0,0,0,0
88,88,88,1.18744,411.8328009786226,9.23218997835682,224.107574261164,0,0,0,0,0,0,0,0,0,0
89,89,89,1.18746,411.82760637873344,9.265402436035888,222.7471584991788,0,0,0,0,0,0,0,0,0,0
90,90,90,1.18748,411.82258982718014,9.253210331037538,221.3779490607804,0,0,0,0,0,0,0,0,0,0
91,91,91,1.1875,411.8170061116664,9.195331921228552,220.00000000000023,0,0,0,0,0,0,0,0,0,0
92,92,92,1.18752,411.81010581758215,9.09150076607845,218.61336571593307,0,0,0,0,0,0,0,0,0,0
93,93,93,1.18754,411.80113558061936,8.941465809141906,217.21810095050083,0,0,0,0,0,0,0,0,0,0
94,94,94,1.18756,411.7874810004328,8.882232583483857,215.8142607863927,0,0,0,0,0,0,0,0,0,0
95,95,95,1.18758,411.77159693096064,8.844945974037621,214.401900644802,0,0,0,0,0,0,0,0,0,0
96,96,96,1.1876,411.75438428677074,8.829351749453467,212.98107628327585,0,0,0,0,0,0,0,0,0,0
97,97,97,1.18762,411.7365648316196,8.766565397136342,211.55184379355296,0,0,0,0,0,0,0,0,0,0
98,98,98,1.18764,411.7173932979193,8.656332129611373,210.11425959925887,0,0,0,0,0,0,0,0,0,0
99,99,99,1.18766,411.69496240093,8.567015613742083,208.66838045378208,0,0,0,0,0,0,0,0,0,0
100,100,100,1.1876799999999998,411.66926313337456,8.566988637527203,207.2142634379425,0,0,0,0,0,0,0,0,0,0
101,101,101,1.1877,411.6432115316616,8.518793301207662,205.7519659577769,0,0,0,0,0,0,0,0,0,0
102,102,102,1.18772,411.6157008991386,8.490772830188016,204.28154574231243,0,0,0,0,0,0,0,0,0,0
103,103,103,1.18774,411.5874115728295,8.414076648298503,202.80306084119465,0,0,0,0,0,0,0,0,0,0
104,104,104,1.18776,411.557604656317,8.288464169437036,201.31656962250267,0,0,0,0,0,0,0,0,0,0
105,105,105,1.1877799999999998,411.5238321264396,8.250864512777001,199.8221307703513,0,0,0,0,0,0,0,0,0,0
106,106,106,1.1878,411.4882900484543,8.232459530284425,198.31980328260016,0,0,0,0,0,0,0,0,0,0
107,107,107,1.18782,411.45176612115193,8.233000577231852,196.80964646863427,0,0,0,0,0,0,0,0,0,0
108,108,108,1.18784,411.41490519112057,8.183663907782616,195.2917199467768,0,0,0,0,0,0,0,0,0,0
109,109,109,1.18786,411.3769802998759,8.084211400212855,193.76608364223617,0,0,0,0,0,0,0,0,0,0
110,110,110,1.18788,411.3372614007103,7.934418631775584,192.23279778448023,0,0,0,0,0,0,0,0,0,0
111,111,111,1.1879,411.29339917457935,7.871154721346566,190.6919229050369,0,0,0,0,0,0,0,0,0,0
112,112,112,1.18792,411.2474728219873,7.825647013460398,189.1435198349943,0,0,0,0,0,0,0,0,0,0
113,113,113,1.18794,411.2002235313463,7.797659538871754,187.58764970264005,0,0,0,0,0,0,0,0,0,0
114,114,114,1.18796,411.1522488646332,7.718425078048862,186.0243739310912,0,0,0,0,0,0,0,0,0,0
115,115,115,1.18798,411.102833348811,7.587723653531514,184.45375423577008,0,0,0,0,0,0,0,0,0,0
116,116,116,1.188,411.0502632949497,7.473846333144694,182.8758526220814,0,0,0,0,0,0,0,0,0,0
117,117,117,1.18802,410.9941481523956,7.513565120618399,181.2907313828649,0,0,0,0,0,0,0,0,0,0
118,118,118,1.18804,410.93824001381546,7.501145338046924,179.6984530959784,0,0,0,0,0,0,0,0,0,0
119,119,119,1.18806,410.8818422491007,7.43636128778943,178.0990806218712,0,0,0,0,0,0,0,0,0,0
120,120,120,1.18808,410.824255565556,7.318999650168957,176.49267710100096,0,0,0,0,0,0,0,0,0,0
121,121,121,1.1881,410.7647781742127,7.148859528283977,174.87930595145727,0,0,0,0,0,0,0,0,0,0
122,122,122,1.1881199999999998,410.7005264249031,7.131079780519552,173.25903086635594,0,0,0,0,0,0,0,0,0,0
123,123,123,1.18814,410.6354099576311,7.128532643787152,171.63191581136834,0,0,0,0,0,0,0,0,0,0
124,124,124,1.18816,410.56994947259375,7.072554285934347,169.99802502224014,0,0,0,0,0,0,0,0,0,0
125,125,125,1.18818,410.5034638934876,6.9629398551906405,168.3574230021525,0,0,0,0,0,0,0,0,0,0
126,126,126,1.1882,410.4352698697815,6.799496243944764,166.71017451929364,0,0,0,0,0,0,0,0,0,0
127,127,127,1.18822,410.3622992639833,6.855590965803368,165.05634460418338,0,0,0,0,0,0,0,0,0,0
128,128,128,1.18824,410.28971080313846,6.857413256094322,163.3959985472249,0,0,0,0,0,0,0,0,0,0
129,129,129,1.18826,410.21684537337006,6.804757174020288,161.72920189602254,0,0,0,0,0,0,0,0,0,0
130,130,130,1.18828,410.1430416813242,6.697427810902113,160.056020452839,0,0,0,0,0,0,0,0,0,0
131,131,131,1.1883,410.0676363889016,6.535241324576231,158.37652027204294,0,0,0,0,0,0,0,0,0,0
132,132,132,1.18832,409.9884332290552,6.454672278724523,156.69076765738006,0,0,0,0,0,0,0,0,0,0
133,133,133,1.18834,409.9072409611233,6.455494225095944,154.99882915955342,0,0,0,0,0,0,0,0,0,0
134,134,134,1.18836,409.82577305805495,6.400851258849422,153.3007715733369,0,0,0,0,0,0,0,0,0,0
135,135,135,1.18838,409.7433900016732,6.290559549102368,151.59666193512078,0,0,0,0,0,0,0,0,0,0
136,136,136,1.1884,409.6594504592,6.12444565260664,149.88656752029735,0,0,0,0,0,0,0,0,0,0
137,137,137,1.18842,409.57146193727897,6.107113713665694,148.17055584041958,0,0,0,0,0,0,0,0,0,0
138,138,138,1.18844,409.4827211369175,6.101809729540908,146.44869464072147,0,0,0,0,0,0,0,0,0,0
139,139,139,1.1884599999999998,409.39365171207857,6.040087351551833,144.72105189731928,0,0,0,0,0,0,0,0,0,0
140,140,140,1.18848,409.3036374944752,5.921774691434864,142.98769581457466,0,0,0,0,0,0,0,0,0,0
141,141,141,1.1885,409.2120607272309,5.746709577459784,141.24869482244915,0,0,0,0,0,0,0,0,0,0
142,142,142,1.18852,409.11670565230327,5.719281798370206,139.50411757369278,0,0,0,0,0,0,0,0,0,0
143,143,143,1.18854,409.0204134728622,5.702887191443744,137.7540329412597,0,0,0,0,0,0,0,0,0,0
144,144,144,1.1885599999999998,408.92369678024016,5.629168795766487,135.99851001547884,0,0,0,0,0,0,0,0,0,0
145,145,145,1.18858,408.825964419049,5.497967278400958,134.2376181013734,0,0,0,0,0,0,0,0,0,0
146,146,146,1.1886,408.7260406023753,5.377247732358791,132.4714267159729,0,0,0,0,0,0,0,0,0,0
147,147,147,1.18862,408.6233470285927,5.403023666921769,130.70000558545703,0,0,0,0,0,0,0,0,0,0
148,148,148,1.18864,408.5206638993727,5.370761731911119,128.923424642531,0,0,0,0,0,0,0,0,0,0
149,149,149,1.18866,408.41742777704457,5.280307167700504,127.1417540235362,0,0,0,0,0,0,0,0,0,0
150,150,150,1.18868,408.3130739774653,5.131513606746504,125.35506406581024,0,0,0,0,0,0,0,0,0,0
151,151,151,1.1887,313.1404773513665,4.0145766508311365,123.56342530479726,1,0,0,0,0,0,0,0,0,1
152,152,152,1.18872,151.3124330794535,2.7179483105082074,121.7669084713115,1,0,0,0,0,0,0,0,0,1
153,153,153,1.18874,117.86580707746307,2.75299444073807,119.96558448879388,1,0,0,0,0,0,0,0,0,1
154,154,154,1.18876,110.13914135559472,3.037118120986201,118.15952447039832,1,0,0,0,0,0,0,0,0,1
155,155,155,1.18878,108.53771944765288,3.332949496910549,116.34879971631452,1,0,0,0,0,0,0,0,0,1
156,156,156,1.1888,106.96973913931062,3.6207052450741912,114.533481710839,1,0,0,0,0,0,0,0,0,1
157,157,157,1.18882,105.43442377775408,3.89914126016058,112.71364211960189,1,0,0,0,0,0,0,0,0,1
158,158,158,1.18884,104.72003032312976,4.132003708274972,110.88935278678696,1,0,0,0,0,0,0,0,0,1
159,159,159,1.18886,104.01866136111052,4.340690267441815,109.0606857321805,1,0,0,0,0,0,0,0,0,1
160,160,160,1.18888,103.32858064785698,4.511391009223135,107.2277131484597,1,0,0,0,0,0,0,0,0,1
161,161,161,1.1888999999999998,101.87424475032932,4.664967972466046,105.39050739822709,1,0,0,0,0,0,0,0,0,1
162,162,162,1.18892,101.2092087828469,4.770986822715108,103.5491410112032,1,0,0,0,0,0,0,0,0,1
163,163,163,1.18894,100.5520397059418,4.837537139889648,101.7036866814134,1,0,0,0,0,0,0,0,0,1
164,164,164,1.18896,99.14887736440656,4.897660742423378,99.85421726418454,1,0,0,0,0,0,0,0,0,1
165,165,165,1.18898,98.51101767392896,4.909095464546809,98.00080577346937,1,0,0,0,0,0,0,0,0,1
166,166,166,1.189,97.14060269058376,4.912550917749381,96.14352537872968,1,0,0,0,0,0,0,0,0,1
167,167,167,1.18902,95.79115296380516,4.898965874942316,94.282449402249,1,0,0,0,0,0,0,0,0,1
168,168,168,1.18904,95.17976226978776,4.847734300324953,92.41765131610336,1,0,0,0,0,0,0,0,0,1
169,169,169,1.18906,93.8576783077644,4.774161838588137,90.5492047393112,1,0,0,0,0,0,0,0,0,1
170,170,170,1.18908,92.55347246772372,4.68163456274962,88.67718343497792,1,0,0,0,0,0,0,0,0,1
171,171,171,1.1891,91.26628947573808,4.569457973649893,86.80166130726536,1,0,0,0,0,0,0,0,0,1
172,172,172,1.18912,89.99526684444199,4.436968421326977,84.9227123986096,1,0,0,0,0,0,0,0,0,1
173,173,173,1.18914,88.07017146055408,4.30210835592828,83.04041088667934,1,0,0,0,0,0,0,0,0,1
174,174,174,1.18916,86.1850237169579,4.167237165011767,81.1548310814982,1,0,0,0,0,0,0,0,0,1
175,175,175,1.18918,84.33888963321535,4.030945546435724,79.26604742256237,1,0,0,0,0,0,0,0,0,1
176,176,176,1.1892,82.53081500431843,3.8918578046023504,77.37413447578238,1,0,0,0,0,0,0,0,0,1
177,177,177,1.18922,80.15004110047005,3.7553847778160976,75.47916693067617,1,0,0,0,0,0,0,0,0,1
178,178,178,1.18924,78.42899083026353,3.61664072707416,73.58121959730057,1,0,0,0,0,0,0,0,0,1
179,179,179,1.18926,76.1641361238955,3.487077001164653,71.68036740334934,1,0,0,0,0,0,0,0,0,1
180,180,180,1.18928,74.52621154789072,3.3520990946822264,69.77668539124667,1,0,0,0,0,0,0,0,0,1
181,181,181,1.1893,72.37147508036598,3.2225895484110425,67.87024871506433,1,0,0,0,0,0,0,0,0,1
182,182,182,1.18932,70.27811993320722,3.0995760241064247,65.96113263769246,1,0,0,0,0,0,0,0,0,1
183,183,183,1.1893399999999998,68.2444522966402,2.980972793908549,64.04941252774763,1,0,0,0,0,0,0,0,0,1
184,184,184,1.18936,66.26876878673455,2.8647527121462817,62.13516385664906,1,0,0,0,0,0,0,0,0,1
185,185,185,1.18938,64.34935846984963,2.748947500839999,60.2184621956912,1,0,0,0,0,0,0,0,0,1
186,186,186,1.1894,62.48450483336445,2.6316479691832315,58.299383212939,1,0,0,0,0,0,0,0,0,1
187,187,187,1.18942,60.67248770238684,2.511004168781064,56.378002670379466,1,0,0,0,0,0,0,0,0,1
188,188,188,1.18944,58.46718298405559,2.397464848802687,54.45439642079172,1,0,0,0,0,0,0,0,0,1
189,189,189,1.18946,56.769677481281725,2.279254013890414,52.52864040489155,1,0,0,0,0,0,0,0,0,1
190,190,190,1.18948,54.70450996238316,2.170572556898821,50.60081064821165,1,0,0,0,0,0,0,0,0,1
191,191,191,1.1895,52.3160390914753,2.0750425927089653,48.670983258134896,1,0,0,0,0,0,0,0,0,1
192,192,192,1.18952,50.411810334179,1.974565628258188,46.7392344210296,1,0,0,0,0,0,0,0,0,1
193,193,193,1.18954,48.2100406582198,1.8875942373796608,44.80564039892729,1,0,0,0,0,0,0,0,0,1
194,194,194,1.18956,46.1041565417493,1.8008683668493009,42.87027752689655,1,0,0,0,0,0,0,0,0,1
195,195,195,1.18958,44.09005000838382,1.717104866769776,40.933222209714735,1,0,0,0,0,0,0,0,0,1
196,196,196,1.1896,42.1640856613426,1.6387587817497906,38.994550918991465,1,0,0,0,0,0,0,0,0,1
197,197,197,1.18962,40.01790135006527,1.56591326940675,37.05434019018481,1,0,0,0,0,0,0,0,0,1
198,198,198,1.18964,37.98102794209824,1.4918855400893514,35.11266661945708,1,0,0,0,0,0,0,0,0,1
199,199,199,1.18966,35.77601807202005,1.4256215024295922,33.169606860791305,1,0,0,0,0,0,0,0,0,1
