,Unnamed: 0.1,Unnamed: 0,Time / s,Vo:Measured voltage,IL:Measured current,Vin:Measured voltage,open1:Output,open3:Output,open2:Output,open4:Output,short1:Output,short2:Output,short3:Output,short4:Output,OPEN,SHORT
0,0,0,1.1374213004207867,411.7826387950676,-9.114847447578404,-225.45914263986384,0,0,0,0,0,0,0,0,0,0
1,1,1,1.13744,411.7777010300816,-9.125609043544754,-224.10757426116456,0,0,0,0,0,0,0,0,0,0
2,2,2,1.13746,411.7719101337572,-9.159881857226402,-222.74715849917936,0,0,0,0,0,0,0,0,0,0
3,3,3,1.13748,411.7663079802601,-9.14876031313752,-221.3779490607685,0,0,0,0,0,0,0,0,0,0
4,4,4,1.1375,411.7601494744191,-9.091962472298588,-220.00000000000088,0,0,0,0,0,0,0,0,0,0
5,5,5,1.13752,411.7526853157429,-8.98922169528687,-218.61336571593367,0,0,0,0,0,0,0,0,0,0
6,6,6,1.13754,411.743162251004,-8.84028672477364,-217.2181009505015,0,0,0,0,0,0,0,0,0,0
7,7,7,1.13756,411.7295430387947,-8.782145747955827,-215.81426078639336,0,0,0,0,0,0,0,0,0,0
8,8,8,1.13758,411.7128063572305,-8.814547640559447,-214.40190064478983,0,0,0,0,0,0,0,0,0,0
9,9,9,1.1376,411.6962136549496,-8.800015886684774,-212.9810762832765,0,0,0,0,0,0,0,0,0,0
10,10,10,1.13762,411.6790232921669,-8.738280736323256,-211.5518437935536,0,0,0,0,0,0,0,0,0,0
11,11,11,1.13764,411.66048977684153,-8.629087245521385,-210.11425959925955,0,0,0,0,0,0,0,0,0,0
12,12,12,1.13766,411.63986399998896,-8.472195349767926,-208.6683804537828,0,0,0,0,0,0,0,0,0,0
13,13,13,1.13768,411.6140442676653,-8.473157171204374,-207.21426343793007,0,0,0,0,0,0,0,0,0,0
14,14,14,1.1377,411.5872549987441,-8.494541534455262,-205.75196595777768,0,0,0,0,0,0,0,0,0,0
15,15,15,1.1377199999999998,411.560429546556,-8.467493241949926,-204.2815457423131,0,0,0,0,0,0,0,0,0,0
16,16,16,1.13774,411.53283226594937,-8.39175732387566,-202.8030608411953,0,0,0,0,0,0,0,0,0,0
17,17,17,1.13776,411.5037240360923,-8.267093082048182,-201.3165696225034,0,0,0,0,0,0,0,0,0,0
18,18,18,1.13778,411.4723624784813,-8.093274154214363,-199.82213077033845,0,0,0,0,0,0,0,0,0,0
19,19,19,1.1378,411.43517761832095,-8.144343224665837,-198.3198032826145,0,0,0,0,0,0,0,0,0,0
20,20,20,1.13782,411.3983850062105,-8.145790253326913,-196.80964646860755,0,0,0,0,0,0,0,0,0,0
21,21,21,1.13784,411.3612609867749,-8.09736338681936,-195.2917199467912,0,0,0,0,0,0,0,0,0,0
22,22,22,1.13786,411.3230786153432,-7.9988244117051535,-193.76608364225072,0,0,0,0,0,0,0,0,0,0
23,23,23,1.13788,411.28310785798607,-7.849948813331664,-192.2327977844809,0,0,0,0,0,0,0,0,0,0
24,24,24,1.1379,411.2398252210816,-7.719057072368998,-190.69192290503764,0,0,0,0,0,0,0,0,0,0
25,25,25,1.13792,411.1923983379151,-7.742977877367731,-189.1435198349809,0,0,0,0,0,0,0,0,0,0
26,26,26,1.13794,411.14496331843566,-7.715887164174392,-187.5876497026408,0,0,0,0,0,0,0,0,0,0
27,27,27,1.13796,411.096807571008,-7.637551840490747,-186.0243739310919,0,0,0,0,0,0,0,0,0,0
28,28,28,1.13798,411.0472156163104,-7.507751855896955,-184.4537542357708,0,0,0,0,0,0,0,0,0,0
29,29,29,1.138,410.9947171807141,-7.394771152426051,-182.8758526220821,0,0,0,0,0,0,0,0,0,0
30,30,30,1.13802,410.9384821489283,-7.435354008123711,-181.2907313828512,0,0,0,0,0,0,0,0,0,0
31,31,31,1.13804,410.8824576128497,-7.423799594941723,-179.69845309597915,0,0,0,0,0,0,0,0,0,0
32,32,32,1.1380599999999998,410.8259469221751,-7.359882162717616,-178.0990806218719,0,0,0,0,0,0,0,0,0,0
33,33,33,1.13808,410.7682507636407,-7.243388339566962,-176.49267710100173,0,0,0,0,0,0,0,0,0,0
34,34,34,1.1381,410.70866732734567,-7.074117176700125,-174.879305951458,0,0,0,0,0,0,0,0,0,0
35,35,35,1.13812,410.645005915203,-7.057183654936349,-173.25903086634202,0,0,0,0,0,0,0,0,0,0
36,36,36,1.13814,410.5798339843126,-7.055459484984496,-171.6319158113691,0,0,0,0,0,0,0,0,0,0
37,37,37,1.1381599999999998,410.51432024188017,-7.000304428978192,-169.9980250222409,0,0,0,0,0,0,0,0,0,0
38,38,38,1.13818,410.4477835808885,-6.891513603298527,-168.35742300215327,0,0,0,0,0,0,0,0,0,0
39,39,39,1.1382,410.3795406200272,-6.728893868927714,-166.7101745192944,0,0,0,0,0,0,0,0,0,0
40,40,40,1.13822,410.3065656915636,-6.785774626165719,-165.05634460418418,0,0,0,0,0,0,0,0,0,0
41,41,41,1.13824,410.2339740130959,-6.788382584762282,-163.39599854722567,0,0,0,0,0,0,0,0,0,0
42,42,42,1.13826,410.16110643315625,-6.736511788489165,-161.72920189600825,0,0,0,0,0,0,0,0,0,0
43,43,43,1.13828,410.08730162096,-6.629967313744813,-160.0560204528398,0,0,0,0,0,0,0,0,0,0
44,44,44,1.1383,410.0118962011471,-6.468565303949318,-158.3765202720437,0,0,0,0,0,0,0,0,0,0
45,45,45,1.13832,409.93271396173816,-6.3887613521430495,-156.69076765739612,0,0,0,0,0,0,0,0,0,0
46,46,46,1.13834,409.8515629304584,-6.39032862998346,-154.99882915955422,0,0,0,0,0,0,0,0,0,0
47,47,47,1.13836,409.7701362157047,-6.336430064660612,-153.30077157332232,0,0,0,0,0,0,0,0,0,0
48,48,48,1.13838,409.68779425797806,-6.226881825435384,-151.596661935137,0,0,0,0,0,0,0,0,0,0
49,49,49,1.1384,409.6038956835383,-6.061510469729288,-149.88656752031363,0,0,0,0,0,0,0,0,0,0
50,50,50,1.13842,409.515927391804,-6.044891496577213,-148.17055584043595,0,0,0,0,0,0,0,0,0,0
51,51,51,1.13844,409.4272644216664,-6.040290628124845,-146.44869464073787,0,0,0,0,0,0,0,0,0,0
52,52,52,1.13846,409.3382717039996,-5.979270041639672,-144.72105189730445,0,0,0,0,0,0,0,0,0,0
53,53,53,1.13848,409.24833302764256,-5.861657862041248,-142.9876958145755,0,0,0,0,0,0,0,0,0,0
54,54,54,1.1384999999999998,409.1568305933512,-5.687291931296136,-141.24869482246572,0,0,0,0,0,0,0,0,0,0
55,55,55,1.13852,409.06139777201776,-5.660532704428649,-139.50411757369358,0,0,0,0,0,0,0,0,0,0
56,56,56,1.13854,408.9652126644846,-5.644798922855391,-137.75403294126053,0,0,0,0,0,0,0,0,0,0
57,57,57,1.13856,408.86860090875535,-5.571739767111152,-135.99851001546375,0,0,0,0,0,0,0,0,0,0
58,58,58,1.13858,408.77097130683785,-5.441195928298143,-134.23761810137424,0,0,0,0,0,0,0,0,0,0
59,59,59,1.1386,408.67098879882747,-5.321121064892108,-132.47142671595773,0,0,0,0,0,0,0,0,0,0
60,60,60,1.13862,408.5686198282905,-5.279423689741134,-130.7000055854579,0,0,0,0,0,0,0,0,0,0
61,61,61,1.13864,408.46540573013607,-5.247795936065125,-128.9234246425318,0,0,0,0,0,0,0,0,0,0
62,62,62,1.13866,408.3616359911395,-5.157980856770056,-127.14175402353705,0,0,0,0,0,0,0,0,0,0
63,63,63,1.13868,408.2560339998856,-5.077867194118923,-125.35506406581108,0,0,0,0,0,0,0,0,0,0
64,64,64,1.1387,408.1490374939344,-5.007274274251127,-123.56342530478187,0,0,0,0,0,0,0,0,0,0
65,65,65,1.13872,408.0406594085866,-4.946013495269946,-121.76690847131232,0,0,0,0,0,0,0,0,0,0
66,66,66,1.13874,407.93131150824576,-4.89390170329558,-119.96558448879472,0,0,0,0,0,0,0,0,0,0
67,67,67,1.13876,407.8212568902826,-4.782782143345833,-118.15952447039916,0,0,0,0,0,0,0,0,0,0
68,68,68,1.13878,407.7089269813741,-4.748414394723981,-116.34879971631536,0,0,0,0,0,0,0,0,0,0
69,69,69,1.1388,407.5960738148871,-4.654715444110859,-114.53348171082344,0,0,0,0,0,0,0,0,0,0
70,70,70,1.13882,407.4817355750533,-4.569464601656188,-112.71364211960272,0,0,0,0,0,0,0,0,0,0
71,71,71,1.13884,407.366295215668,-4.492488995511456,-110.88935278678782,0,0,0,0,0,0,0,0,0,0
72,72,72,1.13886,407.2493602956978,-4.423605468787601,-109.06068573218135,0,0,0,0,0,0,0,0,0,0
73,73,73,1.13888,407.13129911915945,-4.362645713055152,-107.22771314846057,0,0,0,0,0,0,0,0,0,0
74,74,74,1.1389,407.01253490822273,-4.2416035322291705,-105.3905073982113,0,0,0,0,0,0,0,0,0,0
75,75,75,1.13892,406.8920490247322,-4.195988798100678,-103.54914101120406,0,0,0,0,0,0,0,0,0,0
76,76,76,1.1389399999999998,406.77041464568737,-4.157780520855222,-101.70368668141424,0,0,0,0,0,0,0,0,0,0
77,77,77,1.13896,406.6479620545359,-4.126814600044163,-99.8542172642021,0,0,0,0,0,0,0,0,0,0
78,78,78,1.13898,406.5250880304332,-4.035170923986312,-98.000805773487,0,0,0,0,0,0,0,0,0,0
79,79,79,1.139,406.4013327137933,-3.8827399199815855,-96.14352537873056,0,0,0,0,0,0,0,0,0,0
80,80,80,1.13902,406.27521587769775,-3.8725472041667888,-94.28244940226672,0,0,0,0,0,0,0,0,0,0
81,81,81,1.13904,406.14853668752,-3.868944388298754,-92.41765131608732,0,0,0,0,0,0,0,0,0,0
82,82,82,1.13906,406.0216633972104,-3.8041010166078366,-90.54920473931206,0,0,0,0,0,0,0,0,0,0
83,83,83,1.13908,405.8941689689237,-3.677915557891799,-88.6771834349788,0,0,0,0,0,0,0,0,0,0
84,84,84,1.1391,405.76562583925295,-3.490292243396529,-86.80166130726623,0,0,0,0,0,0,0,0,0,0
85,85,85,1.13912,405.63442845236113,-3.511555282625938,-84.92271239861049,0,0,0,0,0,0,0,0,0,0
86,86,86,1.13914,405.5032158167495,-3.471051281089035,-83.04041088666318,0,0,0,0,0,0,0,0,0,0
87,87,87,1.13916,405.3715946452088,-3.3686874840049703,-81.15483108149908,0,0,0,0,0,0,0,0,0,0
88,88,88,1.13918,405.2391712262019,-3.204376394009341,-79.26604742256323,0,0,0,0,0,0,0,0,0,0
89,89,89,1.1392,405.10456746815936,-3.180579992315188,-77.37413447578326,0,0,0,0,0,0,0,0,0,0
90,90,90,1.13922,404.9695841886225,-3.16205457399111,-75.47916693067705,0,0,0,0,0,0,0,0,0,0
91,91,91,1.13924,404.8343620774649,-3.0811825150707994,-73.5812195972843,0,0,0,0,0,0,0,0,0,0
92,92,92,1.13926,404.6985420931358,-2.9378852313622668,-71.68036740335023,0,0,0,0,0,0,0,0,0,0
93,93,93,1.1392799999999998,404.56136258228565,-2.799511568003505,-69.77668539124755,0,0,0,0,0,0,0,0,0,0
94,94,94,1.1393,404.42282353194406,-2.733335482429339,-67.87024871506523,0,0,0,0,0,0,0,0,0,0
95,95,95,1.13932,404.2837437945856,-2.6717846003708847,-65.96113263769337,0,0,0,0,0,0,0,0,0,0
96,96,96,1.13934,404.14423381763226,-2.547367753866677,-64.04941252773122,0,0,0,0,0,0,0,0,0,0
97,97,97,1.13936,404.00341924563287,-2.494683511017404,-62.135163856649946,0,0,0,0,0,0,0,0,0,0
98,98,98,1.13938,403.86224974143846,-2.3789252735557387,-60.218462195674725,0,0,0,0,0,0,0,0,0,0
99,99,99,1.1394,403.72015755122624,-2.3346069101656948,-58.29938321293989,0,0,0,0,0,0,0,0,0,0
100,100,100,1.13942,403.57743803172906,-2.294272610180152,-56.37800267038036,0,0,0,0,0,0,0,0,0,0
101,101,101,1.13944,403.43426876483136,-2.257804281930911,-54.45439642079262,0,0,0,0,0,0,0,0,0,0
102,102,102,1.13946,403.290864432866,-2.157867810569512,-52.52864040489245,0,0,0,0,0,0,0,0,0,0
103,103,103,1.13948,403.14676907219297,-2.0616031128302734,-50.60081064819512,0,0,0,0,0,0,0,0,0,0
104,104,104,1.1395,403.0021539176376,-1.9688991120675163,-48.67098325815328,0,0,0,0,0,0,0,0,0,0
105,105,105,1.13952,402.8566638940531,-1.9467813024855285,-46.739234421030496,0,0,0,0,0,0,0,0,0,0
106,106,106,1.13954,402.7110325339801,-1.8608389045539568,-44.80564039894569,0,0,0,0,0,0,0,0,0,0
107,107,107,1.13956,402.5650277710001,-1.711031441512497,-42.870277526914975,0,0,0,0,0,0,0,0,0,0
108,108,108,1.13958,402.41800127376086,-1.6985304715539853,-40.93322220969812,0,0,0,0,0,0,0,0,0,0
109,109,109,1.1396,402.2707434673403,-1.6890068598705588,-38.99455091900992,0,0,0,0,0,0,0,0,0,0
110,110,110,1.13962,402.123415402816,-1.615338396164739,-37.05434019020328,0,0,0,0,0,0,0,0,0,0
111,111,111,1.13964,401.9758227187923,-1.47749484846305,-35.11266661945799,0,0,0,0,0,0,0,0,0,0
112,112,112,1.13966,401.8275764894586,-1.342418401573128,-33.169606860792214,0,0,0,0,0,0,0,0,0,0
113,113,113,1.13968,401.67866357956746,-1.3439141846194655,-31.22523762282545,0,0,0,0,0,0,0,0,0,0
114,114,114,1.1397,401.5297326091936,-1.2809834070403785,-29.279635665961106,0,0,0,0,0,0,0,0,0,0
115,115,115,1.1397199999999998,401.38062740467353,-1.1536062752085163,-27.33287779921544,0,0,0,0,0,0,0,0,0,0
116,116,116,1.13974,401.2310432643713,-1.0286362502589623,-25.38504087723803,0,0,0,0,0,0,0,0,0,0
117,117,117,1.13976,401.08109360438885,-0.9059918689604892,-23.43620179733056,0,0,0,0,0,0,0,0,0,0
118,118,118,1.13978,400.9308035269328,-0.852415912488915,-21.486437496287703,0,0,0,0,0,0,0,0,0,0
119,119,119,1.1398,400.78041418205856,-0.734161038784068,-19.535824947500807,0,0,0,0,0,0,0,0,0,0
120,120,120,1.13982,400.6296686741935,-0.6847641266203227,-17.584441157778027,0,0,0,0,0,0,0,0,0,0
121,121,121,1.13984,400.4788610368103,-0.5705865345360605,-15.632363164445376,0,0,0,0,0,0,0,0,0,0
122,122,122,1.13986,400.3278621442547,-0.5250738017054879,-13.679668032181892,0,0,0,0,0,0,0,0,0,0
123,123,123,1.13988,400.17675852794986,-0.4813837198732955,-11.726432850030172,0,0,0,0,0,0,0,0,0,0
124,124,124,1.1399,400.0256010310909,-0.4394507915015833,-9.772734728406071,0,0,0,0,0,0,0,0,0,0
125,125,125,1.13992,399.8744379293424,-0.3325632156740945,-7.818650795930826,0,0,0,0,0,0,0,0,0,0
126,126,126,1.13994,399.7231965745474,-0.2273523264320623,-5.864258196527506,0,0,0,0,0,0,0,0,0,0
127,127,127,1.13996,399.57187734089655,-0.2569518847229795,-3.909634086251809,0,0,0,0,0,0,0,0,0,0
128,128,128,1.13998,399.4206194041682,-0.2214459776560938,-1.954855630299068,0,0,0,0,0,0,0,0,0,0
129,129,129,1.14,399.2694030190853,-0.1208522113832578,-1.09757061235575e-11,0,0,0,0,0,0,0,0,0,0
130,130,130,1.14002,399.11817301436594,-0.1547539867030471,1.9548556302948017,0,0,0,0,0,0,0,0,0,0
131,131,131,1.14004,398.9669665182944,-0.1899664843682885,3.9096340862298575,0,0,0,0,0,0,0,0,0,0
132,132,132,1.14006,398.8158165468773,-0.159970788234107,5.864258196505559,0,0,0,0,0,0,0,0,0,0
133,133,133,1.14008,398.6647428307925,-0.0647953001107206,7.818650795926561,0,0,0,0,0,0,0,0,0,0
134,134,134,1.1401,398.51376473485465,0.0955296482711206,9.772734728384137,0,0,0,0,0,0,0,0,0,0
135,135,135,1.14012,398.36290265532966,0.3209705950568195,11.72643285002591,0,0,0,0,0,0,0,0,0,0
136,136,136,1.14014,398.2121759219345,0.6114924419948872,13.679668032159965,0,0,0,0,0,0,0,0,0,0
137,137,137,1.1401599999999998,398.0619588811247,0.7016803491407737,15.632363164423452,0,0,0,0,0,0,0,0,0,0
138,138,138,1.14018,397.9119104825895,0.8570584595796876,17.584441157791424,0,0,0,0,0,0,0,0,0,0
139,139,139,1.1402,397.7622993590544,0.9449955230182296,19.5358249474789,0,0,0,0,0,0,0,0,0,0
140,140,140,1.14022,397.61302684430177,1.0318588060567797,21.486437496301093,0,0,0,0,0,0,0,0,0,0
141,141,141,1.14024,397.46406607422097,1.1176691426569167,23.436201797326305,0,0,0,0,0,0,0,0,0,0
142,142,142,1.14026,397.3154952299213,1.2024486721740135,25.3850408772514,0,0,0,0,0,0,0,0,0,0
143,143,143,1.14028,397.16727632628994,1.2862125398825883,27.33287779921119,0,0,0,0,0,0,0,0,0,0
144,144,144,1.1403,397.0195033886827,1.3689776218171186,29.279635665956853,0,0,0,0,0,0,0,0,0,0
145,145,145,1.14032,396.8723011189374,1.3846090450026318,31.2252376228388,0,0,0,0,0,0,0,0,0,0
146,146,146,1.14034,396.725358171941,1.3993044402869674,33.169606860787965,0,0,0,0,0,0,0,0,0,0
147,147,147,1.14036,396.578585487848,1.479167679280628,35.11266661947132,0,0,0,0,0,0,0,0,0,0
148,148,148,1.14038,396.43214087610727,1.6241331947310809,37.054340190181485,0,0,0,0,0,0,0,0,0,0
149,149,149,1.1404,396.2867320585506,1.6359917417378318,38.99455091898814,0,0,0,0,0,0,0,0,0,0
150,150,150,1.14042,396.14160657848936,1.646920719167378,40.93322220971142,0,0,0,0,0,0,0,0,0,0
151,151,151,1.14044,395.99158333222425,0.3407362727785849,42.87027752689323,1,0,0,0,0,0,0,0,1,0
152,152,152,1.14046,395.8416157596189,0.3562222934756748,44.80564039894148,1,0,0,0,0,0,0,0,1,0
153,153,153,1.14048,395.6917051534457,0.3797540782762319,46.7392344210088,1,0,0,0,0,0,0,0,1,0
154,154,154,1.1404999999999998,395.541851506352,0.3955315874557804,48.67098325813159,1,0,0,0,0,0,0,0,1,0
155,155,155,1.14052,395.3920546698688,0.4112899423954372,50.60081064819089,1,0,0,0,0,0,0,0,1,0
156,156,156,1.14054,395.2423146224138,0.4270356815877048,52.52864040487081,1,0,0,0,0,0,0,0,1,0
157,157,157,1.14056,395.0926313424076,0.4427645291756318,54.45439642078842,1,0,0,0,0,0,0,0,1,0
158,158,158,1.14058,394.94300480828815,0.458475867652301,56.378002670358775,1,0,0,0,0,0,0,0,1,0
159,159,159,1.1406,394.79343510422257,0.4894526926402256,58.2993832129357,1,0,0,0,0,0,0,0,1,0
160,160,160,1.14062,394.6439221162628,0.5056561207929535,60.21846219567056,1,0,0,0,0,0,0,0,1,0
161,161,161,1.14064,394.4944658094556,0.5218356760769955,62.135163856628445,1,0,0,0,0,0,0,0,1,0
162,162,162,1.14066,394.3450661622576,0.5379946135231252,64.04941252772704,1,0,0,0,0,0,0,0,1,0
163,163,163,1.14068,394.1957231531368,0.554132296237946,65.96113263767191,1,0,0,0,0,0,0,0,1,0
164,164,164,1.1407,394.04643676056565,0.5702480871395545,67.87024871506107,1,0,0,0,0,0,0,0,1,0
165,165,165,1.14072,393.8972069630237,0.5863413500100728,69.77668539122617,1,0,0,0,0,0,0,0,1,0
166,166,166,1.14074,393.7480337389957,0.6024114495209109,71.68036740332887,1,0,0,0,0,0,0,0,1,0
167,167,167,1.14076,393.5989170669721,0.618457751258001,73.58121959729732,1,0,0,0,0,0,0,0,1,0
168,168,168,1.14078,393.4498569254492,0.6344796217467139,75.47916693065577,1,0,0,0,0,0,0,0,1,0
169,169,169,1.1408,393.3008532929298,0.6504764284769323,77.37413447579625,1,0,0,0,0,0,0,0,1,0
170,170,170,1.14082,393.151906147922,0.666447539928061,79.2660474225591,1,0,0,0,0,0,0,0,1,0
171,171,171,1.14084,393.0030154689405,0.6823923255938296,81.15483108149498,1,0,0,0,0,0,0,0,1,0
172,172,172,1.14086,392.8541812345039,0.6983101560073278,83.04041088667611,1,0,0,0,0,0,0,0,1,0
173,173,173,1.14088,392.7054034231399,0.7142004027657414,84.92271239860638,1,0,0,0,0,0,0,0,1,0
174,174,174,1.1409,392.55668201337903,0.7300624385552457,86.80166130727913,1,0,0,0,0,0,0,0,1,0
175,175,175,1.14092,392.4080169837591,0.7458956371757206,88.67718343497472,1,0,0,0,0,0,0,0,1,0
176,176,176,1.1409399999999998,392.259408312824,0.7616993735654841,90.549204739308,1,0,0,0,0,0,0,0,1,0
177,177,177,1.14096,392.11085597912336,0.7774730238259743,92.41765131610016,1,0,0,0,0,0,0,0,1,0
178,178,178,1.14098,391.9623599612118,0.793215965246361,94.2824494022458,1,0,0,0,0,0,0,0,1,0
179,179,179,1.141,391.81392023765113,0.8089275763281782,96.14352537874336,1,0,0,0,0,0,0,0,1,0
180,180,180,1.14102,391.6655367870079,0.8246072368097829,98.00080577346615,1,0,0,0,0,0,0,0,1,0
181,181,181,1.14104,391.5172095878556,0.8402543276909263,99.85421726419813,1,0,0,0,0,0,0,0,1,0
182,182,182,1.14106,391.36893861877314,0.8558682312571189,101.70368668139352,1,0,0,0,0,0,0,0,1,0
183,183,183,1.14108,391.22072385834485,0.8714483311040474,103.54914101118337,1,0,0,0,0,0,0,0,1,0
184,184,184,1.1411,391.07256528516217,0.8869940121619515,105.39050739820728,1,0,0,0,0,0,0,0,1,0
185,185,185,1.14112,390.9244628778212,0.902504660719796,107.22771314843996,1,0,0,0,0,0,0,0,1,0
186,186,186,1.14114,390.7764166149241,0.9179796644496372,109.06068573217738,1,0,0,0,0,0,0,0,1,0
187,187,187,1.14116,390.6284264750792,0.933418412430665,110.88935278676732,1,0,0,0,0,0,0,0,1,0
188,188,188,1.14118,390.4804924369013,0.9488202951734024,112.71364211958225,1,0,0,0,0,0,0,0,1,0
189,189,189,1.1412,390.3326144790109,0.9641847046437896,114.53348171081946,1,0,0,0,0,0,0,0,1,0
190,190,190,1.14122,390.1847925800336,0.9795110342870716,116.34879971629502,1,0,0,0,0,0,0,0,1,0
191,191,191,1.14124,390.0370267186013,0.9947986790518798,118.1595244703952,1,0,0,0,0,0,0,0,1,0
192,192,192,1.14126,389.8893168733524,1.0100470354140076,119.96558448877448,1,0,0,0,0,0,0,0,1,0
193,193,193,1.14128,389.7416630229303,1.0252555014003244,121.76690847129213,1,0,0,0,0,0,0,0,1,0
194,194,194,1.1413,389.594065145985,1.0404234766124782,123.56342530477797,1,0,0,0,0,0,0,0,1,0
195,195,195,1.14132,389.4465232211727,1.055550362250636,125.35506406579098,1,0,0,0,0,0,0,0,1,0
196,196,196,1.14134,389.2990372271551,1.0706355611370868,127.14175402354928,1,0,0,0,0,0,0,0,1,0
197,197,197,1.14136,389.1516071425994,1.0856784777398538,128.92342464251186,1,0,0,0,0,0,0,0,1,0
198,198,198,1.1413799999999998,389.0042329461791,1.1006785181962042,130.70000558543796,1,0,0,0,0,0,0,0,1,0
199,199,199,1.1414,388.85691461657393,1.115635090336047,132.47142671596987,1,0,0,0,0,0,0,0,1,0
200,200,200,1.14142,388.7096521324693,1.1305476037053752,134.2376181013704,1,0,0,0,0,0,0,0,1,0
201,201,201,1.1414213004207865,388.7096521324693,1.1305476037053752,134.2376181013704,1,0,0,0,0,0,0,0,1,0
