,Unnamed: 0.1,Unnamed: 0,Time / s,Vo:Measured voltage,IL:Measured current,Vin:Measured voltage,open1:Output,open3:Output,open2:Output,open4:Output,short1:Output,short2:Output,short3:Output,short4:Output,OPEN,SHORT
0,0,0,1.13457481028278,397.1869128909958,-12.949656328798696,-308.15927587007167,0,0,0,0,0,0,0,0,0,0
1,1,1,1.13458,397.34221929172,-12.89624360204413,-308.42255319533655,0,0,0,0,0,0,0,0,0,0
2,2,2,1.1346,397.4946157518932,-12.91361711295173,-308.6736545263076,0,0,0,0,0,0,0,0,0,0
3,3,3,1.13462,397.6490594465944,-12.868958101205534,-308.91256994992955,0,0,0,0,0,0,0,0,0,0
4,4,4,1.13464,397.8007943966135,-12.894343208134138,-309.1392900342331,0,0,0,0,0,0,0,0,0,0
5,5,5,1.13466,397.9547533143085,-12.856845966318614,-309.3538058286993,0,0,0,0,0,0,0,0,0,0
6,6,6,1.13468,398.1078037168396,-12.822307410181969,-309.55610886460806,0,0,0,0,0,0,0,0,0,0
7,7,7,1.1347,398.2591592564145,-12.856702042716057,-309.7461911553856,0,0,0,0,0,0,0,0,0,0
8,8,8,1.13472,398.41214917406177,-12.826921884903378,-309.92404519690507,0,0,0,0,0,0,0,0,0,0
9,9,9,1.13474,398.5627641503745,-12.8653092499123,-310.0896639677952,0,0,0,0,0,0,0,0,0,0
10,10,10,1.13476,398.7158815866617,-12.838674314739492,-310.2430409297119,0,0,0,0,0,0,0,0,0,0
11,11,11,1.13478,398.868323593168,-12.8129775309612,-310.38417002759246,0,0,0,0,0,0,0,0,0,0
12,12,12,1.1348,399.0192590541407,-12.85431367808151,-310.5130456899044,0,0,0,0,0,0,0,0,0,0
13,13,13,1.13482,399.17196587271405,-12.829316165010052,-310.62966282885486,0,0,0,0,0,0,0,0,0,0
14,14,14,1.1348399999999998,399.3223866209012,-12.870576894279768,-310.73401684060013,0,0,0,0,0,0,0,0,0,0
15,15,15,1.13486,399.4753537942889,-12.844650368999126,-310.8261036054233,0,0,0,0,0,0,0,0,0,0
16,16,16,1.13488,399.6260011899109,-12.884208555831124,-310.9059194878949,0,0,0,0,0,0,0,0,0,0
17,17,17,1.1349,399.7791468214363,-12.85570572261617,-310.9734613370219,0,0,0,0,0,0,0,0,0,0
18,18,18,1.13492,399.9299009437776,-12.891916431346257,-311.0287264863666,0,0,0,0,0,0,0,0,0,0
19,19,19,1.1349399999999998,400.08306547415816,-12.859195652673929,-311.07171275415624,0,0,0,0,0,0,0,0,0,0
20,20,20,1.13496,400.2337294251576,-12.890421697459818,-311.1024184433669,0,0,0,0,0,0,0,0,0,0
21,21,21,1.13498,400.3866760584491,-12.851851266643727,-311.1208423417895,0,0,0,0,0,0,0,0,0,0
22,22,22,1.135,400.5377621205442,-12.876468500228643,-311.12698372208087,0,0,0,0,0,0,0,0,0,0
23,23,23,1.13502,400.68853822966446,-12.897173577783912,-311.1208423417896,0,0,0,0,0,0,0,0,0,0
24,24,24,1.13504,400.83969358393006,-12.913567671612734,-311.1024184433668,0,0,0,0,0,0,0,0,0,0
25,25,25,1.13506,400.99276491474245,-12.8584197720987,-311.0717127541566,0,0,0,0,0,0,0,0,0,0
26,26,26,1.13508,401.1435659525429,-12.864926192814632,-311.0287264863671,0,0,0,0,0,0,0,0,0,0
27,27,27,1.1351,401.2943983459453,-12.865898419796396,-310.97346133702194,0,0,0,0,0,0,0,0,0,0
28,28,28,1.13512,401.4434837671032,-12.927817416816191,-310.9059194878956,0,0,0,0,0,0,0,0,0,0
29,29,29,1.13514,401.5947515589206,-12.91651729194639,-310.8261036054234,0,0,0,0,0,0,0,0,0,0
30,30,30,1.13516,401.74561807040783,-12.898450298506257,-310.7340168406011,0,0,0,0,0,0,0,0,0,0
31,31,31,1.13518,401.89670441581234,-12.873221505255838,-310.62966282885594,0,0,0,0,0,0,0,0,0,0
32,32,32,1.1352,402.0454118915018,-12.907407338059771,-310.51304568990446,0,0,0,0,0,0,0,0,0,0
33,33,33,1.13522,402.1964138527948,-12.86665964027596,-310.38417002759377,0,0,0,0,0,0,0,0,0,0
34,34,34,1.13524,402.34466621307786,-12.884567412767188,-310.243040929712,0,0,0,0,0,0,0,0,0,0
35,35,35,1.13526,402.4931791863492,-12.89375676146418,-310.08966396779675,0,0,0,0,0,0,0,0,0,0
36,36,36,1.1352799999999998,402.64174446418326,-12.893816171221362,-309.9240451969067,0,0,0,0,0,0,0,0,0,0
37,37,37,1.1353,402.79014428294704,-12.884339836333767,-309.7461911553857,0,0,0,0,0,0,0,0,0,0
38,38,38,1.13532,402.9381515635753,-12.864927917097152,-309.55610886461,0,0,0,0,0,0,0,0,0,0
39,39,39,1.13534,403.08553005723695,-12.835186792676682,-309.3538058286994,0,0,0,0,0,0,0,0,0,0
40,40,40,1.13536,403.232034496798,-12.794729310133034,-309.1392900342352,0,0,0,0,0,0,0,0,0,0
41,41,41,1.13538,403.377410753996,-12.743175029458593,-308.91256994992966,0,0,0,0,0,0,0,0,0,0
42,42,42,1.1354,403.52139600221705,-12.680150464477965,-308.67365452630764,0,0,0,0,0,0,0,0,0,0
43,43,43,1.13542,403.6637188847856,-12.60528931946964,-308.42255319533893,0,0,0,0,0,0,0,0,0,0
44,44,44,1.13544,403.80268433691583,-12.5855164980471,-308.15927587007184,0,0,0,0,0,0,0,0,0,0
45,45,45,1.13546,403.9409946820224,-12.553231117528998,-307.88383294424887,0,0,0,0,0,0,0,0,0,0
46,46,46,1.13548,404.0777181047144,-12.57537780584046,-307.5962352918804,0,0,0,0,0,0,0,0,0,0
47,47,47,1.1355,404.21474744722485,-12.584266041699127,-307.29649426683426,0,0,0,0,0,0,0,0,0,0
48,48,48,1.13552,404.35177258465416,-12.579488476901831,-306.98462170237053,0,0,0,0,0,0,0,0,0,0
49,49,49,1.13554,404.4884742263191,-12.560646170937838,-306.660629910678,0,0,0,0,0,0,0,0,0,0
50,50,50,1.13556,404.62369267953886,-12.594769501292072,-306.3245316824125,0,0,0,0,0,0,0,0,0,0
51,51,51,1.13558,404.7594710058148,-12.61407500282702,-305.97634028613857,0,0,0,0,0,0,0,0,0,0
52,52,52,1.1356,404.8954652935415,-12.61815124174682,-305.61606946787185,0,0,0,0,0,0,0,0,0,0
53,53,53,1.13562,405.03132245563216,-12.60659605464738,-305.2437334504812,0,0,0,0,0,0,0,0,0,0
54,54,54,1.13564,405.1650658650588,-12.646526316657887,-304.8593469331514,0,0,0,0,0,0,0,0,0,0
55,55,55,1.13566,405.29948048320176,-12.670087641728388,-304.46292509081104,0,0,0,0,0,0,0,0,0,0
56,56,56,1.13568,405.43418940157807,-12.676868404439908,-304.0544835735085,0,0,0,0,0,0,0,0,0,0
57,57,57,1.1357,405.5688066154094,-12.666467079736956,-303.6340385058229,0,0,0,0,0,0,0,0,0,0
58,58,58,1.1357199999999998,405.7029372593073,-12.638492482354948,-303.20160648620185,0,0,0,0,0,0,0,0,0,0
59,59,59,1.13574,405.8361778482464,-12.592564000247918,-302.7572045863172,0,0,0,0,0,0,0,0,0,0
60,60,60,1.13576,405.9681165236773,-12.528311821885932,-302.30085035040275,0,0,0,0,0,0,0,0,0,0
61,61,61,1.13578,406.0983333046386,-12.445377157295455,-301.83256179453434,0,0,0,0,0,0,0,0,0,0
62,62,62,1.1358,406.2264003437312,-12.343412452719324,-301.3523574059506,0,0,0,0,0,0,0,0,0,0
63,63,63,1.13582,406.3498835668794,-12.357498376675029,-300.86025614229,0,0,0,0,0,0,0,0,0,0
64,64,64,1.13584,406.47341560403487,-12.35193508149638,-300.3562774308767,0,0,0,0,0,0,0,0,0,0
65,65,65,1.13586,406.59655149623137,-12.326332967830767,-299.8404411679228,0,0,0,0,0,0,0,0,0,0
66,66,66,1.13588,406.7188378499257,-12.280314220824312,-299.31276771775595,0,0,0,0,0,0,0,0,0,0
67,67,67,1.1359,406.8382404316712,-12.281301927941827,-298.77327791203,0,0,0,0,0,0,0,0,0,0
68,68,68,1.13592,406.9573856478216,-12.261187644360708,-298.22199304886885,0,0,0,0,0,0,0,0,0,0
69,69,69,1.13594,407.0749770528788,-12.287422603071544,-297.658934892065,0,0,0,0,0,0,0,0,0,0
70,70,70,1.13596,407.19286303234514,-12.291825673807852,-297.0841256701855,0,0,0,0,0,0,0,0,0,0
71,71,71,1.13598,407.3105562672847,-12.274006257103132,-296.49758807570873,0,0,0,0,0,0,0,0,0,0
72,72,72,1.136,407.4275611251367,-12.233586512030744,-295.89934526414527,0,0,0,0,0,0,0,0,0,0
73,73,73,1.13602,407.543373947413,-12.170201569271711,-295.2894208530862,0,0,0,0,0,0,0,0,0,0
74,74,74,1.13604,407.6574833419261,-12.083499737077148,-294.66783892131383,0,0,0,0,0,0,0,0,0,0
75,75,75,1.1360599999999998,407.7674232386086,-12.109033090247232,-294.03462400781314,0,0,0,0,0,0,0,0,0,0
76,76,76,1.13608,407.8776170786468,-12.110621781996455,-293.38980111081867,0,0,0,0,0,0,0,0,0,0
77,77,77,1.1361,407.9875382057653,-12.087881763511165,-292.73339568684605,0,0,0,0,0,0,0,0,0,0
78,78,78,1.13612,408.0966519337948,-12.040442614072418,-292.0654336496395,0,0,0,0,0,0,0,0,0,0
79,79,79,1.13614,408.20441584922656,-11.967947744094968,-291.3859413692269,0,0,0,0,0,0,0,0,0,0
80,80,80,1.13616,408.3087444821716,-11.938089033455142,-290.69494567076293,0,0,0,0,0,0,0,0,0,0
81,81,81,1.13618,408.4113040589499,-11.950587228626182,-289.992473833606,0,0,0,0,0,0,0,0,0,0
82,82,82,1.1362,408.5138137395553,-11.937051058774616,-289.2785535901288,0,0,0,0,0,0,0,0,0,0
83,83,83,1.13622,408.6157094935502,-11.8971097527765,-288.5532131246736,0,0,0,0,0,0,0,0,0,0
84,84,84,1.13624,408.7164196832125,-11.83040696100766,-287.81648107245303,0,0,0,0,0,0,0,0,0,0
85,85,85,1.13626,408.8134642263997,-11.872841066690745,-287.06838651837376,0,0,0,0,0,0,0,0,0,0
86,86,86,1.13628,408.91108090046606,-11.887874615540987,-286.3089589959414,0,0,0,0,0,0,0,0,0,0
87,87,87,1.1363,409.0086842909069,-11.875126563674144,-285.53822848604733,0,0,0,0,0,0,0,0,0,0
88,88,88,1.13632,409.105681280299,-11.834230661531691,-284.75622541580543,0,0,0,0,0,0,0,0,0,0
89,89,89,1.13634,409.20147136700126,-11.764835643270024,-283.962980657372,0,0,0,0,0,0,0,0,0,0
90,90,90,1.13636,409.29544698766784,-11.666605408609833,-283.1585255266774,0,0,0,0,0,0,0,0,0,0
91,91,91,1.13638,409.3854934985483,-11.60743353530986,-282.3428917822475,0,0,0,0,0,0,0,0,0,0
92,92,92,1.1364,409.47316444111766,-11.587057893678589,-281.51611162389844,0,0,0,0,0,0,0,0,0,0
93,93,93,1.13642,409.56006516836624,-11.53693241573389,-280.6782176914879,0,0,0,0,0,0,0,0,0,0
94,94,94,1.13644,409.64429957096365,-11.52497436245944,-279.82924306364845,0,0,0,0,0,0,0,0,0,0
95,95,95,1.13646,409.7273685059831,-11.550890861777408,-278.9692212564296,0,0,0,0,0,0,0,0,0,0
96,96,96,1.13648,409.810622457768,-11.54606894084688,-278.0981862220351,0,0,0,0,0,0,0,0,0,0
97,97,97,1.1364999999999998,409.8934243229386,-11.510148374579472,-277.2161723474291,0,0,0,0,0,0,0,0,0,0
98,98,98,1.13652,409.97512997960257,-11.442784650104814,-276.32321445300084,0,0,0,0,0,0,0,0,0,0
99,99,99,1.13654,410.0550886154709,-11.343649134884055,-275.4193477912153,0,0,0,0,0,0,0,0,0,0
100,100,100,1.13656,410.13264305922365,-11.212429237285576,-274.5046080451641,0,0,0,0,0,0,0,0,0,0
101,101,101,1.13658,410.2049299494494,-11.185534350616324,-273.5790313272228,0,0,0,0,0,0,0,0,0,0
102,102,102,1.1366,410.275086120948,-11.194370829437004,-272.6426541775586,0,0,0,0,0,0,0,0,0,0
103,103,103,1.13662,410.3445155969851,-11.23863817512852,-271.69551356275497,0,0,0,0,0,0,0,0,0,0
104,104,104,1.13664,410.4144700603348,-11.249617648727847,-270.73764687429315,0,0,0,0,0,0,0,0,0,0
105,105,105,1.13666,410.4842800630721,-11.22695193735569,-269.7690919271012,0,0,0,0,0,0,0,0,0,0
106,106,106,1.13668,410.5532694267711,-11.170299837737462,-268.78988695808744,0,0,0,0,0,0,0,0,0,0
107,107,107,1.1367,410.62075556876624,-11.079336412896634,-267.80007062456053,0,0,0,0,0,0,0,0,0,0
108,108,108,1.13672,410.6860498313496,-10.953753141569209,-266.7996820028106,0,0,0,0,0,0,0,0,0,0
109,109,109,1.13674,410.747042217472,-10.861700340303484,-265.78876058645864,0,0,0,0,0,0,0,0,0,0
110,110,110,1.13676,410.8039146079319,-10.87138716675804,-264.7673462849144,0,0,0,0,0,0,0,0,0,0
111,111,111,1.13678,410.8612763402228,-10.845631699972731,-263.7354794219115,0,0,0,0,0,0,0,0,0,0
112,112,112,1.1368,410.91657670283007,-10.85255933889158,-262.6932007337592,0,0,0,0,0,0,0,0,0,0
113,113,113,1.13682,410.9716391088713,-10.823394203918191,-261.64055136785424,0,0,0,0,0,0,0,0,0,0
114,114,114,1.13684,411.0257605736248,-10.757808211580432,-260.57757288098173,0,0,0,0,0,0,0,0,0,0
115,115,115,1.13686,411.07823217672313,-10.65548976970987,-259.50430723770245,0,0,0,0,0,0,0,0,0,0
116,116,116,1.13688,411.1283393854908,-10.516143912202477,-258.4207968087257,0,0,0,0,0,0,0,0,0,0
117,117,117,1.1369,411.1727927600601,-10.545039407851611,-257.3270843691684,0,0,0,0,0,0,0,0,0,0
118,118,118,1.13692,411.2174183942837,-10.536377892162646,-256.2232130969446,0,0,0,0,0,0,0,0,0,0
119,119,119,1.1369399999999998,411.2603554042928,-10.558360139237116,-255.1092265709923,0,0,0,0,0,0,0,0,0,0
120,120,120,1.13696,411.3033286994314,-10.542152098976723,-253.9851687695817,0,0,0,0,0,0,0,0,0,0
121,121,121,1.13698,411.3456178045336,-10.487430343081522,-252.8510840686108,0,0,0,0,0,0,0,0,0,0
122,122,122,1.137,411.38649659653294,-10.393887917694858,-251.70701723978075,0,0,0,0,0,0,0,0,0,0
123,123,123,1.13702,411.4252336172482,-10.261234467969144,-250.553013448912,0,0,0,0,0,0,0,0,0,0
124,124,124,1.13704,411.4600028964495,-10.157760395747705,-249.38911825407712,0,0,0,0,0,0,0,0,0,0
125,125,125,1.13706,411.48995573426174,-10.22035850684798,-248.2153776038868,0,0,0,0,0,0,0,0,0,0
126,126,126,1.13708,411.520670556108,-10.243054819621024,-247.0318378356016,0,0,0,0,0,0,0,0,0,0
127,127,127,1.1371,411.5514186935423,-10.22552085357658,-245.8385456733341,0,0,0,0,0,0,0,0,0,0
128,128,128,1.13712,411.58146593032814,-10.167444364177,-244.63554822623723,0,0,0,0,0,0,0,0,0,0
129,129,129,1.13714,411.6100728007724,-10.068529461442925,-243.42289298656863,0,0,0,0,0,0,0,0,0,0
130,130,130,1.13716,411.6364948900416,-9.928496722494833,-242.20062782790268,0,0,0,0,0,0,0,0,0,0
131,131,131,1.13718,411.65893660317647,-9.815681048199073,-240.9688010031641,0,0,0,0,0,0,0,0,0,0
132,132,132,1.1372,411.67653794522175,-9.867044088522874,-239.72746114275537,0,0,0,0,0,0,0,0,0,0
133,133,133,1.13722,411.69466493522566,-9.876520349300192,-238.47665725267112,0,0,0,0,0,0,0,0,0,0
134,134,134,1.13724,411.71257853867695,-9.843798043399426,-237.21643871248463,0,0,0,0,0,0,0,0,0,0
135,135,135,1.13726,411.7295346629084,-9.768581415759078,-235.9468552734888,0,0,0,0,0,0,0,0,0,0
136,136,136,1.1372799999999998,411.74478444166806,-9.650590848535227,-234.6679570566526,0,0,0,0,0,0,0,0,0,0
137,137,137,1.1373,411.7575745213831,-9.48956296065077,-233.3797945506644,0,0,0,0,0,0,0,0,0,0
138,138,138,1.13732,411.7657515464156,-9.422484321737029,-232.08241861003253,0,0,0,0,0,0,0,0,0,0
139,139,139,1.13734,411.770472784784,-9.449110973390024,-230.77588045286743,0,0,0,0,0,0,0,0,0,0
140,140,140,1.13736,411.775269930756,-9.431943578092133,-229.46023165911728,0,0,0,0,0,0,0,0,0,0
141,141,141,1.13738,411.7793974148289,-9.370691291070749,-228.13552416830808,0,0,0,0,0,0,0,0,0,0
142,142,142,1.1374,411.78210514875553,-9.26507900623396,-226.8018102776473,0,0,0,0,0,0,0,0,0,0
143,143,143,1.13742,411.7826387950676,-9.114847447578404,-225.45914263986384,0,0,0,0,0,0,0,0,0,0
144,144,144,1.13744,411.7777010300816,-9.125609043544754,-224.10757426116456,0,0,0,0,0,0,0,0,0,0
145,145,145,1.13746,411.7719101337572,-9.159881857226402,-222.74715849917936,0,0,0,0,0,0,0,0,0,0
146,146,146,1.13748,411.7663079802601,-9.14876031313752,-221.3779490607685,0,0,0,0,0,0,0,0,0,0
147,147,147,1.1375,411.7601494744191,-9.091962472298588,-220.00000000000088,0,0,0,0,0,0,0,0,0,0
148,148,148,1.13752,411.7526853157429,-8.98922169528687,-218.61336571593367,0,0,0,0,0,0,0,0,0,0
149,149,149,1.13754,411.743162251004,-8.84028672477364,-217.2181009505015,0,0,0,0,0,0,0,0,0,0
150,150,150,1.13756,411.7295430387947,-8.782145747955827,-215.81426078639336,0,0,0,0,0,0,0,0,0,0
151,151,151,1.13758,313.47800749441706,-7.862558947775037,-214.40190064478983,0,0,0,0,0,1,0,0,0,1
152,152,152,1.1376,202.13588220015944,-7.11738170720248,-212.9810762832765,0,0,0,0,0,1,0,0,0,1
153,153,153,1.13762,196.24725522952485,-7.553154838422326,-211.5518437935536,0,0,0,0,0,1,0,0,0,1
154,154,154,1.13764,190.55174413481623,-8.134230693099703,-210.11425959925955,0,0,0,0,0,1,0,0,0,1
155,155,155,1.13766,185.0477497451168,-8.853920340661471,-208.6683804537828,0,0,0,0,0,1,0,0,0,1
156,156,156,1.13768,179.73352245385624,-9.705592579628966,-207.21426343793007,0,0,0,0,0,1,0,0,0,1
157,157,157,1.1377,174.60716856102738,-10.682678857684872,-205.75196595777768,0,0,0,0,0,1,0,0,0,1
158,158,158,1.1377199999999998,169.66665656743714,-11.778677981026402,-204.2815457423131,0,0,0,0,0,1,0,0,0,1
159,159,159,1.13774,164.90982341618454,-12.987160614683992,-202.8030608411953,0,0,0,0,0,1,0,0,0,1
160,160,160,1.13776,160.33438067673728,-14.30177357564196,-201.3165696225034,0,0,0,0,0,1,0,0,0,1
161,161,161,1.13778,155.93792066719905,-15.71624392074802,-199.82213077033845,0,0,0,0,0,1,0,0,0,1
162,162,162,1.1378,151.71792251053478,-17.224382831542897,-198.3198032826145,0,0,0,0,0,1,0,0,0,1
163,163,163,1.13782,147.67175812072907,-18.8200892982786,-196.80964646860755,0,0,0,0,0,1,0,0,0,1
164,164,164,1.13784,143.7966981150342,-20.497353605525223,-195.2917199467912,0,0,0,0,0,1,0,0,0,1
165,165,165,1.13786,140.08991764865675,-22.250260621891123,-193.76608364225072,0,0,0,0,0,1,0,0,0,1
166,166,166,1.13788,136.5485021684255,-24.07299289649965,-192.2327977844809,0,0,0,0,0,1,0,0,0,1
167,167,167,1.1379,133.16945308215307,-25.95983356497792,-190.69192290503764,0,0,0,0,0,1,0,0,0,1
168,168,168,1.13792,129.94969334061142,-27.905169067819745,-189.1435198349809,0,0,0,0,0,1,0,0,0,1
169,169,169,1.13794,126.88607292918964,-29.903491684084795,-187.5876497026408,0,0,0,0,0,1,0,0,0,1
170,170,170,1.13796,123.97537426651172,-31.949401883489408,-186.0243739310919,0,0,0,0,0,1,0,0,0,1
171,171,171,1.13798,121.21431750744628,-34.03761050003483,-184.4537542357708,0,0,0,0,0,1,0,0,0,1
172,172,172,1.138,118.59956574811994,-36.16294073039837,-182.8758526220821,0,0,0,0,0,1,0,0,0,1
173,173,173,1.13802,116.1277301307174,-38.32032996039265,-181.2907313828512,0,0,0,0,0,1,0,0,0,1
174,174,174,1.13804,113.79537484601389,-40.50483142286771,-179.69845309597915,0,0,0,0,0,1,0,0,0,1
175,175,175,1.1380599999999998,111.5990220317515,-42.71161569049404,-178.0990806218719,0,0,0,0,0,1,0,0,0,1
176,176,176,1.13808,109.53515656513308,-44.93597200693268,-176.49267710100173,0,0,0,0,0,1,0,0,0,1
177,177,177,1.1381,107.60023074786208,-47.173309459943525,-174.879305951458,0,0,0,0,0,1,0,0,0,1
178,178,178,1.13812,105.79066888231144,-49.419158000039296,-173.25903086634202,0,0,0,0,0,1,0,0,0,1
179,179,179,1.13814,104.10287173755611,-51.66916930833673,-171.6319158113691,0,0,0,0,0,1,0,0,0,1
180,180,180,1.1381599999999998,102.53322090415568,-53.91911751729282,-169.9980250222409,0,0,0,0,0,1,0,0,0,1
181,181,181,1.13818,101.07808303670936,-56.164899788053056,-168.35742300215327,0,0,0,0,0,1,0,0,0,1
182,182,182,1.1382,99.73381398335324,-58.402536748165055,-166.7101745192944,0,0,0,0,0,1,0,0,0,1
183,183,183,1.13822,98.49676280150668,-60.628172793439525,-165.05634460418418,0,0,0,0,0,1,0,0,0,1
184,184,184,1.13824,97.36327565930696,-62.838076257758765,-163.39599854722567,0,0,0,0,0,1,0,0,0,1
185,185,185,1.13826,96.32969962230052,-65.02863945465147,-161.72920189600825,0,0,0,0,0,1,0,0,0,1
186,186,186,1.13828,95.39238632509246,-67.19637859446273,-160.0560204528398,0,0,0,0,0,1,0,0,0,1
187,187,187,1.1383,94.54769552777032,-69.3379335809584,-158.3765202720437,0,0,0,0,0,1,0,0,0,1
188,188,188,1.13832,93.79199855704792,-71.45006769120621,-156.69076765739612,0,0,0,0,0,1,0,0,0,1
189,189,189,1.13834,93.12168163218426,-73.52966714257262,-154.99882915955422,0,0,0,0,0,1,0,0,0,1
190,190,190,1.13836,92.53314907584792,-75.5737405506795,-153.30077157332232,0,0,0,0,0,1,0,0,0,1
191,191,191,1.13838,92.02282641020724,-77.57941828214508,-151.596661935137,0,0,0,0,0,1,0,0,0,1
192,192,192,1.1384,91.58716333863129,-79.54395170593139,-149.88656752031363,0,0,0,0,0,1,0,0,0,1
193,193,193,1.13842,91.22263661349017,-81.46471234710617,-148.17055584043595,0,0,0,0,0,1,0,0,0,1
194,194,194,1.13844,90.92575279063873,-83.33919094680145,-146.44869464073787,0,0,0,0,0,1,0,0,0,1
195,195,195,1.13846,90.69305087126676,-85.16499643213793,-144.72105189730445,0,0,0,0,0,1,0,0,0,1
196,196,196,1.13848,90.52110483188704,-86.93985479985653,-142.9876958145755,0,0,0,0,0,1,0,0,0,1
197,197,197,1.1384999999999998,90.406526043322,-88.66160791737131,-141.24869482246572,0,0,0,0,0,1,0,0,0,1
198,198,198,1.13852,90.345965579634,-90.32821224492808,-139.50411757369358,0,0,0,0,0,1,0,0,0,1
199,199,199,1.13854,90.33611641802402,-91.93773748252148,-137.75403294126053,0,0,0,0,0,1,0,0,0,1
200,200,200,1.13856,90.37371553080472,-93.4883651451858,-135.99851001546375,0,0,0,0,0,1,0,0,0,1
201,201,201,1.1385748102827795,90.37371553080472,-93.4883651451858,-135.99851001546375,0,0,0,0,0,1,0,0,0,1
