,Unnamed: 0.1,Unnamed: 0,Time / s,Vo:Measured voltage,IL:Measured current,Vin:Measured voltage,short1:Output,short2:Output,short3:Output,short4:Output,open1:Output,open3:Output,open2:Output,open4:Output,OPEN,SHORT
0,0,0,1.1435474686135854,390.62429981837766,11.511314474263854,278.96922125642766,0,0,0,0,0,0,0,0,0,0
1,1,1,1.14356,390.7241460379382,11.577547975560089,279.82924306363884,0,0,0,0,0,0,0,0,0,0
2,2,2,1.14358,390.825659114129,11.66987542744196,280.678217691486,0,0,0,0,0,0,0,0,0,0
3,3,3,1.1436,390.9305618450836,11.722739061492842,281.5161116238891,0,0,0,0,0,0,0,0,0,0
4,4,4,1.14362,391.0372980339313,11.735669511138546,282.3428917822382,0,0,0,0,0,0,0,0,0,0
5,5,5,1.14364,391.1445441817932,11.773404425924564,283.15852552667565,0,0,0,0,0,0,0,0,0,0
6,6,6,1.14366,391.2528369596967,11.835550728930013,283.962980657363,0,0,0,0,0,0,0,0,0,0
7,7,7,1.14368,391.3653700324842,11.791279807672232,284.75622541581083,0,0,0,0,0,0,0,0,0,0
8,8,8,1.1437,391.477140807829,11.770537956750449,285.5382284860456,0,0,0,0,0,0,0,0,0,0
9,9,9,1.1437199999999998,391.5886659755952,11.772960083596804,286.3089589959328,0,0,0,0,0,0,0,0,0,0
10,10,10,1.14374,391.70045380600806,11.798167636508769,287.06838651837893,0,0,0,0,0,0,0,0,0,0
11,11,11,1.14376,391.8130038576385,11.845768829145422,287.8164810724514,0,0,0,0,0,0,0,0,0,0
12,12,12,1.14378,391.9268066905339,11.915358872086465,288.5532131246786,0,0,0,0,0,0,0,0,0,0
13,13,13,1.1438,392.0423435846636,12.006520211325515,289.2785535901273,0,0,0,0,0,0,0,0,0,0
14,14,14,1.14382,392.16008626381927,12.118822773565029,289.99247383361086,0,0,0,0,0,0,0,0,0,0
15,15,15,1.14384,392.2821727516059,12.121097003269217,290.69494567076777,0,0,0,0,0,0,0,0,0,0
16,16,16,1.14386,392.4044887248304,12.14358122860708,291.38594136921915,0,0,0,0,0,0,0,0,0,0
17,17,17,1.14388,392.5274828310898,12.185879510296427,292.0654336496441,0,0,0,0,0,0,0,0,0,0
18,18,18,1.1439,392.6543478293614,12.116733916066217,292.73339568683866,0,0,0,0,0,0,0,0,0,0
19,19,19,1.14392,392.77881521850486,12.131961065532144,293.38980111081725,0,0,0,0,0,0,0,0,0,0
20,20,20,1.14394,392.9047848608831,12.10030797237045,294.0346240078059,0,0,0,0,0,0,0,0,0,0
21,21,21,1.14396,393.02920118900886,12.152305883537595,294.6678389213068,0,0,0,0,0,0,0,0,0,0
22,22,22,1.14398,393.15594588397687,12.156595854388,295.28942085308483,0,0,0,0,0,0,0,0,0,0
23,23,23,1.144,393.2829368536122,12.178238967383445,295.8993452641385,0,0,0,0,0,0,0,0,0,0
24,24,24,1.14402,393.4105638001091,12.216833760395756,296.4975880757075,0,0,0,0,0,0,0,0,0,0
25,25,25,1.14404,393.5392070372154,12.271968384562523,297.08412567017893,0,0,0,0,0,0,0,0,0,0
26,26,26,1.14406,393.6692372606468,12.343220858123075,297.65893489205865,0,0,0,0,0,0,0,0,0,0
27,27,27,1.14408,393.8010153244132,12.430159325930024,298.2219930488676,0,0,0,0,0,0,0,0,0,0
28,28,28,1.1441,393.9361184372423,12.466702159052025,298.7732779120238,0,0,0,0,0,0,0,0,0,0
29,29,29,1.14412,394.0721751243021,12.518009587116673,299.31276771775475,0,0,0,0,0,0,0,0,0,0
30,30,30,1.14414,394.2099936020986,12.517976250515083,299.84044116791694,0,0,0,0,0,0,0,0,0,0
31,31,31,1.1441599999999998,394.3479179509837,12.53184210391544,300.35627743087093,0,0,0,0,0,0,0,0,0,0
32,32,32,1.14418,394.48806656084633,12.49347622714012,300.86025614228896,0,0,0,0,0,0,0,0,0,0
33,33,33,1.1442,394.62742396038766,12.46815111763911,301.3523574059452,0,0,0,0,0,0,0,0,0,0
34,34,34,1.14422,394.7644914187631,12.52126053778992,301.8325617945376,0,0,0,0,0,0,0,0,0,0
35,35,35,1.14424,394.9039143520784,12.52088352962031,302.3008503503976,0,0,0,0,0,0,0,0,0,0
36,36,36,1.14426,395.0452103191207,12.466540000823327,302.75720458632026,0,0,0,0,0,0,0,0,0,0
37,37,37,1.14428,395.1842915917785,12.489450461428843,303.20160648620094,0,0,0,0,0,0,0,0,0,0
38,38,38,1.1443,395.3232130679068,12.523414934503556,303.6340385058181,0,0,0,0,0,0,0,0,0,0
39,39,39,1.14432,395.464795035304,12.502147025359706,304.05448357351133,0,0,0,0,0,0,0,0,0,0
40,40,40,1.14434,395.60414459040766,12.556981774483797,304.4629250908102,0,0,0,0,0,0,0,0,0,0
41,41,41,1.14436,395.7466366953311,12.555718421415326,304.85934693315414,0,0,0,0,0,0,0,0,0,0
42,42,42,1.14438,395.8891545667513,12.563811112718485,305.2437334504804,0,0,0,0,0,0,0,0,0,0
43,43,43,1.1444,396.0319117654204,12.580854293825851,305.61606946787106,0,0,0,0,0,0,0,0,0,0
44,44,44,1.14442,396.17511224163286,12.606436585243992,305.97634028614107,0,0,0,0,0,0,0,0,0,0
45,45,45,1.14444,396.31895020605697,12.640141047196536,306.3245316824087,0,0,0,0,0,0,0,0,0,0
46,46,46,1.14446,396.46361000682,12.681545447501565,306.6606299106802,0,0,0,0,0,0,0,0,0,0
47,47,47,1.14448,396.6092660129386,12.730222532519896,306.9846217023669,0,0,0,0,0,0,0,0,0,0
48,48,48,1.1445,396.7560825041357,12.785740301010584,307.29649426683085,0,0,0,0,0,0,0,0,0,0
49,49,49,1.14452,396.9042135671276,12.847662280727588,307.59623529187974,0,0,0,0,0,0,0,0,0,0
50,50,50,1.14454,397.0538029984312,12.915547807589927,307.88383294424574,0,0,0,0,0,0,0,0,0,0
51,51,51,1.14456,397.20498421374936,12.988952307256724,308.1592758700712,0,0,0,0,0,0,0,0,0,0
52,52,52,1.14458,397.35964776760665,12.935011644590436,308.4225531953361,0,0,0,0,0,0,0,0,0,0
53,53,53,1.1445999999999998,397.512550873164,12.951875123103004,308.67365452630486,0,0,0,0,0,0,0,0,0,0
54,54,54,1.14462,397.6663248833876,12.9066920425658,308.91256994992915,0,0,0,0,0,0,0,0,0,0
55,55,55,1.14464,397.81776170570765,12.931575542685785,309.1392900342327,0,0,0,0,0,0,0,0,0,0
56,56,56,1.14466,397.9710252086176,12.893579715678458,309.35380582869897,0,0,0,0,0,0,0,0,0,0
57,57,57,1.14468,398.1221141522525,12.924898247009772,309.5561088646078,0,0,0,0,0,0,0,0,0,0
58,58,58,1.1447,398.27517057315134,12.89247923853079,309.7461911553853,0,0,0,0,0,0,0,0,0,0
59,59,59,1.14472,398.4261751048824,12.928613929211398,309.9240451969048,0,0,0,0,0,0,0,0,0,0
60,60,60,1.14474,398.5792511510856,12.900145669350572,310.08966396779493,0,0,0,0,0,0,0,0,0,0
61,61,61,1.14476,398.7316125735495,12.873025418668844,310.24304092971164,0,0,0,0,0,0,0,0,0,0
62,62,62,1.14478,398.88282028563367,12.913323343180378,310.3841700275923,0,0,0,0,0,0,0,0,0,0
63,63,63,1.1448,399.0353966075522,12.887715056885568,310.51304568990525,0,0,0,0,0,0,0,0,0,0
64,64,64,1.14482,399.186060041491,12.928756571846623,310.6296628288547,0,0,0,0,0,0,0,0,0,0
65,65,65,1.14484,399.33888567051946,12.90303406427263,310.7340168406,0,0,0,0,0,0,0,0,0,0
66,66,66,1.14486,399.4897842527283,12.943188101228689,310.82610360542395,0,0,0,0,0,0,0,0,0,0
67,67,67,1.14488,399.64281605935696,12.915704045970614,310.9059194878954,0,0,0,0,0,0,0,0,0,0
68,68,68,1.1449,399.79512306756936,12.886708537641107,310.97346133702234,0,0,0,0,0,0,0,0,0,0
69,69,69,1.14492,399.94620052994895,12.92244929517958,311.02872648636696,0,0,0,0,0,0,0,0,0,0
70,70,70,1.1449399999999998,400.0972486968716,12.955916183606073,311.07171275415647,0,0,0,0,0,0,0,0,0,0
71,71,71,1.14496,400.25025417203216,12.920005790019092,311.1024184433669,0,0,0,0,0,0,0,0,0,0
72,72,72,1.14498,400.4010630688402,12.947668175811913,311.1208423417896,0,0,0,0,0,0,0,0,0,0
73,73,73,1.145,400.5536813311584,12.905092391628134,311.12698372208087,0,0,0,0,0,0,0,0,0,0
74,74,74,1.14502,400.70472516241074,12.925329871253709,311.1208423417896,0,0,0,0,0,0,0,0,0,0
75,75,75,1.14504,400.8561371636658,12.941249631546224,311.1024184433668,0,0,0,0,0,0,0,0,0,0
76,76,76,1.14506,401.0070254573201,12.95243836814851,311.07171275415664,0,0,0,0,0,0,0,0,0,0
77,77,77,1.14508,401.15806010388087,12.958498159134065,311.0287264863672,0,0,0,0,0,0,0,0,0,0
78,78,78,1.1451,401.309115836582,12.95901789714712,310.97346133702206,0,0,0,0,0,0,0,0,0,0
79,79,79,1.14512,401.4600578231772,12.953589929979278,310.9059194878957,0,0,0,0,0,0,0,0,0,0
80,80,80,1.14514,401.6107417537678,12.941810322444354,310.8261036054235,0,0,0,0,0,0,0,0,0,0
81,81,81,1.14516,401.761798663199,12.923275204951167,310.73401684060127,0,0,0,0,0,0,0,0,0,0
82,82,82,1.14518,401.9110228459308,12.964541383897268,310.62966282885617,0,0,0,0,0,0,0,0,0,0
83,83,83,1.1452,402.0615447835958,12.931290926267302,310.5130456899047,0,0,0,0,0,0,0,0,0,0
84,84,84,1.14522,402.2106641322061,12.95708977078322,310.384170027594,0,0,0,0,0,0,0,0,0,0
85,85,85,1.14524,402.3607086727546,12.907513466916557,310.2430409297122,0,0,0,0,0,0,0,0,0,0
86,86,86,1.14526,402.50896301729216,12.916237981979684,310.08966396779704,0,0,0,0,0,0,0,0,0,0
87,87,87,1.14528,402.6572594707399,12.915839390372383,309.924045196907,0,0,0,0,0,0,0,0,0,0
88,88,88,1.1453,402.8053804666724,12.905912147125497,309.74619115538604,0,0,0,0,0,0,0,0,0,0
89,89,89,1.14532,402.95309912916207,12.886056668112603,309.5561088646103,0,0,0,0,0,0,0,0,0,0
90,90,90,1.14534,403.100179418322,12.855879582768315,309.35380582869976,0,0,0,0,0,0,0,0,0,0
91,91,91,1.14536,403.24637628163447,12.814993982967648,309.1392900342356,0,0,0,0,0,0,0,0,0,0
92,92,92,1.1453799999999998,403.3914358109986,12.763019667918442,308.91256994993216,0,0,0,0,0,0,0,0,0,0
93,93,93,1.1454,403.5350954053664,12.69958338492175,308.67365452630804,0,0,0,0,0,0,0,0,0,0
94,94,94,1.14542,403.6770839388983,12.624319065856932,308.42255319533933,0,0,0,0,0,0,0,0,0,0
95,95,95,1.14544,403.8153145911216,12.604151072696004,308.15927587006973,0,0,0,0,0,0,0,0,0,0
96,96,96,1.14546,403.9518475894824,12.638799109622488,307.8838329442469,0,0,0,0,0,0,0,0,0,0
97,97,97,1.14548,404.088980620948,12.66059382275824,307.59623529187826,0,0,0,0,0,0,0,0,0,0
98,98,98,1.1455,404.22641274762486,12.669119880166615,307.29649426683204,0,0,0,0,0,0,0,0,0,0
99,99,99,1.14552,404.3638336756299,12.663970111939795,306.9846217023682,0,0,0,0,0,0,0,0,0,0
100,100,100,1.14554,404.5009239494502,12.644745760076544,306.6606299106785,0,0,0,0,0,0,0,0,0,0
101,101,101,1.14556,404.6361240453624,12.678480318131855,306.32453168241,0,0,0,0,0,0,0,0,0,0
102,102,102,1.14558,404.7718773636419,12.697397696952573,305.9763402861392,0,0,0,0,0,0,0,0,0,0
103,103,103,1.1456,404.907840088347,12.701086631427316,305.6160694678725,0,0,0,0,0,0,0,0,0,0
104,104,104,1.14562,405.04365923175897,12.689145124369087,305.24373345048184,0,0,0,0,0,0,0,0,0,0
105,105,105,1.14564,405.1797432624642,12.661177343764704,304.8593469331521,0,0,0,0,0,0,0,0,0,0
106,106,106,1.14566,405.3137134163836,12.684321019946331,304.4629250908118,0,0,0,0,0,0,0,0,0,0
107,107,107,1.14568,405.447969764422,12.69069545261743,304.05448357350923,0,0,0,0,0,0,0,0,0,0
108,108,108,1.1457,405.58212659465886,12.679899316888276,303.63403850582364,0,0,0,0,0,0,0,0,0,0
109,109,109,1.1457199999999998,405.71578933887554,12.651541620266755,303.20160648620265,0,0,0,0,0,0,0,0,0,0
110,110,110,1.14574,405.84855481335217,12.605241935981054,302.757204586318,0,0,0,0,0,0,0,0,0,0
111,111,111,1.14576,405.98001146481135,12.540630630176166,302.30085035040355,0,0,0,0,0,0,0,0,0,0
112,112,112,1.14578,406.10973962135296,12.457349082858167,301.83256179453514,0,0,0,0,0,0,0,0,0,0
113,113,113,1.1458,406.2355373868396,12.422736662959553,301.35235740595147,0,0,0,0,0,0,0,0,0,0
114,114,114,1.1458199999999998,406.3592745240666,12.436522349735258,300.8602561422954,0,0,0,0,0,0,0,0,0,0
115,115,115,1.14584,406.4830561668557,12.430652735497864,300.3562774308776,0,0,0,0,0,0,0,0,0,0
116,116,116,1.14586,406.6064372827056,12.404738331048032,299.8404411679237,0,0,0,0,0,0,0,0,0,0
117,117,117,1.14588,406.72896440694944,12.35840143345908,299.31276771775686,0,0,0,0,0,0,0,0,0,0
118,118,118,1.1459,406.850175912666,12.291276345310752,298.7732779120309,0,0,0,0,0,0,0,0,0,0
119,119,119,1.14592,406.9679562509038,12.338632564229687,298.22199304886976,0,0,0,0,0,0,0,0,0,0
120,120,120,1.14594,407.0865039441579,12.36453681904488,297.658934892066,0,0,0,0,0,0,0,0,0,0
121,121,121,1.14596,407.2053397902932,12.368586126433192,297.0841256701865,0,0,0,0,0,0,0,0,0,0
122,122,122,1.14598,407.3239759942026,12.350390053164997,296.4975880757044,0,0,0,0,0,0,0,0,0,0
123,123,123,1.146,407.4419164510844,12.309570936072337,295.89934526414635,0,0,0,0,0,0,0,0,0,0
124,124,124,1.14602,407.5586570343809,12.2457640950172,295.2894208530817,0,0,0,0,0,0,0,0,0,0
125,125,125,1.14604,407.6736858882607,12.158618038748251,294.6678389213092,0,0,0,0,0,0,0,0,0,0
126,126,126,1.14606,407.7837706652719,12.183689463901628,294.0346240078084,0,0,0,0,0,0,0,0,0,0
127,127,127,1.14608,407.8941025200246,12.1848130091232,293.3898011108139,0,0,0,0,0,0,0,0,0,0
128,128,128,1.1461,408.0041547890304,12.16160479318244,292.7333956868412,0,0,0,0,0,0,0,0,0,0
129,129,129,1.14612,408.11339278243736,12.11369456305744,292.0654336496407,0,0,0,0,0,0,0,0,0,0
130,130,130,1.14614,408.2212740865822,12.040725896889152,291.3859413692219,0,0,0,0,0,0,0,0,0,0
131,131,131,1.1461599999999998,408.3260695835887,12.01039607860148,290.6949456707705,0,0,0,0,0,0,0,0,0,0
132,132,132,1.14618,408.4294441462442,12.022413398668002,289.9924738336072,0,0,0,0,0,0,0,0,0,0
133,133,133,1.1462,408.532759818429,12.008377347817945,289.27855359013006,0,0,0,0,0,0,0,0,0,0
134,134,134,1.14622,408.6354521954282,11.967917376143893,288.5532131246748,0,0,0,0,0,0,0,0,0,0
135,135,135,1.14624,408.7369492701631,11.900677364013694,287.81648107245434,0,0,0,0,0,0,0,0,0,0
136,136,136,1.14626,408.83499013065006,11.874436859248355,287.06838651837506,0,0,0,0,0,0,0,0,0,0
137,137,137,1.14628,408.931183710966,11.88892131088387,286.3089589959427,0,0,0,0,0,0,0,0,0,0
138,138,138,1.1463,409.02735719537264,11.875657662359767,285.5382284860487,0,0,0,0,0,0,0,0,0,0
139,139,139,1.14632,409.1229182381257,11.834279813099151,284.7562254158068,0,0,0,0,0,0,0,0,0,0
140,140,140,1.14634,409.21726711178326,11.764436628188282,283.9629806573733,0,0,0,0,0,0,0,0,0,0
141,141,141,1.14636,409.30979702933286,11.665792120173313,283.15852552667883,0,0,0,0,0,0,0,0,0,0
142,142,142,1.14638,409.3987511071285,11.606244719879651,282.3428917822489,0,0,0,0,0,0,0,0,0,0
143,143,143,1.1464,409.4856820250753,11.585519694993485,281.5161116238999,0,0,0,0,0,0,0,0,0,0
144,144,144,1.14642,409.5702021236261,11.603306194157067,280.6782176914893,0,0,0,0,0,0,0,0,0,0
145,145,145,1.14644,409.6547514718576,11.591046562598136,279.82924306365,0,0,0,0,0,0,0,0,0,0
146,146,146,1.14646,409.73776929423167,11.616657666016016,278.96922125643107,0,0,0,0,0,0,0,0,0,0
147,147,147,1.14648,409.820970322389,11.61153174383784,278.09818622203665,0,0,0,0,0,0,0,0,0,0
148,148,148,1.1465,409.90371753832096,11.575308613239892,277.2161723474306,0,0,0,0,0,0,0,0,0,0
149,149,149,1.14652,409.9853669061546,11.507643801667172,276.3232144530024,0,0,0,0,0,0,0,0,0,0
150,150,150,1.14654,410.06526770021793,11.408208714933156,275.4193477912168,0,0,0,0,0,0,0,0,0,0
151,151,151,1.14656,410.1427628363664,11.276690797782235,274.50460804515734,0,0,0,1,0,0,0,0,0,1
152,152,152,1.14658,410.2156617233471,11.249504202391728,273.5790313272244,0,0,0,1,0,0,0,0,0,1
153,153,153,1.1465999999999998,410.2867611565976,11.258038746310318,272.6426541775687,0,0,0,1,0,0,0,0,0,1
154,154,154,1.14662,410.35608815178,11.301982631416674,271.695513562748,0,0,0,1,0,0,0,0,0,1
155,155,155,1.14664,410.4259386169143,11.312641153912368,270.7376468742861,0,0,0,1,0,0,0,0,0,1
156,156,156,1.14666,410.4956432092203,11.289657035129704,269.76909192709405,0,0,0,1,0,0,0,0,0,1
157,157,157,1.14668,410.5645258558473,11.232689103681254,268.7898869580802,0,0,0,1,0,0,0,0,0,1
158,158,158,1.1467,410.6319040800824,11.141412452144223,267.8000706245623,0,0,0,1,0,0,0,0,0,1
159,159,159,1.14672,410.6970893305021,11.015518586467588,266.79968200281235,0,0,0,1,0,0,0,0,0,1
160,160,160,1.14674,410.758298366556,10.923162293331163,265.78876058645113,0,0,0,1,0,0,0,0,0,1
161,161,161,1.14676,410.8153673158768,10.932541397273647,264.76734628491613,0,0,0,1,0,0,0,0,0,1
162,162,162,1.14678,410.8713884030752,10.974940022259531,263.73547942191334,0,0,0,1,0,0,0,0,0,1
163,163,163,1.1468,410.92786750964825,10.981565404631784,262.69320073376105,0,0,0,1,0,0,0,0,0,1
164,164,164,1.14682,410.9841074774024,10.95207313713978,261.64055136785606,0,0,0,1,0,0,0,0,0,1
165,165,165,1.14684,411.0394048922621,10.886135171292612,260.57757288098355,0,0,0,1,0,0,0,0,0,1
166,166,166,1.14686,411.093050405225,10.78343995904726,259.50430723770427,0,0,0,1,0,0,0,0,0,1
167,167,167,1.14688,411.1443290558722,10.643692587550843,258.4207968087276,0,0,0,1,0,0,0,0,0,1
168,168,168,1.1469,411.18999145541846,10.603650275492534,257.3270843691702,0,0,0,1,0,0,0,0,0,1
169,169,169,1.14692,411.2341035505357,10.594566930480566,256.2232130969465,0,0,0,1,0,0,0,0,0,1
170,170,170,1.1469399999999998,411.2768404073376,10.616142581575136,255.10922657099425,0,0,0,1,0,0,0,0,0,1
171,171,171,1.14696,411.31961175624497,10.599532386288924,253.98516876958368,0,0,0,1,0,0,0,0,0,1
172,172,172,1.14698,411.3616972572378,10.544412953533335,252.8510840686127,0,0,0,1,0,0,0,0,0,1
173,173,173,1.147,411.4023709227944,10.45047736385752,251.7070172397827,0,0,0,1,0,0,0,0,0,1
174,174,174,1.14702,411.44090143061527,10.317435294007064,250.5530134489139,0,0,0,1,0,0,0,0,0,1
175,175,175,1.1470399999999998,411.47410031209085,10.28214423842408,249.38911825408968,0,0,0,1,0,0,0,0,0,1
176,176,176,1.14706,411.5054799471519,10.275807010528649,248.21537760388884,0,0,0,1,0,0,0,0,0,1
177,177,177,1.14708,411.53595172067054,10.298133639534097,247.0318378356036,0,0,0,1,0,0,0,0,0,1
178,178,178,1.1471,411.5664563052273,10.280235151385234,245.83854567333609,0,0,0,1,0,0,0,0,0,1
179,179,179,1.14712,411.596259627766,10.221799311542886,244.63554822623928,0,0,0,1,0,0,0,0,0,1
180,180,180,1.14714,411.6246223656362,10.122530237158562,243.4228929865597,0,0,0,1,0,0,0,0,0,1
181,181,181,1.14716,411.6508002468559,9.982148509619645,242.2006278278937,0,0,0,1,0,0,0,0,0,1
182,182,182,1.14718,411.67268511709307,9.86898889211358,240.96880100316616,0,0,0,1,0,0,0,0,0,1
183,183,183,1.1472,411.6900107024766,9.920029292067785,239.72746114274625,0,0,0,1,0,0,0,0,0,1
184,184,184,1.14722,411.7078627868885,9.929188535459602,238.476657252662,0,0,0,1,0,0,0,0,0,1
185,185,185,1.14724,411.7255024817513,9.8961548184435,237.2164387124753,0,0,0,1,0,0,0,0,0,1
186,186,186,1.14726,411.7421858397119,9.82063236642674,235.94685527347943,0,0,0,1,0,0,0,0,0,1
187,187,187,1.14728,411.75716413915205,9.702341539229751,234.6679570566432,0,0,0,1,0,0,0,0,0,1
188,188,188,1.1473,411.7696841704063,9.541018930649257,233.37979455066656,0,0,0,1,0,0,0,0,0,1
189,189,189,1.14732,411.7760154246458,9.542271434176545,232.082418610023,0,0,0,1,0,0,0,0,0,1
190,190,190,1.14734,411.7816040978458,9.568631421016766,230.7758804528697,0,0,0,1,0,0,0,0,0,1
191,191,191,1.14736,411.787270384467,9.551181456483954,229.4602316591196,0,0,0,1,0,0,0,0,0,1
192,192,192,1.1473799999999998,411.79226849008825,9.489630670233732,228.1355241683224,0,0,0,1,0,0,0,0,0,1
193,193,193,1.1474,411.7958481009628,9.38370393480525,226.80181027764968,0,0,0,1,0,0,0,0,0,1
194,194,194,1.14742,411.79725465361616,9.233141957038436,225.45914263986617,0,0,0,1,0,0,0,0,0,1
195,195,195,1.14744,411.7938033738309,9.174943599497883,224.1075742611669,0,0,0,1,0,0,0,0,0,1
196,196,196,1.14746,411.7876928208127,9.20887499885306,222.7471584991817,0,0,0,1,0,0,0,0,0,1
197,197,197,1.14748,411.7817725586568,9.19741810141264,221.3779490607709,0,0,0,1,0,0,0,0,0,1
198,198,198,1.1475,411.77529763471466,9.140290939858462,220.0000000000033,0,0,0,1,0,0,0,0,0,1
199,199,199,1.14752,411.767518890202,9.037226843870538,218.61336571593608,0,0,0,1,0,0,0,0,0,1
