,Unnamed: 0.1,Unnamed: 0,Time / s,Vo:Measured voltage,IL:Measured current,Vin:Measured voltage,short1:Output,short2:Output,short3:Output,short4:Output,open1:Output,open3:Output,open2:Output,open4:Output,OPEN,SHORT
0,0,0,1.128788827603327,407.68969553417145,4.791347976314223,116.34879971631226,0,0,0,0,0,0,0,0,0,0
1,1,1,1.1288,407.576947727325,4.697812376607189,114.53348171082033,0,0,0,0,0,0,0,0,0,0
2,2,2,1.12882,407.462257891806,4.680626847605426,112.71364211959958,0,0,0,0,0,0,0,0,0,0
3,3,3,1.1288399999999998,407.3472153445584,4.603788708728721,110.8893527867847,0,0,0,0,0,0,0,0,0,0
4,4,4,1.12886,407.2313136334504,4.467170822108204,109.06068573217824,0,0,0,0,0,0,0,0,0,0
5,5,5,1.12888,407.11335442206814,4.406351942823604,107.22771314845744,0,0,0,0,0,0,0,0,0,0
6,6,6,1.1289,406.9946979503793,4.285449814964891,105.39050739820816,0,0,0,0,0,0,0,0,0,0
7,7,7,1.12892,406.87404816948776,4.2399653204217325,103.5491410112009,0,0,0,0,0,0,0,0,0,0
8,8,8,1.12894,406.7523825029568,4.201887823692922,101.70368668139436,0,0,0,0,0,0,0,0,0,0
9,9,9,1.12896,406.6300276456013,4.171051539650356,99.85421726419898,0,0,0,0,0,0,0,0,0,0
10,10,10,1.12898,406.5072569991997,4.079536773434701,98.00080577348382,0,0,0,0,0,0,0,0,0,0
11,11,11,1.129,406.3836107059903,3.927233905799648,96.1435253787442,0,0,0,0,0,0,0,0,0,0
12,12,12,1.12902,406.25790612300256,3.8494529628190697,94.28244940226352,0,0,0,0,0,0,0,0,0,0
13,13,13,1.12904,406.1308475983873,3.845982210866648,92.417651316101,0,0,0,0,0,0,0,0,0,0
14,14,14,1.12906,406.00360078492304,3.781273887220183,90.54920473932576,0,0,0,0,0,0,0,0,0,0
15,15,15,1.12908,405.87573867212575,3.655226415517935,88.67718343499254,0,0,0,0,0,0,0,0,0,0
16,16,16,1.1291,405.74638995342906,3.5353641426365305,86.80166130728,0,0,0,0,0,0,0,0,0,0
17,17,17,1.12912,405.6152799036864,3.5567426905119843,84.92271239862427,0,0,0,0,0,0,0,0,0,0
18,18,18,1.12914,405.4841600745909,3.5163536585127293,83.04041088665997,0,0,0,0,0,0,0,0,0,0
19,19,19,1.12916,405.3526371815132,3.4141042539261552,81.15483108151292,0,0,0,0,0,0,0,0,0,0
20,20,20,1.12918,405.22031751506256,3.2499069414462127,79.2660474225771,0,0,0,0,0,0,0,0,0,0
21,21,21,1.1292,405.0858613899141,3.226215265228135,77.37413447578001,0,0,0,0,0,0,0,0,0,0
22,22,22,1.12922,404.9509643077122,3.2077898110047585,75.47916693067381,0,0,0,0,0,0,0,0,0,0
23,23,23,1.12924,404.81583374142,3.127017237977209,73.58121959728102,0,0,0,0,0,0,0,0,0,0
24,24,24,1.12926,404.68011065189415,2.9838189283864915,71.68036740334696,0,0,0,0,0,0,0,0,0,0
25,25,25,1.1292799999999998,404.5431149293959,2.845542271463408,69.77668539124429,0,0,0,0,0,0,0,0,0,0
26,26,26,1.1293,404.4047493892626,2.7794558756511933,67.87024871506195,0,0,0,0,0,0,0,0,0,0
27,27,27,1.12932,404.2657537161909,2.71798942501893,65.96113263769008,0,0,0,0,0,0,0,0,0,0
28,28,28,1.12934,404.1263330439217,2.5936565972306425,64.04941252772794,0,0,0,0,0,0,0,0,0,0
29,29,29,1.12936,403.98588606877473,2.47372138764652,62.135163856646656,0,0,0,0,0,0,0,0,0,0
30,30,30,1.12938,403.8443323528497,2.425366242896367,60.21846219567144,0,0,0,0,0,0,0,0,0,0
31,31,31,1.1294,403.7023161921353,2.381119831043053,58.2993832129366,0,0,0,0,0,0,0,0,0,0
32,32,32,1.12942,403.5600096966497,2.2735977697805865,56.37800267037706,0,0,0,0,0,0,0,0,0,0
33,33,33,1.12944,403.416766767981,2.237215957198896,54.45439642078932,0,0,0,0,0,0,0,0,0,0
34,34,34,1.12946,403.2732891807798,2.1373663537119607,52.528640404889146,0,0,0,0,0,0,0,0,0,0
35,35,35,1.12948,403.12905934364176,2.0411846215577327,50.60081064819178,0,0,0,0,0,0,0,0,0,0
36,36,36,1.1295,402.98425213601377,1.948560096749668,48.67098325814996,0,0,0,0,0,0,0,0,0,0
37,37,37,1.12952,402.83870147770085,1.9265194048220813,46.739234421027184,0,0,0,0,0,0,0,0,0,0
38,38,38,1.12954,402.6930097953018,1.8406543696614408,44.805640398942366,0,0,0,0,0,0,0,0,0,0
39,39,39,1.12956,402.5469450229167,1.6909245132087052,42.87027752691165,0,0,0,0,0,0,0,0,0,0
40,40,40,1.12958,402.3998137138748,1.6784913271289894,40.933222209712326,0,0,0,0,0,0,0,0,0,0
41,41,41,1.1296,402.2525076552968,1.6690341047697976,38.99455091900659,0,0,0,0,0,0,0,0,0,0
42,42,42,1.1296199999999998,402.1051315647943,1.5954321893444616,37.05434019019995,0,0,0,0,0,0,0,0,0,0
43,43,43,1.12964,401.957491081149,1.457655348091235,35.11266661947223,0,0,0,0,0,0,0,0,0,0
44,44,44,1.12966,401.8092425172858,1.322643959226384,33.16960686080646,0,0,0,0,0,0,0,0,0,0
45,45,45,1.12968,401.6602931816735,1.3241945872638752,31.225237622839707,0,0,0,0,0,0,0,0,0,0
46,46,46,1.1297,401.51132593707473,1.26131874687292,29.27963566597537,0,0,0,0,0,0,0,0,0,0
47,47,47,1.12972,401.3621846098149,1.1339966440005598,27.33287779919448,0,0,0,0,0,0,0,0,0,0
48,48,48,1.12974,401.2125998633923,1.009079808977163,25.385040877234683,0,0,0,0,0,0,0,0,0,0
49,49,49,1.12976,401.0625697905194,0.9533298565292156,23.43620179734485,0,0,0,0,0,0,0,0,0,0
50,50,50,1.12978,400.9123762594396,0.8997759732374003,21.48643749628436,0,0,0,0,0,0,0,0,0,0
51,51,51,1.1298,400.7620834672399,0.7815429797004191,19.535824947497463,0,0,0,0,0,0,0,0,0,0
52,52,52,1.12982,400.6114664650372,0.7321635249939783,17.584441157774677,0,0,0,0,0,0,0,0,0,0
53,53,53,1.12984,400.4607823851436,0.618003124746842,15.632363164442026,0,0,0,0,0,0,0,0,0,0
54,54,54,1.12986,400.3098501693524,0.5724992799262357,13.679668032178542,0,0,0,0,0,0,0,0,0,0
55,55,55,1.12988,400.1588806566528,0.4621225845244749,11.72643285002682,0,0,0,0,0,0,0,0,0,0
56,56,56,1.1299,400.0077413621127,0.4202155732130543,9.772734728402725,0,0,0,0,0,0,0,0,0,0
57,57,57,1.12992,399.8565915469982,0.3133538370925825,7.818650795927472,0,0,0,0,0,0,0,0,0,0
58,58,58,1.12994,399.70535315985046,0.2081649277634491,5.864258196524153,0,0,0,0,0,0,0,0,0,0
59,59,59,1.12996,399.55406114543325,0.1711839455840179,3.909634086248455,0,0,0,0,0,0,0,0,0,0
60,60,60,1.12998,399.40279198421854,0.1357138778726023,1.9548556302957127,0,0,0,0,0,0,0,0,0,0
61,61,61,1.13,399.2515594543058,0.0351558888291028,7.621568784343005e-12,0,0,0,0,0,0,0,0,0,0
62,62,62,1.13002,399.1003564417412,0.0025667576142692,-1.954855630298156,0,0,0,0,0,0,0,0,0,0
63,63,63,1.13004,398.9492106924823,-0.0951617580196217,-3.9096340862332126,0,0,0,0,0,0,0,0,0,0
64,64,64,1.1300599999999998,398.7981420840272,-0.1250664373250865,-5.864258196508913,0,0,0,0,0,0,0,0,0,0
65,65,65,1.13008,398.6471447378244,-0.220151276937917,-7.818650795929916,0,0,0,0,0,0,0,0,0,0
66,66,66,1.1301,398.4962383705844,-0.38038574234581,-9.772734728387489,0,0,0,0,0,0,0,0,0,0
67,67,67,1.13012,398.3455292828253,-0.5393467618923175,-11.726432850029262,0,0,0,0,0,0,0,0,0,0
68,68,68,1.13014,398.1951360979312,-0.5643343828176621,-13.679668032163312,0,0,0,0,0,0,0,0,0,0
69,69,69,1.13016,398.0448474477236,-0.654552724644641,-15.632363164444463,0,0,0,0,0,0,0,0,0,0
70,70,70,1.13018,397.8948395967272,-0.7436467497355423,-17.584441157777114,0,0,0,0,0,0,0,0,0,0
71,71,71,1.1302,397.7450999037107,-0.8316429984184298,-19.535824947482247,0,0,0,0,0,0,0,0,0,0
72,72,72,1.13022,397.59565553939694,-0.9185673005000063,-21.48643749628679,0,0,0,0,0,0,0,0,0,0
73,73,73,1.13024,397.4464759888788,-1.0044405931381897,-23.436201797312016,0,0,0,0,0,0,0,0,0,0
74,74,74,1.13026,397.29779180312346,-1.023070509291953,-25.38504087723712,0,0,0,0,0,0,0,0,0,0
75,75,75,1.13028,397.14925708948135,-1.1069264225681046,-27.33287779919691,0,0,0,0,0,0,0,0,0,0
76,76,76,1.1303,397.0009903114647,-1.255952799680889,-29.27963566594259,0,0,0,0,0,0,0,0,0,0
77,77,77,1.13032,396.8533100895119,-1.337804910594306,-31.225237622842137,0,0,0,0,0,0,0,0,0,0
78,78,78,1.13034,396.7062655102168,-1.352565676766205,-33.16960686077372,0,0,0,0,0,0,0,0,0,0
79,79,79,1.13036,396.55939138983433,-1.4324945493427876,-35.11266661947466,0,0,0,0,0,0,0,0,0,0
80,80,80,1.13038,396.4128455381952,-1.577525960458639,-37.05434019018481,0,0,0,0,0,0,0,0,0,0
81,81,81,1.1303999999999998,396.2673541411263,-1.5894611833026238,-38.994550918991465,0,0,0,0,0,0,0,0,0,0
82,82,82,1.13042,396.1221006853637,-1.6004693537758783,-40.933222209714735,0,0,0,0,0,0,0,0,0,0
83,83,83,1.13044,395.9770341815913,-1.676544043387863,-42.87027752689655,0,0,0,0,0,0,0,0,0,0
84,84,84,1.13046,395.83235157907336,-1.8176096514381137,-44.80564039894479,0,0,0,0,0,0,0,0,0,0
85,85,85,1.13048,395.688544638646,-1.9576424969845223,-46.739234421012114,0,0,0,0,0,0,0,0,0,0
86,86,86,1.1304999999999998,395.5457374383544,-2.0307019078853608,-48.67098325813491,0,0,0,0,0,0,0,0,0,0
87,87,87,1.13052,395.4034362164856,-2.1027346211057827,-50.6008106481942,0,0,0,0,0,0,0,0,0,0
88,88,88,1.13054,395.2615686598312,-2.239599615783685,-52.528640404874125,0,0,0,0,0,0,0,0,0,0
89,89,89,1.13056,395.1209359554024,-2.309505647292033,-54.45439642079172,0,0,0,0,0,0,0,0,0,0
90,90,90,1.13058,394.9809968796937,-2.3783179935456022,-56.37800267036207,0,0,0,0,0,0,0,0,0,0
91,91,91,1.1306,394.8416243948443,-2.446005176514568,-58.299383212939,0,0,0,0,0,0,0,0,0,0
92,92,92,1.13062,394.7031031729161,-2.5125411617141635,-60.21846219567384,0,0,0,0,0,0,0,0,0,0
93,93,93,1.13064,394.56530136008007,-2.577887659629961,-62.13516385663173,0,0,0,0,0,0,0,0,0,0
94,94,94,1.13066,394.4282561567517,-2.642007432419665,-64.04941252773033,0,0,0,0,0,0,0,0,0,0
95,95,95,1.13068,394.2918184608939,-2.704857094342307,-65.96113263767518,0,0,0,0,0,0,0,0,0,0
96,96,96,1.1307,394.1563027647949,-2.766399114911177,-67.87024871506433,0,0,0,0,0,0,0,0,0,0
97,97,97,1.13072,394.0215547306323,-2.826583048948258,-69.77668539122944,0,0,0,0,0,0,0,0,0,0
98,98,98,1.13074,393.88733718582887,-2.9510059147744334,-71.68036740333213,0,0,0,0,0,0,0,0,0,0
99,99,99,1.13076,393.7542822011711,-3.073929444268925,-73.5812195972834,0,0,0,0,0,0,0,0,0,0
100,100,100,1.13078,393.62295512244697,-3.064092652994275,-75.479166930659,0,0,0,0,0,0,0,0,0,0
101,101,101,1.1308,393.49180941930126,-3.11829674527615,-77.37413447578238,0,0,0,0,0,0,0,0,0,0
102,102,102,1.13082,393.36121332366025,-3.236421557432455,-79.26604742254524,0,0,0,0,0,0,0,0,0,0
103,103,103,1.1308399999999998,393.23186269727023,-3.3528060769321817,-81.15483108148113,0,0,0,0,0,0,0,0,0,0
104,104,104,1.13086,393.1043550175952,-3.336350352639891,-83.0404108866623,0,0,0,0,0,0,0,0,0,0
105,105,105,1.13088,392.9769973591464,-3.3835811308452413,-84.9227123985926,0,0,0,0,0,0,0,0,0,0
106,106,106,1.1309,392.85019444948006,-3.494368675051525,-86.80166130728233,0,0,0,0,0,0,0,0,0,0
107,107,107,1.13092,392.7243500205164,-3.668577979187656,-88.67718343496098,0,0,0,0,0,0,0,0,0,0
108,108,108,1.13094,392.60124227437706,-3.6443466956816537,-90.54920473932812,0,0,0,0,0,0,0,0,0,0
109,109,109,1.13096,392.47823650854576,-3.683398626715419,-92.41765131610336,0,0,0,0,0,0,0,0,0,0
110,110,110,1.13098,392.35577317734806,-3.785594688845253,-94.282449402249,0,0,0,0,0,0,0,0,0,0
111,111,111,1.131,392.2342915787832,-3.950790006281911,-96.14352537874652,0,0,0,0,0,0,0,0,0,0
112,112,112,1.13102,392.11516848306064,-4.048138183923993,-98.00080577346937,0,0,0,0,0,0,0,0,0,0
113,113,113,1.13104,391.9975958106692,-4.077586875930906,-99.85421726420128,0,0,0,0,0,0,0,0,0,0
114,114,114,1.13106,391.880531694887,-4.169713304018007,-101.70368668139668,0,0,0,0,0,0,0,0,0,0
115,115,115,1.13108,391.76506507441337,-4.259075461975269,-103.54914101118652,0,0,0,0,0,0,0,0,0,0
116,116,116,1.1311,391.65094402436927,-4.345560619233179,-105.39050739821046,0,0,0,0,0,0,0,0,0,0
117,117,117,1.13112,391.53823965942007,-4.429059487156304,-107.2277131484431,0,0,0,0,0,0,0,0,0,0
118,118,118,1.13114,391.4266812585891,-4.509455475801945,-109.0606857321805,0,0,0,0,0,0,0,0,0,0
119,119,119,1.13116,391.31673915389416,-4.586639737462352,-110.88935278677044,0,0,0,0,0,0,0,0,0,0
120,120,120,1.13118,391.2081335844817,-4.6604868041965135,-112.71364211958536,0,0,0,0,0,0,0,0,0,0
121,121,121,1.1312,391.1009365656493,-4.730875251852231,-114.53348171082258,0,0,0,0,0,0,0,0,0,0
122,122,122,1.13122,390.9948490551963,-4.797676292427205,-116.34879971629812,0,0,0,0,0,0,0,0,0,0
123,123,123,1.13124,390.8903571032871,-4.860769306025382,-118.15952447039832,0,0,0,0,0,0,0,0,0,0
124,124,124,1.13126,390.7871517394712,-4.920016592764083,-119.96558448877757,0,0,0,0,0,0,0,0,0,0
125,125,125,1.1312799999999998,390.6848082998525,-5.040394499788508,-121.76690847129522,0,0,0,0,0,0,0,0,0,0
126,126,126,1.1313,390.5846030129848,-5.091530959276918,-123.56342530478103,0,0,0,0,0,0,0,0,0,0
127,127,127,1.13132,390.4859360989333,-5.138410245013368,-125.35506406579408,0,0,0,0,0,0,0,0,0,0
128,128,128,1.13134,390.3884678240364,-5.180882835668591,-127.1417540235362,0,0,0,0,0,0,0,0,0,0
129,129,129,1.13136,390.2917477628484,-5.283848113787011,-128.9234246425149,0,0,0,0,0,0,0,0,0,0
130,130,130,1.13138,390.196903467536,-5.382085453686384,-130.70000558545706,0,0,0,0,0,0,0,0,0,0
131,131,131,1.1314,390.1043527238711,-5.410425112156237,-132.4714267159569,0,0,0,0,0,0,0,0,0,0
132,132,132,1.13142,390.012867340609,-5.433745188132224,-134.23761810135747,0,0,0,0,0,0,0,0,0,0
133,133,133,1.13144,389.9219709141116,-5.516872655693262,-135.99851001546295,0,0,0,0,0,0,0,0,0,0
134,134,134,1.13146,389.8322782562904,-5.659606409634474,-137.75403294124385,0,0,0,0,0,0,0,0,0,0
135,135,135,1.13148,389.74522235342914,-5.731830547125172,-139.50411757370858,0,0,0,0,0,0,0,0,0,0
136,136,136,1.1315,389.66055238945006,-5.7334139827651605,-141.24869482244915,0,0,0,0,0,0,0,0,0,0
137,137,137,1.13152,389.57625970275626,-5.7940651364174975,-142.98769581455898,0,0,0,0,0,0,0,0,0,0
138,138,138,1.13154,389.4929872601143,-5.913576020931525,-144.72105189731928,0,0,0,0,0,0,0,0,0,0
139,139,139,1.13156,389.4119891705329,-6.026833149091512,-146.44869464072147,0,0,0,0,0,0,0,0,0,0
140,140,140,1.13158,389.3341794488492,-6.003880232509784,-148.17055584043516,0,0,0,0,0,0,0,0,0,0
141,141,141,1.1316,389.256476022822,-6.0392098403345615,-149.88656752029735,0,0,0,0,0,0,0,0,0,0
142,142,142,1.1316199999999998,389.17954861861375,-6.132608244426996,-151.59666193512078,0,0,0,0,0,0,0,0,0,0
143,143,143,1.13164,389.1040641863973,-6.283851041888421,-153.30077157332153,0,0,0,0,0,0,0,0,0,0
144,144,144,1.13166,389.0322361256639,-6.363042673513166,-154.9988291595381,0,0,0,0,0,0,0,0,0,0
145,145,145,1.13168,388.9624799524192,-6.369994963550834,-156.69076765739533,0,0,0,0,0,0,0,0,0,0
146,146,146,1.1317,388.8931864901766,-6.434163055002273,-158.3765202720277,0,0,0,0,0,0,0,0,0,0
147,147,147,1.13172,388.82504755905376,-6.55531743609652,-160.056020452839,0,0,0,0,0,0,0,0,0,0
148,148,148,1.13174,388.7587518665713,-6.733217224184587,-161.72920189600745,0,0,0,0,0,0,0,0,0,0
149,149,149,1.13176,388.6974679196958,-6.7085088758112175,-163.39599854720984,0,0,0,0,0,0,0,0,0,0
150,150,150,1.13178,388.6362561538186,-6.7401108367183085,-165.05634460418338,0,0,0,0,0,0,0,0,0,0
151,151,151,1.1318,388.52068321907126,0.0002218105579689,-166.71017451927872,0,0,0,0,0,0,1,0,1,0
152,152,152,1.13182,388.37354753224486,0.0002200161599724,-168.3574230021525,0,0,0,0,0,0,1,0,1,0
153,153,153,1.13184,388.226467853841,0.0002182276416445,-169.9980250222253,0,0,0,0,0,0,1,0,1,0
154,154,154,1.13186,388.0794442798161,0.0002131757553951,-171.6319158113536,0,0,0,0,0,0,1,0,1,0
155,155,155,1.13188,387.932476729525,1.4504487002192878e-05,-173.25903086634125,0,0,0,0,0,0,1,0,1,0
156,156,156,1.1319,387.785565179809,-0.0019218634148065,-174.87930595144263,0,0,0,0,0,0,1,0,1,0
157,157,157,1.13192,387.63870949298473,-0.133371646962624,-176.49267710100096,0,0,0,0,0,0,1,0,1,0
158,158,158,1.13194,387.491909731437,-0.1080529760964314,-178.0990806218567,0,0,0,0,0,0,1,0,1,0
159,159,159,1.13196,387.3451656172656,-0.0790840395886796,-179.69845309596397,0,0,0,0,0,0,1,0,1,0
160,160,160,1.13198,387.1984770692859,-0.0478158653179831,-181.29073138285048,0,0,0,0,0,0,1,0,1,0
161,161,161,1.132,387.0518414153892,-3.059252158356559,-182.87585262206707,0,0,0,0,0,0,1,0,1,0
162,162,162,1.13202,386.9052666880247,-0.1898027791569772,-184.45375423577008,0,0,0,0,0,0,1,0,1,0
163,163,163,1.13204,386.7587449656247,-0.19419950898078,-186.02437393107687,0,0,0,0,0,0,1,0,1,0
164,164,164,1.1320599999999998,386.6122788112861,-0.1651327362421642,-187.58764970262592,0,0,0,0,0,0,1,0,1,0
165,165,165,1.13208,386.465868174296,-0.1350031840882517,-189.1435198349943,0,0,0,0,0,0,1,0,1,0
166,166,166,1.1321,386.3195130329215,-0.104340821698606,-190.6919229050229,0,0,0,0,0,0,1,0,1,0
167,167,167,1.13212,386.1732076589838,-6.350768088958372,-192.23279778449407,0,0,0,0,0,0,1,0,1,0
168,168,168,1.13214,386.02696327768496,-6.503212563306168,-193.76608364223617,0,0,0,0,0,0,1,0,1,0
169,169,169,1.13216,385.8807771663799,-3.533290437266932,-195.2917199467905,0,0,0,0,0,0,1,0,1,0
170,170,170,1.13218,385.7346467121105,-0.2919208247665318,-196.8096464686206,0,0,0,0,0,0,1,0,1,0
171,171,171,1.1322,385.58856277266864,-6.876239962757498,-198.31980328260016,0,0,0,0,0,0,1,0,1,0
172,172,172,1.13222,385.4425431189992,-3.586521060066989,-199.8221307703377,0,0,0,0,0,0,1,0,1,0
173,173,173,1.13224,385.2965788707074,-0.2321739695196302,-201.3165696224892,0,0,0,0,0,0,1,0,1,0
174,174,174,1.13226,385.150660834631,-6.966324866008418,-202.80306084119465,0,0,0,0,0,0,1,0,1,0
175,175,175,1.13228,385.0048072274891,-3.5990764780717432,-204.28154574229907,0,0,0,0,0,0,1,0,1,0
176,176,176,1.1323,384.8590089300496,-0.202500967563473,-205.7519659577637,0,0,0,0,0,0,1,0,1,0
177,177,177,1.13232,384.7132566087749,-7.084080960362652,-207.21426343792945,0,0,0,0,0,0,1,0,1,0
178,178,178,1.13234,384.5675689809122,-3.4394155364828927,-208.6683804537689,0,0,0,0,0,0,1,0,1,0
179,179,179,1.13236,384.42192703265295,-10.416841063949574,-210.11425959925887,0,0,0,0,0,0,1,0,1,0
180,180,180,1.13238,384.2763495275475,-7.160661663058015,-211.55184379354,0,0,0,0,0,0,1,0,1,0
181,181,181,1.1324,384.1308303810745,-0.4051234345909564,-212.9810762832629,0,0,0,0,0,0,1,0,1,0
182,182,182,1.13242,383.9853538327749,-7.526875733234675,-214.4019006447892,0,0,0,0,0,0,1,0,1,0
183,183,183,1.13244,383.83994530110624,-0.414929668126923,-215.81426078637995,0,0,0,0,0,0,1,0,1,0
184,184,184,1.13246,383.6945789156836,-7.630819715039744,-217.21810095050083,0,0,0,0,0,0,1,0,1,0
185,185,185,1.13248,383.549280679745,-0.4204291051631773,-218.61336571592048,0,0,0,0,0,0,1,0,1,0
186,186,186,1.1324999999999998,383.4040243737079,-7.729318841179951,-219.9999999999877,0,0,0,0,0,0,1,0,1,0
187,187,187,1.13252,383.2588363441725,-0.4257932161195838,-221.3779490607679,0,0,0,0,0,0,1,0,1,0
188,188,188,1.13254,383.11369003409567,-7.8265285057982945,-222.7471584991664,0,0,0,0,0,0,1,0,1,0
189,189,189,1.13256,382.9686121588057,-0.3943498795535336,-224.107574261164,0,0,0,0,0,0,1,0,1,0
190,190,190,1.13258,382.8235757613144,-7.885774305695598,-225.45914263985105,0,0,0,0,0,0,1,0,1,0
191,191,191,1.1326,382.6786078889602,-0.3985389972886802,-226.8018102776589,0,0,0,0,0,0,1,0,1,0
192,192,192,1.13262,382.5336813207688,-7.979457680874479,-228.13552416830748,0,0,0,0,0,0,1,0,1,0
193,193,193,1.13264,382.388823397842,-0.4032447815457483,-229.46023165910472,0,0,0,0,0,0,1,0,1,0
194,194,194,1.13266,382.24400657571687,-8.072460414466368,-230.77588045287868,0,0,0,0,0,0,1,0,1,0
195,195,195,1.13268,382.0992585173512,-0.4078962415088044,-232.08241861002017,0,0,0,0,0,0,1,0,1,0
196,196,196,1.1327,381.9545513581217,-8.164197762594396,-233.37979455067543,0,0,0,0,0,0,1,0,1,0
197,197,197,1.13272,381.8099130789788,-0.4124833822360452,-234.6679570566404,0,0,0,0,0,0,1,0,1,0
198,198,198,1.13274,381.6653154995393,-8.25464598153176,-235.9468552734767,0,0,0,0,0,0,1,0,1,0
199,199,199,1.13276,381.5207869496708,-0.3781155702206261,-237.2164387124841,0,0,0,0,0,0,1,0,1,0
