,Unnamed: 0.1,Unnamed: 0,Time / s,Vo:Measured voltage,IL:Measured current,Vin:Measured voltage,open1:Output,open3:Output,open2:Output,open4:Output,short1:Output,short2:Output,short3:Output,short4:Output,OPEN,SHORT
0,0,0,1.1931130800464669,388.8458290498024,-10.583328259025135,-257.3270843691764,0,0,0,0,0,0,0,0,0,0
1,1,1,1.19312,388.9109745109236,-10.622649047469697,-258.4207968087238,0,0,0,0,0,0,0,0,0,0
2,2,2,1.19314,388.9772323415942,-10.696806486318126,-259.5043072377006,0,0,0,0,0,0,0,0,0,0
3,3,3,1.19316,389.0452949640416,-10.805423763765742,-260.5775728809799,0,0,0,0,0,0,0,0,0,0
4,4,4,1.19318,389.11759434625526,-10.818430119604646,-261.6405513678524,0,0,0,0,0,0,0,0,0,0
5,5,5,1.1932,389.1904732550218,-10.865073948996171,-262.69320073376696,0,0,0,0,0,0,0,0,0,0
6,6,6,1.19322,389.2646105557505,-10.944986035712017,-263.73547942190976,0,0,0,0,0,0,0,0,0,0
7,7,7,1.19324,389.34287968823503,-10.928029591602876,-264.7673462849126,0,0,0,0,0,0,0,0,0,0
8,8,8,1.19326,389.4211063536627,-10.94352240298111,-265.78876058644767,0,0,0,0,0,0,0,0,0,0
9,9,9,1.19328,389.49995540437976,-10.991105348089729,-266.7996820028089,0,0,0,0,0,0,0,0,0,0
10,10,10,1.1933,389.58008387414753,-11.070403025119512,-267.80007062456787,0,0,0,0,0,0,0,0,0,0
11,11,11,1.19332,389.6633787053675,-11.116094731563404,-268.7898869580768,0,0,0,0,0,0,0,0,0,0
12,12,12,1.1933399999999998,389.74847238358177,-11.127739101433344,-269.7690919270907,0,0,0,0,0,0,0,0,0,0
13,13,13,1.19336,389.83409744187486,-11.169881476102036,-270.7376468742828,0,0,0,0,0,0,0,0,0,0
14,14,14,1.19338,389.92088730850367,-11.24214356191183,-271.6955135627447,0,0,0,0,0,0,0,0,0,0
15,15,15,1.1934,390.0109366307991,-11.279146026579928,-272.6426541775569,0,0,0,0,0,0,0,0,0,0
16,16,16,1.19342,390.10282137032,-11.280435325464468,-273.5790313272128,0,0,0,0,0,0,0,0,0,0
17,17,17,1.19344,390.1950070048592,-11.31060948136344,-274.50460804516246,0,0,0,0,0,0,0,0,0,0
18,18,18,1.19346,390.28810201958817,-11.36929086333054,-275.41934779120544,0,0,0,0,0,0,0,0,0,0
19,19,19,1.19348,390.3827064980047,-11.456086567475548,-276.3232144529912,0,0,0,0,0,0,0,0,0,0
20,20,20,1.1935,390.4812830417426,-11.440459178300475,-277.2161723474196,0,0,0,0,0,0,0,0,0,0
21,21,21,1.19352,390.579780497965,-11.45208410628666,-278.0981862220257,0,0,0,0,0,0,0,0,0,0
22,22,22,1.19354,390.6787811294994,-11.490588317467534,-278.9692212564359,0,0,0,0,0,0,0,0,0,0
23,23,23,1.19356,390.7788587947229,-11.555583979802892,-279.82924306363924,0,0,0,0,0,0,0,0,0,0
24,24,24,1.19358,390.88057863474927,-11.646668681685307,-280.6782176914788,0,0,0,0,0,0,0,0,0,0
25,25,25,1.1936,390.9868128945667,-11.633128941293332,-281.5161116238971,0,0,0,0,0,0,0,0,0,0
26,26,26,1.19362,391.092988229028,-11.644786184840818,-282.34289178224606,0,0,0,0,0,0,0,0,0,0
27,27,27,1.19364,391.1996501902054,-11.68126192372735,-283.1585255266834,0,0,0,0,0,0,0,0,0,0
28,28,28,1.19366,391.3073357136496,-11.742163634211364,-283.9629806573706,0,0,0,0,0,0,0,0,0,0
29,29,29,1.19368,391.4178962417032,-11.761864418423333,-284.75622541580407,0,0,0,0,0,0,0,0,0,0
30,30,30,1.1937,391.52970801327217,-11.739899205593456,-285.538228486046,0,0,0,0,0,0,0,0,0,0
31,31,31,1.19372,391.6412489894647,-11.741097528216278,-286.30895899594003,0,0,0,0,0,0,0,0,0,0
32,32,32,1.19374,391.75302741839937,-11.765081445786114,-287.06838651837927,0,0,0,0,0,0,0,0,0,0
33,33,33,1.19376,391.8655428499936,-11.811459783474453,-287.8164810724518,0,0,0,0,0,0,0,0,0,0
34,34,34,1.1937799999999998,391.97928584909806,-11.879828363361783,-288.5532131246723,0,0,0,0,0,0,0,0,0,0
35,35,35,1.1938,392.0947377139336,-11.969770242603248,-289.2785535901276,0,0,0,0,0,0,0,0,0,0
36,36,36,1.19382,392.21392111592354,-12.015504461700848,-289.99247383360483,0,0,0,0,0,0,0,0,0,0
37,37,37,1.19384,392.33512741933856,-12.016533196572489,-290.6949456707681,0,0,0,0,0,0,0,0,0,0
38,38,38,1.19386,392.4565393154152,-12.03779418406554,-291.3859413692195,0,0,0,0,0,0,0,0,0,0
39,39,39,1.19388,392.5786059082593,-12.078892064346029,-292.06543364964443,0,0,0,0,0,0,0,0,0,0
40,40,40,1.1939,392.701767134788,-12.13941964523557,-292.73339568683895,0,0,0,0,0,0,0,0,0,0
41,41,41,1.19392,392.82845587952096,-12.088048935829962,-293.3898011108117,0,0,0,0,0,0,0,0,0,0
42,42,42,1.19394,392.953522405752,-12.120690489874164,-294.03462400780626,0,0,0,0,0,0,0,0,0,0
43,43,43,1.19396,393.0801094072461,-12.106016916878604,-294.66783892130707,0,0,0,0,0,0,0,0,0,0
44,44,44,1.19398,393.2065178421347,-12.109095606702438,-295.2894208530851,0,0,0,0,0,0,0,0,0,0
45,45,45,1.194,393.3331467418007,-12.129536376685405,-295.8993452641388,0,0,0,0,0,0,0,0,0,0
46,46,46,1.19402,393.46038599903454,-12.166938404779089,-296.4975880757024,0,0,0,0,0,0,0,0,0,0
47,47,47,1.19404,393.5886161325368,-12.220890477200134,-297.0841256701792,0,0,0,0,0,0,0,0,0,0
48,48,48,1.19406,393.71820805721205,-12.290971241909425,-297.6589348920589,0,0,0,0,0,0,0,0,0,0
49,49,49,1.19408,393.84952286036497,-12.376749467769775,-298.2219930488679,0,0,0,0,0,0,0,0,0,0
50,50,50,1.1941,393.9829115839355,-12.477784309231804,-298.77327791202407,0,0,0,0,0,0,0,0,0,0
51,51,51,1.1941199999999998,394.121174226962,-12.462286969480068,-299.3127677177502,0,0,0,0,0,0,0,0,0,0
52,52,52,1.19414,394.2591935387903,-12.461077564552586,-299.8404411679172,0,0,0,0,0,0,0,0,0,0
53,53,53,1.19416,394.3972940788293,-12.47376277326968,-300.3562774308712,0,0,0,0,0,0,0,0,0,0
54,54,54,1.19418,394.53579112562096,-12.499940514634272,-300.8602561422937,0,0,0,0,0,0,0,0,0,0
55,55,55,1.1942,394.67564963286384,-12.473438793255992,-301.3523574059498,0,0,0,0,0,0,0,0,0,0
56,56,56,1.1942199999999998,394.81574950308686,-12.45958360917854,-301.8325617945292,0,0,0,0,0,0,0,0,0,0
57,57,57,1.19424,394.9556187961156,-12.457968325773844,-302.300850350402,0,0,0,0,0,0,0,0,0,0
58,58,58,1.19426,395.09553668668747,-12.468196795531831,-302.7572045863164,0,0,0,0,0,0,0,0,0,0
59,59,59,1.19428,395.2350080094766,-12.48986637746542,-303.2016064862012,0,0,0,0,0,0,0,0,0,0
60,60,60,1.1943,395.3764706516001,-12.456705239362291,-303.63403850582216,0,0,0,0,0,0,0,0,0,0
61,61,61,1.19432,395.5165886670202,-12.500041215862804,-304.0544835735116,0,0,0,0,0,0,0,0,0,0
62,62,62,1.19434,395.6584266484281,-12.487677011131549,-304.4629250908104,0,0,0,0,0,0,0,0,0,0
63,63,63,1.19436,395.80003750673205,-12.485090726788345,-304.8593469331508,0,0,0,0,0,0,0,0,0,0
64,64,64,1.19438,395.9416447902502,-12.491883650343407,-305.24373345048053,0,0,0,0,0,0,0,0,0,0
65,65,65,1.1944,396.0834625894455,-12.507650969697352,-305.6160694678712,0,0,0,0,0,0,0,0,0,0
66,66,66,1.19442,396.2256954012425,-12.531982033952582,-305.9763402861412,0,0,0,0,0,0,0,0,0,0
67,67,67,1.19444,396.36853799953167,-12.564460617627727,-306.32453168240886,0,0,0,0,0,0,0,0,0,0
68,68,68,1.19446,396.5121753119069,-12.6046651881145,-306.66062991067736,0,0,0,0,0,0,0,0,0,0
69,69,69,1.19448,396.65678230274233,-12.65216917621488,-306.98462170236706,0,0,0,0,0,0,0,0,0,0
70,70,70,1.1945,396.80252386264897,-12.706541249594569,-307.296494266831,0,0,0,0,0,0,0,0,0,0
71,71,71,1.19452,396.9495547043897,-12.767345588986984,-307.5962352918799,0,0,0,0,0,0,0,0,0,0
72,72,72,1.19454,397.098019265305,-12.834142166980534,-307.8838329442459,0,0,0,0,0,0,0,0,0,0
73,73,73,1.1945599999999998,397.248051616308,-12.90648702922062,-308.15927587006894,0,0,0,0,0,0,0,0,0,0
74,74,74,1.19458,397.3997753775038,-12.983932577856235,-308.4225531953362,0,0,0,0,0,0,0,0,0,0
75,75,75,1.1946,397.5558480334966,-12.933546013373142,-308.67365452630503,0,0,0,0,0,0,0,0,0,0
76,76,76,1.19462,397.71072062176125,-12.887287901661136,-308.91256994992926,0,0,0,0,0,0,0,0,0,0
77,77,77,1.19464,397.8636242190588,-12.911074731297576,-309.13929003423283,0,0,0,0,0,0,0,0,0,0
78,78,78,1.19466,398.01793538502767,-12.871938083808445,-309.3538058286991,0,0,0,0,0,0,0,0,0,0
79,79,79,1.19468,398.1696579917728,-12.902094864472051,-309.55610886460784,0,0,0,0,0,0,0,0,0,0
80,80,80,1.1947,398.323708428014,-12.868492266772124,-309.74619115538366,0,0,0,0,0,0,0,0,0,0
81,81,81,1.19472,398.4769326586626,-12.837029895223314,-309.92404519690643,0,0,0,0,0,0,0,0,0,0
82,82,82,1.19474,398.6285235973598,-12.873741461177897,-310.08966396779493,0,0,0,0,0,0,0,0,0,0
83,83,83,1.19476,398.7817951713858,-12.845394133282708,-310.24304092971306,0,0,0,0,0,0,0,0,0,0
84,84,84,1.19478,398.9327131976223,-12.88445208884618,-310.38417002759354,0,0,0,0,0,0,0,0,0,0
85,85,85,1.1948,399.0861422463319,-12.857601576518505,-310.51304568990315,0,0,0,0,0,0,0,0,0,0
86,86,86,1.19482,399.23888087895807,-12.830864420531386,-310.62966282885577,0,0,0,0,0,0,0,0,0,0
87,87,87,1.19484,399.3900768734967,-12.87039754422392,-310.73401684060093,0,0,0,0,0,0,0,0,0,0
88,88,88,1.19486,399.5429933811489,-12.842711718754956,-310.826103605424,0,0,0,0,0,0,0,0,0,0
89,89,89,1.19488,399.694334128212,-12.880524907664782,-310.9059194878954,0,0,0,0,0,0,0,0,0,0
90,90,90,1.1949,399.8473458515247,-12.850247403425753,-310.97346133702183,0,0,0,0,0,0,0,0,0,0
91,91,91,1.19492,399.9979253189136,-12.884698946368829,-311.028726486367,0,0,0,0,0,0,0,0,0,0
92,92,92,1.19494,400.1508726530973,-12.850212861423278,-311.07171275415647,0,0,0,0,0,0,0,0,0,0
93,93,93,1.19496,400.3020650165948,-12.87969224676438,-311.1024184433669,0,0,0,0,0,0,0,0,0,0
94,94,94,1.19498,400.45307119668576,-12.906073609240092,-311.1208423417896,0,0,0,0,0,0,0,0,0,0
95,95,95,1.1949999999999998,400.60624284931487,-12.862205562959048,-311.12698372208087,0,0,0,0,0,0,0,0,0,0
96,96,96,1.19502,400.7574230370319,-12.881148585697751,-311.1208423417896,0,0,0,0,0,0,0,0,0,0
97,97,97,1.19504,400.9081551933474,-12.895769800736144,-311.102418443367,0,0,0,0,0,0,0,0,0,0
98,98,98,1.19506,401.0591189916569,-12.90567411816982,-311.0717127541566,0,0,0,0,0,0,0,0,0,0
99,99,99,1.19508,401.21019873364855,-12.910448022157317,-311.02872648636713,0,0,0,0,0,0,0,0,0,0
100,100,100,1.1951,401.3612690922778,-12.909681189653597,-310.973461337022,0,0,0,0,0,0,0,0,0,0
101,101,101,1.19512,401.5121951934832,-12.902966754020458,-310.9059194878957,0,0,0,0,0,0,0,0,0,0
102,102,102,1.19514,401.66283270403153,-12.889901566424,-310.82610360542424,0,0,0,0,0,0,0,0,0,0
103,103,103,1.19516,401.8138126788606,-12.870087514488814,-310.73401684060127,0,0,0,0,0,0,0,0,0,0
104,104,104,1.19518,401.9625455137035,-12.9100837574057,-310.62966282885606,0,0,0,0,0,0,0,0,0,0
105,105,105,1.1952,402.1137143444322,-12.875566071078415,-310.51304568990463,0,0,0,0,0,0,0,0,0,0
106,106,106,1.19522,402.26228233199015,-12.900091911515858,-310.38417002759394,0,0,0,0,0,0,0,0,0,0
107,107,107,1.19524,402.4112698602128,-12.916297041550909,-310.24304092971346,0,0,0,0,0,0,0,0,0,0
108,108,108,1.19526,402.5604777876187,-12.923765524923006,-310.08966396779687,0,0,0,0,0,0,0,0,0,0
109,109,109,1.19528,402.7096974079894,-12.922086885155384,-309.9240451969069,0,0,0,0,0,0,0,0,0,0
110,110,110,1.1953,402.8587105843965,-12.910856365028009,-309.7461911553843,0,0,0,0,0,0,0,0,0,0
111,111,111,1.19532,403.0072898891868,-12.889675182505332,-309.5561088646102,0,0,0,0,0,0,0,0,0,0
112,112,112,1.1953399999999998,403.15519874985023,-12.858150782967698,-309.3538058287016,0,0,0,0,0,0,0,0,0,0
113,113,113,1.19536,403.3021916006638,-12.815897087595022,-309.1392900342335,0,0,0,0,0,0,0,0,0,0
114,114,114,1.19538,403.4480140400332,-12.762534737756384,-308.91256994992995,0,0,0,0,0,0,0,0,0,0
115,115,115,1.1954,403.59240299342,-12.697691335259597,-308.67365452630565,0,0,0,0,0,0,0,0,0,0
116,116,116,1.19542,403.7350868817709,-12.621001678318548,-308.422553195337,0,0,0,0,0,0,0,0,0,0
117,117,117,1.1954399999999998,403.8757857953332,-12.532107993098156,-308.15927587007207,0,0,0,0,0,0,0,0,0,0
118,118,118,1.19546,404.0121742468132,-12.565296729035383,-307.8838329442467,0,0,0,0,0,0,0,0,0,0
119,119,119,1.19548,404.1491277391111,-12.585636306573427,-307.5962352918808,0,0,0,0,0,0,0,0,0,0
120,120,120,1.1955,404.2863453922823,-12.592712276740324,-307.29649426683187,0,0,0,0,0,0,0,0,0,0
121,121,121,1.19552,404.4235169907409,-12.586118350796376,-306.98462170236803,0,0,0,0,0,0,0,0,0,0
122,122,122,1.19554,404.5603231775677,-12.5654566495973,-306.6606299106784,0,0,0,0,0,0,0,0,0,0
123,123,123,1.19556,404.6948298730493,-12.597769190950457,-306.3245316824098,0,0,0,0,0,0,0,0,0,0
124,124,124,1.19558,404.82985636640126,-12.615282478640443,-305.97634028614226,0,0,0,0,0,0,0,0,0,0
125,125,125,1.1956,404.96505922813446,-12.617586080230888,-305.6160694678723,0,0,0,0,0,0,0,0,0,0
126,126,126,1.19562,405.1008570789424,-12.604280226036373,-305.24373345048167,0,0,0,0,0,0,0,0,0,0
127,127,127,1.19564,405.2345017914646,-12.642473539452691,-304.859346933152,0,0,0,0,0,0,0,0,0,0
128,128,128,1.19566,405.36877831486265,-12.664301020625544,-304.4629250908116,0,0,0,0,0,0,0,0,0,0
129,129,129,1.19568,405.50330983730055,-12.669352027620626,-304.0544835735128,0,0,0,0,0,0,0,0,0,0
130,130,130,1.1957,405.6377104729294,-12.657226016090425,-303.6340385058234,0,0,0,0,0,0,0,0,0,0
131,131,131,1.19572,405.7715854974922,-12.627532778145747,-303.2016064862024,0,0,0,0,0,0,0,0,0,0
132,132,132,1.19574,405.90453158920553,-12.579892675229967,-302.7572045863177,0,0,0,0,0,0,0,0,0,0
133,133,133,1.19576,406.0361370747736,-12.513936864865022,-302.30085035040327,0,0,0,0,0,0,0,0,0,0
134,134,134,1.1957799999999998,406.1659821803822,-12.42930752114348,-301.8325617945392,0,0,0,0,0,0,0,0,0,0
135,135,135,1.1958,406.2936392875442,-12.325658048843112,-301.35235740595124,0,0,0,0,0,0,0,0,0,0
136,136,136,1.19582,406.41668045656456,-12.338092398893467,-300.8602561422952,0,0,0,0,0,0,0,0,0,0
137,137,137,1.19584,406.53973370595617,-12.33088903006164,-300.3562774308773,0,0,0,0,0,0,0,0,0,0
138,138,138,1.19586,406.66235435862296,-12.303659244620455,-299.8404411679234,0,0,0,0,0,0,0,0,0,0
139,139,139,1.19588,406.78408932291546,-12.256026122063464,-299.3127677177518,0,0,0,0,0,0,0,0,0,0
140,140,140,1.1959,406.9036636541263,-12.255426184894668,-298.7732779120306,0,0,0,0,0,0,0,0,0,0
141,141,141,1.19592,407.0213675189432,-12.301540006390344,-298.22199304887454,0,0,0,0,0,0,0,0,0,0
142,142,142,1.19594,407.1398098324222,-12.326204087959772,-297.6589348920606,0,0,0,0,0,0,0,0,0,0
143,143,143,1.19596,407.2585114306708,-12.329016146889648,-297.084125670181,0,0,0,0,0,0,0,0,0,0
144,144,144,1.19598,407.3769845723538,-12.309586449379673,-296.49758807570413,0,0,0,0,0,0,0,0,0,0
145,145,145,1.196,407.4947332219276,-12.267538030133522,-295.8993452641406,0,0,0,0,0,0,0,0,0,0
146,146,146,1.19602,407.6112533375477,-12.202506904950814,-295.28942085308694,0,0,0,0,0,0,0,0,0,0
147,147,147,1.19604,407.726033163489,-12.114142276208833,-294.66783892130894,0,0,0,0,0,0,0,0,0,0
148,148,148,1.19606,407.8379523460752,-12.070063220124789,-294.03462400780813,0,0,0,0,0,0,0,0,0,0
149,149,149,1.19608,407.9472510389136,-12.069973598323797,-293.3898011108136,0,0,0,0,0,0,0,0,0,0
150,150,150,1.1961,408.05624098621234,-12.045577338820117,-292.7333956868409,0,0,0,0,0,0,0,0,0,0
151,151,151,1.19612,408.164388005731,-11.996504737645322,-292.0654336496465,0,0,0,0,0,0,1,0,0,1
152,152,152,1.19614,408.2711502005632,-11.922399930064476,-291.38594136922154,0,0,0,0,0,0,1,0,0,1
153,153,153,1.19616,408.3736457812126,-11.959014169847496,-290.6949456707701,0,0,0,0,0,0,1,0,0,1
154,154,154,1.19618,408.47661431861246,-11.96996911505722,-289.9924738336069,0,0,0,0,0,0,1,0,0,1
155,155,155,1.1962,408.5794995083244,-11.95488056168664,-289.27855359012966,0,0,0,0,0,0,1,0,0,1
156,156,156,1.1962199999999998,408.6817371446565,-11.913378534124163,-288.5532131246811,0,0,0,0,0,0,1,0,0,1
157,157,157,1.19624,408.7827554318515,-11.845107482137042,-287.81648107245394,0,0,0,0,0,0,1,0,0,1
158,158,158,1.19626,408.8813908681879,-11.817857541683782,-287.06838651838154,0,0,0,0,0,0,1,0,0,1
159,159,159,1.19628,408.9777990665549,-11.83132535286068,-286.3089589959423,0,0,0,0,0,0,1,0,0,1
160,160,160,1.1963,409.07416153600167,-11.817040295977083,-285.5382284860483,0,0,0,0,0,0,1,0,0,1
161,161,161,1.19632,409.16988578871513,-11.774636869236655,-284.75622541580645,0,0,0,0,0,0,1,0,0,1
162,162,162,1.19634,409.2643719681242,-11.70376453962406,-283.9629806573729,0,0,0,0,0,0,1,0,0,1
163,163,163,1.19636,409.3570131710904,-11.604087924398176,-283.15852552668576,0,0,0,0,0,0,1,0,0,1
164,164,164,1.19638,409.4449179615016,-11.611737982522197,-282.3428917822485,0,0,0,0,0,0,1,0,0,1
165,165,165,1.1964,409.53264208398485,-11.589994150630732,-281.5161116238995,0,0,0,0,0,0,1,0,0,1
166,166,166,1.19642,409.6195673598062,-11.538499731182547,-280.6782176914889,0,0,0,0,0,0,1,0,0,1
167,167,167,1.19644,409.7045054771298,-11.525182452916262,-279.8292430636496,0,0,0,0,0,0,1,0,0,1
168,168,168,1.19646,409.78754183815937,-11.549734266450317,-278.96922125643846,0,0,0,0,0,0,1,0,0,1
169,169,169,1.19648,409.8707351241032,-11.54354886172132,-278.0981862220283,0,0,0,0,0,0,1,0,0,1
170,170,170,1.1965,409.9534482735483,-11.506266650806992,-277.2161723474302,0,0,0,0,0,0,1,0,0,1
171,171,171,1.19652,410.0350372196711,-11.43754375684708,-276.32321445299385,0,0,0,0,0,0,1,0,0,1
172,172,172,1.19654,410.11485121831794,-11.337052181859956,-275.41934779120817,0,0,0,0,0,0,1,0,0,1
173,173,173,1.1965599999999998,410.19076958680495,-11.272828965548545,-274.50460804516524,0,0,0,0,0,0,1,0,0,1
174,174,174,1.19658,410.2642471910568,-11.244615625424206,-273.5790313272155,0,0,0,0,0,0,1,0,0,1
175,175,175,1.1966,410.335557847122,-11.252117494533968,-272.64265417755973,0,0,0,0,0,0,1,0,0,1
176,176,176,1.19662,410.4066610195807,-11.226648599019084,-271.6955135627475,0,0,0,0,0,0,1,0,0,1
177,177,177,1.19664,410.4763385611916,-11.2362649307001,-270.7376468742857,0,0,0,0,0,0,1,0,0,1
178,178,178,1.1966599999999998,410.5458445538328,-11.212242622280815,-269.7690919271024,0,0,0,0,0,0,1,0,0,1
179,179,179,1.19668,410.6145029661619,-11.154241065185817,-268.7898869580797,0,0,0,0,0,0,1,0,0,1
180,180,180,1.1967,410.6816313743983,-11.06193591371574,-267.8000706245708,0,0,0,0,0,0,1,0,0,1
181,181,181,1.19672,410.7465412914475,-10.935019234202873,-266.79968200281183,0,0,0,0,0,0,1,0,0,1
182,182,182,1.19674,410.8063752395743,-10.910106853455767,-265.7887605864507,0,0,0,0,0,0,1,0,0,1
183,183,183,1.19676,410.86415851943167,-10.918502166213385,-264.7673462849156,0,0,0,0,0,0,1,0,0,1
184,184,184,1.19678,410.9217378865844,-10.891435668085832,-263.7354794219128,0,0,0,0,0,0,1,0,0,1
185,185,185,1.1968,410.9778908811173,-10.897058538119552,-262.69320073377,0,0,0,0,0,0,1,0,0,1
186,186,186,1.19682,411.03378012329847,-10.866570877398804,-261.6405513678556,0,0,0,0,0,0,1,0,0,1
187,187,187,1.19684,411.08870229925526,-10.79964515959851,-260.57757288098304,0,0,0,0,0,0,1,0,0,1
188,188,188,1.19686,411.14194817046496,-10.695970356545551,-259.50430723770376,0,0,0,0,0,0,1,0,0,1
189,189,189,1.19688,411.1928028972175,-10.555252072742077,-258.42079680872706,0,0,0,0,0,0,1,0,0,1
190,190,190,1.1969,411.23845447470006,-10.51426520559529,-257.32708436917966,0,0,0,0,0,0,1,0,0,1
191,191,191,1.19692,411.2813129215263,-10.572779338063413,-256.22321309694604,0,0,0,0,0,0,1,0,0,1
192,192,192,1.19694,411.32489701877614,-10.593429487970631,-255.10922657099368,0,0,0,0,0,0,1,0,0,1
193,193,193,1.19696,411.368492011165,-10.575876408874278,-253.9851687695832,0,0,0,0,0,0,1,0,0,1
194,194,194,1.19698,411.41137719501273,-10.519797202463996,-252.85108406861207,0,0,0,0,0,0,1,0,0,1
195,195,195,1.1969999999999998,411.4528262288245,-10.424885449434436,-251.7070172397925,0,0,0,0,0,0,1,0,0,1
196,196,196,1.19702,411.49210744615465,-10.290851333840513,-250.55301344891336,0,0,0,0,0,0,1,0,0,1
197,197,197,1.19704,411.52714449498046,-10.185994963203832,-249.3891182540892,0,0,0,0,0,0,1,0,0,1
198,198,198,1.19706,411.5582947835181,-10.178660013122666,-248.21537760387764,0,0,0,0,0,0,1,0,0,1
199,199,199,1.19708,411.58821338543066,-10.200002776339824,-247.03183783560303,0,0,0,0,0,0,1,0,0,1
200,200,200,1.1971,411.61814114698535,-10.181131606552364,-245.83854567332472,0,0,0,0,0,0,1,0,0,1
201,201,201,1.1971130800464664,411.61814114698535,-10.181131606552364,-245.83854567332472,0,0,0,0,0,0,1,0,0,1
