,Unnamed: 0.1,Unnamed: 0,Time / s,Vo:Measured voltage,IL:Measured current,Vin:Measured voltage,open1:Output,open3:Output,open2:Output,open4:Output,short1:Output,short2:Output,short3:Output,short4:Output,OPEN,SHORT
0,0,0,1.1050325686145273,400.6142982762432,12.944786347837216,311.1208423417896,0,0,0,0,0,0,0,0,0,0
1,1,1,1.10504,400.7654431988936,12.96303793038246,311.10241844336684,0,0,0,0,0,0,0,0,0,0
2,2,2,1.10506,400.9181628719832,12.909757406733656,311.0717127541567,0,0,0,0,0,0,0,0,0,0
3,3,3,1.1050799999999998,401.06904147847655,12.918124289304442,311.02872648636725,0,0,0,0,0,0,0,0,0,0
4,4,4,1.1051,401.2199953235657,12.92095427727112,310.97346133702206,0,0,0,0,0,0,0,0,0,0
5,5,5,1.10512,401.37088958120745,12.917838318965565,310.90591948789586,0,0,0,0,0,0,0,0,0,0
6,6,6,1.10514,401.5215799148496,12.908371080110618,310.8261036054237,0,0,0,0,0,0,0,0,0,0
7,7,7,1.10516,401.67065649468935,12.959080034959952,310.7340168406015,0,0,0,0,0,0,0,0,0,0
8,8,8,1.10518,401.8212560721647,12.935721430554953,310.6296628288554,0,0,0,0,0,0,0,0,0,0
9,9,9,1.1052,401.971946831068,12.904796183210156,310.51304568990497,0,0,0,0,0,0,0,0,0,0
10,10,10,1.10522,402.1205089245119,12.932903918747318,310.3841700275943,0,0,0,0,0,0,0,0,0,0
11,11,11,1.10524,402.269574522434,12.9526897662799,310.2430409297125,0,0,0,0,0,0,0,0,0,0
12,12,12,1.10526,402.4202026277364,12.89668210460653,310.0896639677974,0,0,0,0,0,0,0,0,0,0
13,13,13,1.10528,402.56810311192265,12.898568304314855,309.9240451969058,0,0,0,0,0,0,0,0,0,0
14,14,14,1.1053,402.7158817014188,12.890935153093634,309.7461911553864,0,0,0,0,0,0,0,0,0,0
15,15,15,1.10532,402.8633117009232,12.873381688989932,309.55610886461074,0,0,0,0,0,0,0,0,0,0
16,16,16,1.10534,403.0101572189132,12.845513159495413,309.3538058287003,0,0,0,0,0,0,0,0,0,0
17,17,17,1.10536,403.156173318902,12.80694127125494,309.13929003423607,0,0,0,0,0,0,0,0,0,0
18,18,18,1.10538,403.30110617642737,12.75728443579004,308.91256994992847,0,0,0,0,0,0,0,0,0,0
19,19,19,1.1054,403.4446932416572,12.696168011091226,308.6736545263064,0,0,0,0,0,0,0,0,0,0
20,20,20,1.1054199999999998,403.5866634075237,12.623224538935672,308.42255319534,0,0,0,0,0,0,0,0,0,0
21,21,21,1.10544,403.7257080412156,12.605365887163632,308.1592758700704,0,0,0,0,0,0,0,0,0,0
22,22,22,1.10546,403.8623290746036,12.642282764378049,307.88383294424744,0,0,0,0,0,0,0,0,0,0
23,23,23,1.10548,403.9996023170869,12.666343245099656,307.5962352918788,0,0,0,0,0,0,0,0,0,0
24,24,24,1.1055,404.137226725054,12.67713067717342,307.2964942668327,0,0,0,0,0,0,0,0,0,0
25,25,25,1.10552,404.2748918685792,12.67423657364104,306.98462170236604,0,0,0,0,0,0,0,0,0,0
26,26,26,1.10554,404.41227812587766,12.657260863385568,306.66062991067923,0,0,0,0,0,0,0,0,0,0
27,27,27,1.10556,404.5490568834092,12.625812136742203,306.32453168241074,0,0,0,0,0,0,0,0,0,0
28,28,28,1.10558,404.6844368086004,12.64693608680592,305.97634028614,0,0,0,0,0,0,0,0,0,0
29,29,29,1.1056,404.82007596790334,12.652840177337312,305.6160694678733,0,0,0,0,0,0,0,0,0,0
30,30,30,1.10562,404.9543831401048,12.710597727209349,305.2437334504792,0,0,0,0,0,0,0,0,0,0
31,31,31,1.10564,405.0902469140266,12.68487141549485,304.8593469331529,0,0,0,0,0,0,0,0,0,0
32,32,32,1.10566,405.2248147045818,12.710243067753376,304.46292509081263,0,0,0,0,0,0,0,0,0,0
33,33,33,1.10568,405.3609611605163,12.651285620295182,304.05448357351014,0,0,0,0,0,0,0,0,0,0
34,34,34,1.1057,405.4942802663675,12.64267846887337,303.6340385058245,0,0,0,0,0,0,0,0,0,0
35,35,35,1.10572,405.6271555748037,12.616529888713632,303.20160648619964,0,0,0,0,0,0,0,0,0,0
36,36,36,1.10574,405.75918432617925,12.572458188842589,302.7572045863189,0,0,0,0,0,0,0,0,0,0
37,37,37,1.10576,405.8899553622862,12.510092461069874,302.3008503504046,0,0,0,0,0,0,0,0,0,0
38,38,38,1.10578,406.0190493770783,12.429072801660665,301.83256179453616,0,0,0,0,0,0,0,0,0,0
39,39,39,1.1058,406.143249449648,12.46439740886554,301.35235740595255,0,0,0,0,0,0,0,0,0,0
40,40,40,1.10582,406.26798096006246,12.480443662683577,300.860256142292,0,0,0,0,0,0,0,0,0,0
41,41,41,1.10584,406.3928069995591,12.476809274619828,300.35627743087866,0,0,0,0,0,0,0,0,0,0
42,42,42,1.1058599999999998,406.5172819347965,12.453103531164984,299.84044116792484,0,0,0,0,0,0,0,0,0,0
43,43,43,1.10588,406.6409516732168,12.408947520342856,299.31276771775805,0,0,0,0,0,0,0,0,0,0
44,44,44,1.1059,406.763353933314,12.343974351605826,298.77327791203203,0,0,0,0,0,0,0,0,0,0
45,45,45,1.10592,406.88281536491286,12.325627993110771,298.22199304886595,0,0,0,0,0,0,0,0,0,0
46,46,46,1.10594,407.00113062618817,12.353608007981114,297.65893489206724,0,0,0,0,0,0,0,0,0,0
47,47,47,1.10596,407.11978009435006,12.3597379840828,297.0841256701773,0,0,0,0,0,0,0,0,0,0
48,48,48,1.10598,407.23827605301113,12.34362636613912,296.49758807570566,0,0,0,0,0,0,0,0,0,0
49,49,49,1.106,407.3561224512208,12.304894367423165,295.8993452641422,0,0,0,0,0,0,0,0,0,0
50,50,50,1.10602,407.4728151913949,12.243176183331412,295.289420853083,0,0,0,0,0,0,0,0,0,0
51,51,51,1.10604,407.5878424217898,12.158119197845936,294.66783892131053,0,0,0,0,0,0,0,0,0,0
52,52,52,1.10606,407.69797129683,12.185250377760548,294.03462400780404,0,0,0,0,0,0,0,0,0,0
53,53,53,1.10608,407.8083921469336,12.188431888341128,293.38980111081537,0,0,0,0,0,0,0,0,0,0
54,54,54,1.1061,407.9185782408306,12.167278771804842,292.73339568684264,0,0,0,0,0,0,0,0,0,0
55,55,55,1.10612,408.0279947974474,12.121419700586111,292.06543364964216,0,0,0,0,0,0,0,0,0,0
56,56,56,1.10614,408.136099288522,12.050497180852316,291.38594136922336,0,0,0,0,0,0,0,0,0,0
57,57,57,1.10616,408.2423417454516,11.954167748652551,290.69494567076566,0,0,0,0,0,0,0,0,0,0
58,58,58,1.10618,408.3445599562583,11.968185735977332,289.9924738336088,0,0,0,0,0,0,0,0,0,0
59,59,59,1.1062,408.4467630395998,11.956177007923372,289.2785535901316,0,0,0,0,0,0,0,0,0,0
60,60,60,1.10622,408.5483871363615,11.917769969831376,288.55321312467646,0,0,0,0,0,0,0,0,0,0
61,61,61,1.10624,408.6488607622513,11.85260744477572,287.816481072456,0,0,0,0,0,0,0,0,0,0
62,62,62,1.10626,408.7449710337126,11.896563159109949,287.0683865183767,0,0,0,0,0,0,0,0,0,0
63,63,63,1.10628,408.84169017045394,11.91313969388349,286.30895899594435,0,0,0,0,0,0,0,0,0,0
64,64,64,1.1062999999999998,408.9384332454591,11.90195514264304,285.5382284860504,0,0,0,0,0,0,0,0,0,0
65,65,65,1.10632,409.0346076100444,11.862642382189536,284.7562254158085,0,0,0,0,0,0,0,0,0,0
66,66,66,1.10634,409.1296132123341,11.794849262408611,283.9629806573751,0,0,0,0,0,0,0,0,0,0
67,67,67,1.10636,409.2228429195564,11.698238788566306,283.15852552668053,0,0,0,0,0,0,0,0,0,0
68,68,68,1.10638,409.31253426058674,11.640693965875853,282.34289178225066,0,0,0,0,0,0,0,0,0,0
69,69,69,1.1064,409.4002386256779,11.621939450720909,281.5161116238942,0,0,0,0,0,0,0,0,0,0
70,70,70,1.10642,409.48720881928153,11.573433901407013,280.6782176914911,0,0,0,0,0,0,0,0,0,0
71,71,71,1.10644,409.57118938262727,11.563078890095014,279.8292430636518,0,0,0,0,0,0,0,0,0,0
72,72,72,1.10646,409.65368224090537,11.590592973842968,278.96922125643295,0,0,0,0,0,0,0,0,0,0
73,73,73,1.10648,409.7363978266857,11.587381280087412,278.09818622203846,0,0,0,0,0,0,0,0,0,0
74,74,74,1.1065,409.81869932947296,11.553082726639934,277.2161723474165,0,0,0,0,0,0,0,0,0,0
75,75,75,1.10652,409.8999429022488,11.487351937184645,276.3232144530044,0,0,0,0,0,0,0,0,0,0
76,76,76,1.10654,409.97947798946575,11.389859409802243,275.4193477912188,0,0,0,0,0,0,0,0,0,0
77,77,77,1.10656,410.0566476583013,11.260291677958184,274.50460804515933,0,0,0,0,0,0,0,0,0,0
78,78,78,1.10658,410.12926583059925,11.235033227381326,273.579031327218,0,0,0,0,0,0,0,0,0,0
79,79,79,1.1066,410.20012575436994,11.245487115408938,272.64265417755365,0,0,0,0,0,0,0,0,0,0
80,80,80,1.10662,410.26925366091535,11.291340554281277,271.69551356275,0,0,0,0,0,0,0,0,0,0
81,81,81,1.1066399999999998,410.3389433354666,11.303912372689275,270.73764687428826,0,0,0,0,0,0,0,0,0,0
82,82,82,1.10666,410.4085254871365,11.28284444842971,269.76909192709616,0,0,0,0,0,0,0,0,0,0
83,83,83,1.10668,410.4773240780677,11.227794765719509,268.7898869580823,0,0,0,0,0,0,0,0,0,0
84,84,84,1.1067,410.5446566496415,11.138437572252112,267.80007062456446,0,0,0,0,0,0,0,0,0,0
85,85,85,1.10672,410.6098346516219,11.014463528976297,266.7996820028145,0,0,0,0,0,0,0,0,0,0
86,86,86,1.10674,410.6710746979031,10.9240120388556,265.7887605864442,0,0,0,0,0,0,0,0,0,0
87,87,87,1.10676,410.72821160446784,10.93526557573814,264.76734628491835,0,0,0,0,0,0,0,0,0,0
88,88,88,1.10678,410.7843365385335,10.979522040877733,263.7354794219156,0,0,0,0,0,0,0,0,0,0
89,89,89,1.1068,410.8409554505315,10.988002441544133,262.6932007337634,0,0,0,0,0,0,0,0,0,0
90,90,90,1.10682,410.8973711065056,10.960361604536994,261.6405513678584,0,0,0,0,0,0,0,0,0,0
91,91,91,1.10684,410.9528800018098,10.896270717281809,260.5775728809762,0,0,0,0,0,0,0,0,0,0
92,92,92,1.10686,411.00677268211257,10.795417469833252,259.50430723770666,0,0,0,0,0,0,0,0,0,0
93,93,93,1.10688,411.0583340669538,10.657506189931368,258.4207968087299,0,0,0,0,0,0,0,0,0,0
94,94,94,1.1069,411.10578694195954,10.550763163294764,257.32708436917267,0,0,0,0,0,0,0,0,0,0
95,95,95,1.10692,411.14811770895375,10.611963478674266,256.22321309694894,0,0,0,0,0,0,0,0,0,0
96,96,96,1.10694,411.19123055833984,10.63531002688774,255.1092265709865,0,0,0,0,0,0,0,0,0,0
97,97,97,1.10696,411.234410945297,10.620462392650726,253.9851687695862,0,0,0,0,0,0,0,0,0,0
98,98,98,1.10698,411.2769383543112,10.567096504825326,252.8510840686152,0,0,0,0,0,0,0,0,0,0
99,99,99,1.107,411.3180866096928,10.474904767755488,251.7070172397852,0,0,0,0,0,0,0,0,0,0
100,100,100,1.10702,411.3571241883821,10.34359618608579,250.55301344891643,0,0,0,0,0,0,0,0,0,0
101,101,101,1.10704,411.3918971321265,10.241446645331065,249.3891182540817,0,0,0,0,0,0,0,0,0,0
102,102,102,1.10706,411.4225772041472,10.236779536754424,248.21537760389143,0,0,0,0,0,0,0,0,0,0
103,103,103,1.1070799999999998,411.45238607694034,10.26077599352174,247.03183783560613,0,0,0,0,0,0,0,0,0,0
104,104,104,1.1071,411.48225848319487,10.244560060794756,245.8385456733279,0,0,0,0,0,0,0,0,0,0
105,105,105,1.10712,411.5114605639753,10.187818885769708,244.63554822624192,0,0,0,0,0,0,0,0,0,0
106,106,106,1.10714,411.539253199394,10.090255963247367,243.4228929865624,0,0,0,0,0,0,0,0,0,0
107,107,107,1.10716,411.5648923088039,9.951591248406492,242.2006278278964,0,0,0,0,0,0,0,0,0,0
108,108,108,1.10718,411.5852685194631,9.90873060235628,240.96880100314647,0,0,0,0,0,0,0,0,0,0
109,109,109,1.1072,411.6037492501737,9.892858636280426,239.7274611427489,0,0,0,0,0,0,0,0,0,0
110,110,110,1.10722,411.62117126024367,9.903693493259048,238.4766572526647,0,0,0,0,0,0,0,0,0,0
111,111,111,1.10724,411.638410557552,9.87234318279059,237.21643871247807,0,0,0,0,0,0,0,0,0,0
112,112,112,1.10726,411.6547233153887,9.798511354297585,235.94685527348224,0,0,0,0,0,0,0,0,0,0
113,113,113,1.10728,411.6693609225951,9.681917789462538,234.6679570566344,0,0,0,0,0,0,0,0,0,0
114,114,114,1.1073,411.68025494802725,9.590897869738225,233.3797945506694,0,0,0,0,0,0,0,0,0,0
115,115,115,1.10732,411.68748820207645,9.59381882110076,232.08241861002583,0,0,0,0,0,0,0,0,0,0
116,116,116,1.10734,411.6944028691125,9.553209586622453,230.77588045287257,0,0,0,0,0,0,0,0,0,0
117,117,117,1.10736,411.69985436572586,9.537391568884958,229.46023165912243,0,0,0,0,0,0,0,0,0,0
118,118,118,1.10738,411.7046654815911,9.477476239835289,228.13552416831328,0,0,0,0,0,0,0,0,0,0
119,119,119,1.1074,411.70808594758313,9.3731879521674,226.8018102776526,0,0,0,0,0,0,0,0,0,0
120,120,120,1.1074199999999998,411.7093612360069,9.22426689220204,225.4591426398691,0,0,0,0,0,0,0,0,0,0
121,121,121,1.10744,411.70485934106256,9.236289025699856,224.10757426116987,0,0,0,0,0,0,0,0,0,0
122,122,122,1.10746,411.699799085006,9.271802475719502,222.7471584991848,0,0,0,0,0,0,0,0,0,0
123,123,123,1.10748,411.69495444735696,9.26190825405414,221.37794906077391,0,0,0,0,0,0,0,0,0,0
124,124,124,1.1075,411.68958014520126,9.206323943456567,220.0000000000063,0,0,0,0,0,0,0,0,0,0
125,125,125,1.10752,411.68292668230464,9.10478242975604,218.61336571592656,0,0,0,0,0,0,0,0,0,0
126,126,126,1.10754,411.6742406017563,8.957031984538233,217.21810095050697,0,0,0,0,0,0,0,0,0,0
127,127,127,1.10756,411.6609019986115,8.900035218538827,215.81426078639885,0,0,0,0,0,0,0,0,0,0
128,128,128,1.10758,411.6453666156437,8.864957748817238,214.4019006447953,0,0,0,0,0,0,0,0,0,0
129,129,129,1.1076,411.6285342476394,8.851544894085484,212.98107628328208,0,0,0,0,0,0,0,0,0,0
130,130,130,1.10762,411.6111292350124,8.790932675424921,211.55184379354623,0,0,0,0,0,0,0,0,0,0
131,131,131,1.10764,411.59240617858137,8.682865715476199,210.1142595992652,0,0,0,0,0,0,0,0,0,0
132,132,132,1.10766,411.57161605505615,8.527103514839105,208.66838045378847,0,0,0,0,0,0,0,0,0,0
133,133,133,1.10768,411.5453687990122,8.529163940360515,207.21426343792257,0,0,0,0,0,0,0,0,0,0
134,134,134,1.1077,411.5184307926848,8.551643158570373,205.75196595778337,0,0,0,0,0,0,0,0,0,0
135,135,135,1.10772,411.4914807349044,8.525692091232967,204.2815457422922,0,0,0,0,0,0,0,0,0,0
136,136,136,1.10774,411.463783045008,8.451055366958824,202.8030608411877,0,0,0,0,0,0,0,0,0,0
137,137,137,1.10776,411.4345986602436,8.327491885027232,201.3165696224957,0,0,0,0,0,0,0,0,0,0
138,138,138,1.10778,411.40207827771087,8.22333022131671,199.8221307703308,0,0,0,0,0,0,0,0,0,0
139,139,139,1.1078,411.36705184759984,8.138349130120579,198.3198032826068,0,0,0,0,0,0,0,0,0,0
140,140,140,1.10782,411.32921949088416,8.14085663732006,196.8096464686135,0,0,0,0,0,0,0,0,0,0
141,141,141,1.10784,411.2910793732142,8.093506786819272,195.29171994678345,0,0,0,0,0,0,0,0,0,0
142,142,142,1.1078599999999998,411.251904817661,7.9960609832762035,193.76608364224285,0,0,0,0,0,0,0,0,0,0
143,143,143,1.10788,411.2109660520499,7.848294325959452,192.23279778448693,0,0,0,0,0,0,0,0,0,0
144,144,144,1.1079,411.1651137605032,7.855552035343253,190.6919229050437,0,0,0,0,0,0,0,0,0,0
145,145,145,1.10792,411.11867778558775,7.880549852229997,189.14351983498696,0,0,0,0,0,0,0,0,0,0
146,146,146,1.10794,411.0722561023656,7.854520865823407,187.58764970264687,0,0,0,0,0,0,0,0,0,0
147,147,147,1.10796,411.025135932761,7.777231645453838,186.02437393108383,0,0,0,0,0,0,0,0,0,0
148,148,148,1.10798,410.9766016060732,7.648461805281989,184.45375423577696,0,0,0,0,0,0,0,0,0,0
149,149,149,1.108,410.92492973848135,7.536481015221786,182.8758526220883,0,0,0,0,0,0,0,0,0,0
150,150,150,1.10802,410.8700549114284,7.5095473181004415,181.29073138285744,0,0,0,0,0,0,0,0,0,0
151,151,151,1.10804,410.7643139611742,0.0001796984991735,179.6984530959854,0,0,0,1,0,0,0,0,1,0
152,152,152,1.10806,410.6087499017134,0.0001780991269272,178.0990806218637,0,0,0,1,0,0,0,0,1,0
153,153,153,1.10808,410.4532450333911,0.0001764927236324,176.492677101008,0,0,0,1,0,0,0,0,1,0
154,154,154,1.1081,410.2977993372854,0.0001748793527071,174.87930595146432,0,0,0,1,0,0,0,0,1,0
155,155,155,1.10812,410.14241279441904,0.0001732590778443,173.25903086634835,0,0,0,1,0,0,0,0,1,0
156,156,156,1.10814,409.9870851698413,0.0001716319630099,171.63191581137545,0,0,0,1,0,0,0,0,1,0
157,157,157,1.10816,409.8318163698961,0.0001699980724394,169.99802502223247,0,0,0,1,0,0,0,0,1,0
158,158,158,1.10818,409.6766063723026,0.0001683574706361,168.35742300215963,0,0,0,1,0,0,0,0,1,0
159,159,159,1.1082,409.5214551547897,0.0001667102223681,166.71017451930086,0,0,0,1,0,0,0,0,1,0
160,160,160,1.10822,409.3663626950943,0.000165056392666,165.05634460419066,0,0,0,1,0,0,0,0,1,0
161,161,161,1.10824,409.21132897096135,0.0001633960468202,163.39599854723215,0,0,0,1,0,0,0,0,1,0
162,162,162,1.10826,409.05635396014446,0.0001617292503782,161.72920189599964,0,0,0,1,0,0,0,0,1,0
163,163,163,1.10828,408.9014376404061,0.0001600560691423,160.05602045284633,0,0,0,1,0,0,0,0,1,0
164,164,164,1.1082999999999998,408.74657998951614,0.0001583765691669,158.3765202720503,0,0,0,1,0,0,0,0,1,0
165,165,165,1.10832,408.5917809852536,0.0001566908167556,156.69076765738745,0,0,0,1,0,0,0,0,1,0
166,166,166,1.10834,408.4370406054065,0.0001549988784593,154.99882915954552,0,0,0,1,0,0,0,0,1,0
167,167,167,1.10836,408.2823588277704,0.0001533008210726,153.30077157331357,0,0,0,1,0,0,0,0,1,0
168,168,168,1.10838,408.1277356301487,0.000151596711632,151.59666193512822,0,0,0,1,0,0,0,0,1,0
169,169,169,1.1084,407.97317099035536,0.0001498866174128,149.88656752028933,0,0,0,1,0,0,0,0,1,0
170,170,170,1.10842,407.818664886211,0.0001481706059266,148.1705558404271,0,0,0,1,0,0,0,0,1,0
171,171,171,1.10844,407.66421729554526,0.0001464487449186,146.448694640729,0,0,0,1,0,0,0,0,1,0
172,172,172,1.10846,407.5098281961956,0.0001447211023649,144.72105189731118,0,0,0,1,0,0,0,0,1,0
173,173,173,1.10848,407.355497566008,0.0001429877464699,142.98769581458225,0,0,0,1,0,0,0,0,1,0
174,174,174,1.1085,407.20122538283846,0.0001412487456635,141.248694822441,0,0,0,1,0,0,0,0,1,0
175,175,175,1.10852,407.0470116245488,0.0001395041685985,139.5041175737004,0,0,0,1,0,0,0,0,1,0
176,176,176,1.10854,406.8928562690109,0.0001377540841477,137.75403294126738,0,0,0,1,0,0,0,0,1,0
177,177,177,1.10856,406.73875929410576,0.0001359985614016,135.99851001547063,0,0,0,1,0,0,0,0,1,0
178,178,178,1.10858,406.5847206777205,0.0001342376696651,134.23761810138112,0,0,0,1,0,0,0,0,1,0
179,179,179,1.1086,406.43074039775206,0.0001324714784553,132.47142671596464,0,0,0,1,0,0,0,0,1,0
180,180,180,1.10862,406.27681843210553,0.0001307000574984,130.7000055854648,0,0,0,1,0,0,0,0,1,0
181,181,181,1.1086399999999998,406.12295475869536,0.000128923476727,128.92342464253875,0,0,0,1,0,0,0,0,1,0
182,182,182,1.10866,405.969149355442,0.0001271418062774,127.14175402354398,0,0,0,1,0,0,0,0,1,0
183,183,183,1.10868,405.8154022002765,0.0001253551164871,125.35506406581808,0,0,0,1,0,0,0,0,1,0
184,184,184,1.1087,405.66171327113744,0.0001235634778914,123.56342530478888,0,0,0,1,0,0,0,0,1,0
185,185,185,1.10872,405.50808254597166,0.0001217669612212,121.76690847131935,0,0,0,1,0,0,0,0,1,0
186,186,186,1.10874,405.354510002735,0.0001199656373998,119.96558448878544,0,0,0,1,0,0,0,0,1,0
187,187,187,1.10876,405.2009956193903,0.0001181595775405,118.1595244704062,0,0,0,1,0,0,0,0,1,0
188,188,188,1.10878,405.0475393739102,0.0001163488529434,116.34879971632245,0,0,0,1,0,0,0,0,1,0
189,189,189,1.1088,404.894141244276,0.0001145335350928,114.53348171083051,0,0,0,1,0,0,0,0,1,0
190,190,190,1.10882,404.74080120847503,0.0001127136956544,112.71364211960982,0,0,0,1,0,0,0,0,1,0
191,191,191,1.10884,404.5875192445053,0.0001108894064722,110.88935278676188,0,0,0,1,0,0,0,0,1,0
192,192,192,1.10886,404.4342953303723,0.0001090607395661,109.06068573217192,0,0,0,1,0,0,0,0,1,0
193,193,193,1.10888,404.2811294440896,0.0001072277671288,107.22771314846771,0,0,0,1,0,0,0,0,1,0
194,194,194,1.1089,404.1280215636803,0.0001053905615229,105.39050739820183,0,0,0,1,0,0,0,0,1,0
195,195,195,1.10892,403.9749716671743,0.000103549195278,103.54914101119458,0,0,0,1,0,0,0,0,1,0
196,196,196,1.10894,403.8219797326108,0.0001017037410882,101.70368668138804,0,0,0,1,0,0,0,0,1,0
197,197,197,1.10896,403.6690457380368,9.985427180892306e-05,99.85421726419264,0,0,0,1,0,0,0,0,1,0
198,198,198,1.10898,403.5161696615082,9.8000860453913e-05,98.00080577347744,0,0,0,1,0,0,0,0,1,0
199,199,199,1.109,403.36335148108896,9.614358019272e-05,96.14352537873783,0,0,0,1,0,0,0,0,1,0
200,200,200,1.10902,403.21059117485134,9.42825043476218e-05,94.28244940225714,0,0,0,1,0,0,0,0,1,0
201,201,201,1.109032568614527,403.21059117485134,9.42825043476218e-05,94.28244940225714,0,0,0,1,0,0,0,0,1,0
