,Unnamed: 0.1,Unnamed: 0,Time / s,Vo:Measured voltage,IL:Measured current,Vin:Measured voltage,open1:Output,open3:Output,open2:Output,open4:Output,short1:Output,short2:Output,short3:Output,short4:Output,OPEN,SHORT
0,0,0,1.1017142121388717,388.8168356952149,6.478269495124376,158.37652027202114,0,0,0,0,0,0,0,0,0,0
1,1,1,1.10172,388.74844919168726,6.600406647022526,160.05602045283248,0,0,0,0,0,0,0,0,0,0
2,2,2,1.10174,388.6828073155015,6.714521058599996,161.72920189600094,0,0,0,0,0,0,0,0,0,0
3,3,3,1.10176,388.6201727371847,6.7556222059619575,163.39599854720333,0,0,0,0,0,0,0,0,0,0
4,4,4,1.10178,388.5587540916124,6.788268694870227,165.05634460417693,0,0,0,0,0,0,0,0,0,0
5,5,5,1.1018,388.49812771545805,6.876994885510816,166.71017451927227,0,0,0,0,0,0,0,0,0,0
6,6,6,1.10182,388.4390053818673,7.021555588166903,168.35742300214608,0,0,0,0,0,0,0,0,0,0
7,7,7,1.10184,388.3843424296143,7.027526312394024,169.99802502221894,0,0,0,0,0,0,0,0,0,0
8,8,8,1.1018599999999998,388.3304679685202,7.024139589076097,171.63191581134726,0,0,0,0,0,0,0,0,0,0
9,9,9,1.10188,388.2769329465131,7.0758870290182285,173.25903086634963,0,0,0,0,0,0,0,0,0,0
10,10,10,1.1019,388.224470597313,7.182521075080646,174.87930595143635,0,0,0,0,0,0,0,0,0,0
11,11,11,1.10192,388.17381049145456,7.343781353400061,176.49267710100926,0,0,0,0,0,0,0,0,0,0
12,12,12,1.10194,388.12803600043407,7.36535721404467,178.09908062186494,0,0,0,0,0,0,0,0,0,0
13,13,13,1.10196,388.08328712720817,7.376369519344459,179.69845309598662,0,0,0,0,0,0,0,0,0,0
14,14,14,1.10198,388.0390807035429,7.44125212625559,181.29073138285867,0,0,0,0,0,0,0,0,0,0
15,15,15,1.102,387.99616551284487,7.559743777563694,182.87585262207523,0,0,0,0,0,0,0,0,0,0
16,16,16,1.10202,387.9552863198937,7.73156972288065,184.4537542357782,0,0,0,0,0,0,0,0,0,0
17,17,17,1.10204,387.92003488615126,7.697863855525012,186.02437393108508,0,0,0,0,0,0,0,0,0,0
18,18,18,1.10206,387.88468710541326,7.716956658662196,187.5876497026481,0,0,0,0,0,0,0,0,0,0
19,19,19,1.10208,387.8500089972538,7.788588584733475,189.14351983498824,0,0,0,0,0,0,0,0,0,0
20,20,20,1.1021,387.81676241320446,7.912485856848317,190.69192290503088,0,0,0,0,0,0,0,0,0,0
21,21,21,1.10212,387.7867968695366,8.023741130710476,192.23279778448816,0,0,0,0,0,0,0,0,0,0
22,22,22,1.10214,387.7606918756277,7.992822785440241,193.7660836422302,0,0,0,0,0,0,0,0,0,0
23,23,23,1.10216,387.73451438929976,8.013324101668974,195.29171994678453,0,0,0,0,0,0,0,0,0,0
24,24,24,1.10218,387.709041370782,8.084975270283989,196.8096464686147,0,0,0,0,0,0,0,0,0,0
25,25,25,1.1021999999999998,387.6850452862285,8.207491613603889,198.3198032825943,0,0,0,0,0,0,0,0,0,0
26,26,26,1.10222,387.663293884853,8.380573674794968,199.8221307703319,0,0,0,0,0,0,0,0,0,0
27,27,27,1.10224,387.64763741113086,8.34551540784222,201.3165696224834,0,0,0,0,0,0,0,0,0,0
28,28,28,1.10226,387.63182456564766,8.360414774241647,202.80306084118885,0,0,0,0,0,0,0,0,0,0
29,29,29,1.10228,387.616640321335,8.424993804278685,204.28154574229333,0,0,0,0,0,0,0,0,0,0
30,30,30,1.1023,387.6028648526996,8.53895905812006,205.7519659577713,0,0,0,0,0,0,0,0,0,0
31,31,31,1.10232,387.5912732946837,8.702001724120457,207.21426343792368,0,0,0,0,0,0,0,0,0,0
32,32,32,1.10234,387.58583564313,8.655449226779817,208.6683804537633,0,0,0,0,0,0,0,0,0,0
33,33,33,1.10236,387.5800311501554,8.657335767630626,210.11425959925327,0,0,0,0,0,0,0,0,0,0
34,34,34,1.10238,387.57465016891234,8.70737787652456,211.5518437935344,0,0,0,0,0,0,0,0,0,0
35,35,35,1.1024,387.57047798435445,8.805276049636825,212.98107628327028,0,0,0,0,0,0,0,0,0,0
36,36,36,1.10242,387.56829455370377,8.950714856435594,214.40190064478364,0,0,0,0,0,0,0,0,0,0
37,37,37,1.10244,387.5708256767044,9.014195999853415,215.8142607863745,0,0,0,0,0,0,0,0,0,0
38,38,38,1.10246,387.5761418026812,8.995370703989744,217.21810095050805,0,0,0,0,0,0,0,0,0,0
39,39,39,1.10248,387.5815279481649,9.023097816370791,218.61336571591508,0,0,0,0,0,0,0,0,0,0
40,40,40,1.1025,387.5877714009056,9.09707510325848,220.00000000000736,0,0,0,0,0,0,0,0,0,0
41,41,41,1.10252,387.5956538832572,9.21698390151146,221.3779490607749,0,0,0,0,0,0,0,0,0,0
42,42,42,1.10254,387.6072414513817,9.31790200103905,222.74715849917345,0,0,0,0,0,0,0,0,0,0
43,43,43,1.10256,387.6230421332672,9.270279520104708,224.10757426117087,0,0,0,0,0,0,0,0,0,0
44,44,44,1.10258,387.6383910359993,9.26756042546492,225.459142639858,0,0,0,0,0,0,0,0,0,0
45,45,45,1.1026,387.6540747987533,9.309443770843613,226.80181027765363,0,0,0,0,0,0,0,0,0,0
46,46,46,1.10262,387.67087432606337,9.395611727150731,228.1355241683144,0,0,0,0,0,0,0,0,0,0
47,47,47,1.1026399999999998,387.6895644944341,9.525729710294373,229.4602316591115,0,0,0,0,0,0,0,0,0,0
48,48,48,1.10266,387.71225331920914,9.634842335730497,230.7758804528736,0,0,0,0,0,0,0,0,0,0
49,49,49,1.10268,387.73901394643065,9.657952528127892,232.0824186100151,0,0,0,0,0,0,0,0,0,0
50,50,50,1.1027,387.7669739579442,9.659301309081716,233.3797945506704,0,0,0,0,0,0,0,0,0,0
51,51,51,1.10272,387.7953310681452,9.703177464570263,234.6679570566354,0,0,0,0,0,0,0,0,0,0
52,52,52,1.10274,387.8248552661498,9.789251731861452,235.9468552734833,0,0,0,0,0,0,0,0,0,0
53,53,53,1.10276,387.85631010960014,9.917177868225568,237.21643871247912,0,0,0,0,0,0,0,0,0,0
54,54,54,1.10278,387.89264144317775,9.957321848101431,238.4766572526543,0,0,0,0,0,0,0,0,0,0
55,55,55,1.1028,387.9311025541616,9.97391646135298,239.72746114274992,0,0,0,0,0,0,0,0,0,0
56,56,56,1.10282,387.97065026039866,9.966598216232295,240.96880100314752,0,0,0,0,0,0,0,0,0,0
57,57,57,1.10284,388.0104216605707,9.99967942363517,242.2006278278973,0,0,0,0,0,0,0,0,0,0
58,58,58,1.10286,388.051172452242,10.072824632683878,243.4228929865633,0,0,0,0,0,0,0,0,0,0
59,59,59,1.10288,388.0936515846765,10.185681272785756,244.63554822622103,0,0,0,0,0,0,0,0,0,0
60,60,60,1.1029,388.14085222731177,10.208527059354635,245.83854567332884,0,0,0,0,0,0,0,0,0,0
61,61,61,1.10292,388.1888413420149,10.270307579041535,247.03183783558563,0,0,0,0,0,0,0,0,0,0
62,62,62,1.10294,388.23878350075046,10.305975746222227,248.21537760388168,0,0,0,0,0,0,0,0,0,0
63,63,63,1.10296,388.29080559303617,10.315155880522896,249.3891182540721,0,0,0,0,0,0,0,0,0,0
64,64,64,1.1029799999999998,388.34334972274286,10.362179133916374,250.5530134488964,0,0,0,0,0,0,0,0,0,0
65,65,65,1.103,388.397146122994,10.446693100229686,251.70701723977567,0,0,0,0,0,0,0,0,0,0
66,66,66,1.10302,388.45439600605147,10.50360210264712,252.85108406859547,0,0,0,0,0,0,0,0,0,0
67,67,67,1.10304,388.5139360819912,10.532486204541447,253.98516876958703,0,0,0,0,0,0,0,0,0,0
68,68,68,1.10306,388.57437897089926,10.597701984816135,255.10922657098743,0,0,0,0,0,0,0,0,0,0
69,69,69,1.10308,388.6375126038649,10.63412306514568,256.22321309694973,0,0,0,0,0,0,0,0,0,0
70,70,70,1.1031,388.7021245679571,10.641343691755708,257.3270843691735,0,0,0,0,0,0,0,0,0,0
71,71,71,1.10312,388.7672053504556,10.683762533610455,258.42079680872087,0,0,0,0,0,0,0,0,0,0
72,72,72,1.10314,388.83345505375513,10.761018245944678,259.50430723770745,0,0,0,0,0,0,0,0,0,0
73,73,73,1.10316,388.9030934590132,10.80793226268284,260.5775728809771,0,0,0,0,0,0,0,0,0,0
74,74,74,1.10318,388.97486248963065,10.824070537374578,261.6405513678592,0,0,0,0,0,0,0,0,0,0
75,75,75,1.1032,389.0472723329108,10.873856907338393,262.69320073376406,0,0,0,0,0,0,0,0,0,0
76,76,76,1.10322,389.121002059083,10.95692078607668,263.73547942190703,0,0,0,0,0,0,0,0,0,0
77,77,77,1.10324,389.1982627549488,10.943170751457432,264.76734628491914,0,0,0,0,0,0,0,0,0,0
78,78,78,1.10326,389.275542535742,10.961891573791055,265.78876058644494,0,0,0,0,0,0,0,0,0,0
79,79,79,1.10328,389.3535067140742,11.012722730839611,266.7996820028153,0,0,0,0,0,0,0,0,0,0
80,80,80,1.1033,389.4328127550472,11.095287410361305,267.80007062456525,0,0,0,0,0,0,0,0,0,0
81,81,81,1.10332,389.515691408105,11.144290709853696,268.78988695807413,0,0,0,0,0,0,0,0,0,0
82,82,82,1.10334,389.60077869821527,11.159278161717769,269.7690919270969,0,0,0,0,0,0,0,0,0,0
83,83,83,1.10336,389.68646486072606,11.204762465878783,270.73764687428024,0,0,0,0,0,0,0,0,0,0
84,84,84,1.10338,389.7733832851456,11.280363778878128,271.6955135627508,0,0,0,0,0,0,0,0,0,0
85,85,85,1.1034,389.863290964794,11.320723393703762,272.64265417755445,0,0,0,0,0,0,0,0,0,0
86,86,86,1.1034199999999998,389.9547637352828,11.32539796043198,273.5790313272103,0,0,0,0,0,0,0,0,0,0
87,87,87,1.10344,390.0466048117832,11.358965676231373,274.50460804516007,0,0,0,0,0,0,0,0,0,0
88,88,88,1.10346,390.1394228678032,11.421047336478654,275.41934779120305,0,0,0,0,0,0,0,0,0,0
89,89,89,1.10348,390.2338181418722,11.511248459761314,276.32321445299687,0,0,0,0,0,0,0,0,0,0
90,90,90,1.1035,390.3329701052246,11.499080795404184,277.2161723474172,0,0,0,0,0,0,0,0,0,0
91,91,91,1.10352,390.4321148569644,11.514150484305066,278.0981862220313,0,0,0,0,0,0,0,0,0,0
92,92,92,1.10354,390.5318343204004,11.556082798889356,278.9692212564258,0,0,0,0,0,0,0,0,0,0
93,93,93,1.10356,390.6327019782633,11.624488222139544,279.82924306363697,0,0,0,0,0,0,0,0,0,0
94,94,94,1.10358,390.73644052027913,11.653854497623565,280.67821769148406,0,0,0,0,0,0,0,0,0,0
95,95,95,1.1036,390.8414982897616,11.643725962826634,281.5161116238873,0,0,0,0,0,0,0,0,0,0
96,96,96,1.10362,390.9465681547654,11.658821303766308,282.3428917822513,0,0,0,0,0,0,0,0,0,0
97,97,97,1.10364,391.05219626468926,11.698760319975092,283.1585255266812,0,0,0,0,0,0,0,0,0,0
98,98,98,1.10366,391.1589201148537,11.763148762121707,283.96298065736124,0,0,0,0,0,0,0,0,0,0
99,99,99,1.10368,391.2689547400085,11.786385543961202,284.7562254158092,0,0,0,0,0,0,0,0,0,0
100,100,100,1.1037,391.37899631618006,11.833202466203062,285.538228486044,0,0,0,0,0,0,0,0,0,0
101,101,101,1.10372,391.4919708244649,11.837989500765564,286.30895899594486,0,0,0,0,0,0,0,0,0,0
102,102,102,1.10374,391.60525935422527,11.865525856351889,287.0683865183773,0,0,0,0,0,0,0,0,0,0
103,103,103,1.10376,391.7193606323342,11.915418510258895,287.81648107244973,0,0,0,0,0,0,0,0,0,0
104,104,104,1.10378,391.8347643603396,11.987261457379448,288.55321312467703,0,0,0,0,0,0,0,0,0,0
105,105,105,1.1038,391.9519509333852,12.080635949340197,289.2785535901257,0,0,0,0,0,0,0,0,0,0
106,106,106,1.10382,392.073055024874,12.064453050511492,289.99247383360927,0,0,0,0,0,0,0,0,0,0
107,107,107,1.10384,392.1939797312394,12.068893099052891,290.6949456707663,0,0,0,0,0,0,0,0,0,0
108,108,108,1.1038599999999998,392.31518323529,12.093571004649842,291.3859413692177,0,0,0,0,0,0,0,0,0,0
109,109,109,1.10388,392.4371147768815,12.13808960192803,292.06543364964267,0,0,0,0,0,0,0,0,0,0
110,110,110,1.1039,392.5619584349629,12.136632026538146,292.7333956868372,0,0,0,0,0,0,0,0,0,0
111,111,111,1.10392,392.6861954172208,12.154141635546384,293.3898011108158,0,0,0,0,0,0,0,0,0,0
112,112,112,1.10394,392.81273037963086,12.1247951353525,294.0346240078045,0,0,0,0,0,0,0,0,0,0
113,113,113,1.10396,392.9387563031655,12.11359479456168,294.6678389213111,0,0,0,0,0,0,0,0,0,0
114,114,114,1.10398,393.0646814263755,12.120159372109926,295.2894208530836,0,0,0,0,0,0,0,0,0,0
115,115,115,1.104,393.1909050461584,12.144096738835804,295.8993452641372,0,0,0,0,0,0,0,0,0,0
116,116,116,1.10402,393.3178172764778,12.1850041202711,296.49758807570606,0,0,0,0,0,0,0,0,0,0
117,117,117,1.10404,393.4457988127615,12.24246834540457,297.0841256701777,0,0,0,0,0,0,0,0,0,0
118,118,118,1.10406,393.57522070211513,12.316066101273584,297.65893489206246,0,0,0,0,0,0,0,0,0,0
119,119,119,1.10408,393.70644411945966,12.405364193235814,298.2219930488664,0,0,0,0,0,0,0,0,0,0
120,120,120,1.1041,393.8398201497418,12.509919810770572,298.77327791202265,0,0,0,0,0,0,0,0,0,0
121,121,121,1.10412,393.97740461932887,12.497990274242047,299.3127677177536,0,0,0,0,0,0,0,0,0,0
122,122,122,1.10414,394.11482572517497,12.500364447044138,299.8404411679158,0,0,0,0,0,0,0,0,0,0
123,123,123,1.10416,394.252408396034,12.516646978573675,300.35627743087446,0,0,0,0,0,0,0,0,0,0
124,124,124,1.10418,394.3904682329229,12.546433749811372,300.8602561422878,0,0,0,0,0,0,0,0,0,0
125,125,125,1.1041999999999998,394.53035808067375,12.523572913986817,301.3523574059441,0,0,0,0,0,0,0,0,0,0
126,126,126,1.10422,394.6698104169576,12.513357456663472,301.83256179453656,0,0,0,0,0,0,0,0,0,0
127,127,127,1.10424,394.8091140351573,12.515396979484349,302.30085035039656,0,0,0,0,0,0,0,0,0,0
128,128,128,1.10426,394.94854847958686,12.529293244215784,302.7572045863193,0,0,0,0,0,0,0,0,0,0
129,129,129,1.10428,395.0901853940916,12.488811842755116,303.2016064862,0,0,0,0,0,0,0,0,0,0
130,130,130,1.1043,395.2299219257628,12.525179371988392,303.6340385058249,0,0,0,0,0,0,0,0,0,0
131,131,131,1.10432,395.37160830707086,12.506304488107176,304.0544835735105,0,0,0,0,0,0,0,0,0,0
132,132,132,1.10434,395.5111170334732,12.563513168087171,304.4629250908093,0,0,0,0,0,0,0,0,0,0
133,133,133,1.10436,395.65382456611854,12.56463428457444,304.85934693315323,0,0,0,0,0,0,0,0,0,0
134,134,134,1.10438,395.7966133385824,12.575105021275103,305.2437334504795,0,0,0,0,0,0,0,0,0,0
135,135,135,1.1044,395.9396967241557,12.594518402688376,305.6160694678736,0,0,0,0,0,0,0,0,0,0
136,136,136,1.10442,396.0832784526549,12.622461633731604,305.97634028614027,0,0,0,0,0,0,0,0,0,0
137,137,137,1.10444,396.22755248139634,12.658516365228795,306.3245316824079,0,0,0,0,0,0,0,0,0,0
138,138,138,1.10446,396.37270287245593,12.702258962628756,306.66062991067946,0,0,0,0,0,0,0,0,0,0
139,139,139,1.10448,396.51890367627897,12.753260777790103,306.98462170236627,0,0,0,0,0,0,0,0,0,0
140,140,140,1.1045,396.66631882170674,12.811088423668066,307.2964942668329,0,0,0,0,0,0,0,0,0,0
141,141,141,1.10452,396.8151020124868,12.875304051736766,307.5962352918791,0,0,0,0,0,0,0,0,0,0
142,142,142,1.10454,396.96539663032434,12.945465631979408,307.8838329442451,0,0,0,0,0,0,0,0,0,0
143,143,143,1.10456,397.11860718446593,12.954957441527949,308.15927587007064,0,0,0,0,0,0,0,0,0,0
144,144,144,1.10458,397.2725267323453,12.903274780751117,308.4225531953355,0,0,0,0,0,0,0,0,0,0
145,145,145,1.1046,397.4247441602366,12.922400153376174,308.67365452630656,0,0,0,0,0,0,0,0,0,0
146,146,146,1.10462,397.5778819438792,12.879510514328857,308.91256994992864,0,0,0,0,0,0,0,0,0,0
147,147,147,1.1046399999999998,397.7295210769208,12.906684429763288,309.13929003423226,0,0,0,0,0,0,0,0,0,0
148,148,148,1.10466,397.88225696096526,12.870991578041709,309.35380582869846,0,0,0,0,0,0,0,0,0,0
149,149,149,1.10468,398.03365737216507,12.904607181698337,309.55610886460727,0,0,0,0,0,0,0,0,0,0
150,150,150,1.1047,398.18629501511725,12.87449501611956,309.7461911553849,0,0,0,0,0,0,0,0,0,0
151,151,151,1.10472,398.25087585976746,1.8076611376033584,309.9240451969044,1,0,0,0,0,0,0,0,1,0
152,152,152,1.10474,398.1000578150836,1.9636545245787864,310.08966396779743,1,0,0,0,0,0,0,0,1,0
153,153,153,1.10476,397.9492975435202,2.068031528522466,310.2430409297113,1,0,0,0,0,0,0,0,1,0
154,154,154,1.10478,397.7985950492695,2.2241480284178863,310.38417002759195,1,0,0,0,0,0,0,0,1,0
155,155,155,1.1048,397.64795023583696,2.380312526226822,310.5130456899051,1,0,0,0,0,0,0,0,1,0
156,156,156,1.10482,397.49736312761456,2.4847443447203497,310.6296628288555,1,0,0,0,0,0,0,0,1,0
157,157,157,1.10484,397.3468335752147,2.543679841976824,310.7340168406016,1,0,0,0,0,0,0,0,1,0
158,158,158,1.10486,397.1963610882256,2.542789864299928,310.8261036054238,1,0,0,0,0,0,0,0,1,0
159,159,159,1.10488,397.0459455903882,2.5417985199491,310.90591948789523,1,0,0,0,0,0,0,0,1,0
160,160,160,1.1049,396.8955870597484,2.5407059850010523,310.97346133702223,1,0,0,0,0,0,0,0,1,0
161,161,161,1.10492,396.745285517273,2.6245579842065685,311.02872648636685,1,0,0,0,0,0,0,0,1,0
162,162,162,1.10494,396.5950409737915,2.6249569199696823,311.07171275415675,1,0,0,0,0,0,0,0,1,0
163,163,163,1.10496,396.44485333162055,2.625230208530086,311.10241844336684,1,0,0,0,0,0,0,0,1,0
164,164,164,1.10498,396.29472256881866,2.6253998359806543,311.1208423417895,1,0,0,0,0,0,0,0,1,0
165,165,165,1.105,396.1446486634724,2.6254658014374908,311.12698372208087,1,0,0,0,0,0,0,0,1,0
166,166,166,1.10502,395.9946315936776,2.625428102303877,311.1208423417896,1,0,0,0,0,0,0,0,1,0
167,167,167,1.10504,395.84467133753685,2.6252867400740527,311.10241844336684,1,0,0,0,0,0,0,0,1,0
168,168,168,1.10506,395.69476787316233,2.6250417203346994,311.0717127541567,1,0,0,0,0,0,0,0,1,0
169,169,169,1.1050799999999998,395.5449211786735,2.6246930527647154,311.02872648636725,1,0,0,0,0,0,0,0,1,0
170,170,170,1.1051,395.3951312321983,2.62424075113484,310.97346133702206,1,0,0,0,0,0,0,0,1,0
171,171,171,1.10512,395.24539801187376,2.623684833307095,310.90591948789586,1,0,0,0,0,0,0,0,1,0
172,172,172,1.10514,395.0957214958453,2.6230253212341075,310.8261036054237,1,0,0,0,0,0,0,0,1,0
173,173,173,1.10516,394.9461016622667,2.6222622409582104,310.7340168406015,1,0,0,0,0,0,0,0,1,0
174,174,174,1.10518,394.7965384892984,2.621395622610436,310.6296628288554,1,0,0,0,0,0,0,0,1,0
175,175,175,1.1052,394.6470319551111,2.620425500409316,310.51304568990497,1,0,0,0,0,0,0,0,1,0
176,176,176,1.10522,394.49758203788326,2.6193519126595426,310.3841700275943,1,0,0,0,0,0,0,0,1,0
177,177,177,1.10524,394.34818871580126,2.618174901750444,310.2430409297125,1,0,0,0,0,0,0,0,1,0
178,178,178,1.10526,394.1988519670612,2.6168945141543105,310.0896639677974,1,0,0,0,0,0,0,0,1,0
179,179,179,1.10528,394.0495717698668,2.615510800424572,309.9240451969058,1,0,0,0,0,0,0,0,1,0
180,180,180,1.1053,393.9003481024299,2.6140238151937933,309.7461911553864,1,0,0,0,0,0,0,0,1,0
181,181,181,1.10532,393.75118094297136,2.6124336171715195,309.55610886461074,1,0,0,0,0,0,0,0,1,0
182,182,182,1.10534,393.6020702697198,2.610740269141949,309.3538058287003,1,0,0,0,0,0,0,0,1,0
183,183,183,1.10536,393.4530160609134,2.608943837961483,309.13929003423607,1,0,0,0,0,0,0,0,1,0
184,184,184,1.10538,393.3040182947976,2.607044394556043,308.91256994992847,1,0,0,0,0,0,0,0,1,0
185,185,185,1.1054,393.15507694962736,2.605042013918314,308.6736545263064,1,0,0,0,0,0,0,0,1,0
186,186,186,1.1054199999999998,393.00619200366566,2.6029367751047494,308.42255319534,1,0,0,0,0,0,0,0,1,0
187,187,187,1.10544,392.8573634351846,2.600728761232483,308.1592758700704,1,0,0,0,0,0,0,0,1,0
188,188,188,1.10546,392.7085912224628,2.5984180594760105,307.88383294424744,1,0,0,0,0,0,0,0,1,0
189,189,189,1.10548,392.5598753437906,2.59600476106378,307.5962352918788,1,0,0,0,0,0,0,0,1,0
190,190,190,1.1055,392.41121577746446,2.5934889612745646,307.2964942668327,1,0,0,0,0,0,0,0,1,0
191,191,191,1.10552,392.2626125017904,2.5908707594337383,306.98462170236604,1,0,0,0,0,0,0,0,1,0
192,192,192,1.10554,392.11406549508274,2.588150258909304,306.66062991067923,1,0,0,0,0,0,0,0,1,0
193,193,193,1.10556,391.9655747356644,2.585327567107852,306.32453168241074,1,0,0,0,0,0,0,0,1,0
194,194,194,1.10558,391.8171402018671,2.5824027954703057,305.97634028614,1,0,0,0,0,0,0,0,1,0
195,195,195,1.1056,391.668761872031,2.579376059467524,305.6160694678733,1,0,0,0,0,0,0,0,1,0
196,196,196,1.10562,391.5204397245048,2.5762474785957408,305.2437334504792,1,0,0,0,0,0,0,0,1,0
197,197,197,1.10564,391.3721737376452,2.573017176371849,304.8593469331529,1,0,0,0,0,0,0,0,1,0
198,198,198,1.10566,391.2239638898194,2.5696852803285246,304.46292509081263,1,0,0,0,0,0,0,0,1,0
199,199,199,1.10568,391.075810159402,2.566251922009189,304.05448357351014,1,0,0,0,0,0,0,0,1,0
200,200,200,1.1057,390.9277125247759,2.562717236962821,303.6340385058245,1,0,0,0,0,0,0,0,1,0
201,201,201,1.1057142121388714,390.9277125247759,2.562717236962821,303.6340385058245,1,0,0,0,0,0,0,0,1,0
