,Unnamed: 0.1,Unnamed: 0,Time / s,Vo:Measured voltage,IL:Measured current,Vin:Measured voltage,open1:Output,open3:Output,open2:Output,open4:Output,short1:Output,short2:Output,short3:Output,short4:Output,OPEN,SHORT
0,0,0,1.19412909258917,394.121174226962,-12.462286969480068,-299.3127677177502,0,0,0,0,0,0,0,0,0,0
1,1,1,1.19414,394.2591935387903,-12.461077564552586,-299.8404411679172,0,0,0,0,0,0,0,0,0,0
2,2,2,1.19416,394.3972940788293,-12.47376277326968,-300.3562774308712,0,0,0,0,0,0,0,0,0,0
3,3,3,1.19418,394.53579112562096,-12.499940514634272,-300.8602561422937,0,0,0,0,0,0,0,0,0,0
4,4,4,1.1942,394.67564963286384,-12.473438793255992,-301.3523574059498,0,0,0,0,0,0,0,0,0,0
5,5,5,1.1942199999999998,394.81574950308686,-12.45958360917854,-301.8325617945292,0,0,0,0,0,0,0,0,0,0
6,6,6,1.19424,394.9556187961156,-12.457968325773844,-302.300850350402,0,0,0,0,0,0,0,0,0,0
7,7,7,1.19426,395.09553668668747,-12.468196795531831,-302.7572045863164,0,0,0,0,0,0,0,0,0,0
8,8,8,1.19428,395.2350080094766,-12.48986637746542,-303.2016064862012,0,0,0,0,0,0,0,0,0,0
9,9,9,1.1943,395.3764706516001,-12.456705239362291,-303.63403850582216,0,0,0,0,0,0,0,0,0,0
10,10,10,1.19432,395.5165886670202,-12.500041215862804,-304.0544835735116,0,0,0,0,0,0,0,0,0,0
11,11,11,1.19434,395.6584266484281,-12.487677011131549,-304.4629250908104,0,0,0,0,0,0,0,0,0,0
12,12,12,1.19436,395.80003750673205,-12.485090726788345,-304.8593469331508,0,0,0,0,0,0,0,0,0,0
13,13,13,1.19438,395.9416447902502,-12.491883650343407,-305.24373345048053,0,0,0,0,0,0,0,0,0,0
14,14,14,1.1944,396.0834625894455,-12.507650969697352,-305.6160694678712,0,0,0,0,0,0,0,0,0,0
15,15,15,1.19442,396.2256954012425,-12.531982033952582,-305.9763402861412,0,0,0,0,0,0,0,0,0,0
16,16,16,1.19444,396.36853799953167,-12.564460617627727,-306.32453168240886,0,0,0,0,0,0,0,0,0,0
17,17,17,1.19446,396.5121753119069,-12.6046651881145,-306.66062991067736,0,0,0,0,0,0,0,0,0,0
18,18,18,1.19448,396.65678230274233,-12.65216917621488,-306.98462170236706,0,0,0,0,0,0,0,0,0,0
19,19,19,1.1945,396.80252386264897,-12.706541249594569,-307.296494266831,0,0,0,0,0,0,0,0,0,0
20,20,20,1.19452,396.9495547043897,-12.767345588986984,-307.5962352918799,0,0,0,0,0,0,0,0,0,0
21,21,21,1.19454,397.098019265305,-12.834142166980534,-307.8838329442459,0,0,0,0,0,0,0,0,0,0
22,22,22,1.1945599999999998,397.248051616308,-12.90648702922062,-308.15927587006894,0,0,0,0,0,0,0,0,0,0
23,23,23,1.19458,397.3997753775038,-12.983932577856235,-308.4225531953362,0,0,0,0,0,0,0,0,0,0
24,24,24,1.1946,397.5558480334966,-12.933546013373142,-308.67365452630503,0,0,0,0,0,0,0,0,0,0
25,25,25,1.19462,397.71072062176125,-12.887287901661136,-308.91256994992926,0,0,0,0,0,0,0,0,0,0
26,26,26,1.19464,397.8636242190588,-12.911074731297576,-309.13929003423283,0,0,0,0,0,0,0,0,0,0
27,27,27,1.19466,398.01793538502767,-12.871938083808445,-309.3538058286991,0,0,0,0,0,0,0,0,0,0
28,28,28,1.19468,398.1696579917728,-12.902094864472051,-309.55610886460784,0,0,0,0,0,0,0,0,0,0
29,29,29,1.1947,398.323708428014,-12.868492266772124,-309.74619115538366,0,0,0,0,0,0,0,0,0,0
30,30,30,1.19472,398.4769326586626,-12.837029895223314,-309.92404519690643,0,0,0,0,0,0,0,0,0,0
31,31,31,1.19474,398.6285235973598,-12.873741461177897,-310.08966396779493,0,0,0,0,0,0,0,0,0,0
32,32,32,1.19476,398.7817951713858,-12.845394133282708,-310.24304092971306,0,0,0,0,0,0,0,0,0,0
33,33,33,1.19478,398.9327131976223,-12.88445208884618,-310.38417002759354,0,0,0,0,0,0,0,0,0,0
34,34,34,1.1948,399.0861422463319,-12.857601576518505,-310.51304568990315,0,0,0,0,0,0,0,0,0,0
35,35,35,1.19482,399.23888087895807,-12.830864420531386,-310.62966282885577,0,0,0,0,0,0,0,0,0,0
36,36,36,1.19484,399.3900768734967,-12.87039754422392,-310.73401684060093,0,0,0,0,0,0,0,0,0,0
37,37,37,1.19486,399.5429933811489,-12.842711718754956,-310.826103605424,0,0,0,0,0,0,0,0,0,0
38,38,38,1.19488,399.694334128212,-12.880524907664782,-310.9059194878954,0,0,0,0,0,0,0,0,0,0
39,39,39,1.1949,399.8473458515247,-12.850247403425753,-310.97346133702183,0,0,0,0,0,0,0,0,0,0
40,40,40,1.19492,399.9979253189136,-12.884698946368829,-311.028726486367,0,0,0,0,0,0,0,0,0,0
41,41,41,1.19494,400.1508726530973,-12.850212861423278,-311.07171275415647,0,0,0,0,0,0,0,0,0,0
42,42,42,1.19496,400.3020650165948,-12.87969224676438,-311.1024184433669,0,0,0,0,0,0,0,0,0,0
43,43,43,1.19498,400.45307119668576,-12.906073609240092,-311.1208423417896,0,0,0,0,0,0,0,0,0,0
44,44,44,1.1949999999999998,400.60624284931487,-12.862205562959048,-311.12698372208087,0,0,0,0,0,0,0,0,0,0
45,45,45,1.19502,400.7574230370319,-12.881148585697751,-311.1208423417896,0,0,0,0,0,0,0,0,0,0
46,46,46,1.19504,400.9081551933474,-12.895769800736144,-311.102418443367,0,0,0,0,0,0,0,0,0,0
47,47,47,1.19506,401.0591189916569,-12.90567411816982,-311.0717127541566,0,0,0,0,0,0,0,0,0,0
48,48,48,1.19508,401.21019873364855,-12.910448022157317,-311.02872648636713,0,0,0,0,0,0,0,0,0,0
49,49,49,1.1951,401.3612690922778,-12.909681189653597,-310.973461337022,0,0,0,0,0,0,0,0,0,0
50,50,50,1.19512,401.5121951934832,-12.902966754020458,-310.9059194878957,0,0,0,0,0,0,0,0,0,0
51,51,51,1.19514,401.66283270403153,-12.889901566424,-310.82610360542424,0,0,0,0,0,0,0,0,0,0
52,52,52,1.19516,401.8138126788606,-12.870087514488814,-310.73401684060127,0,0,0,0,0,0,0,0,0,0
53,53,53,1.19518,401.9625455137035,-12.9100837574057,-310.62966282885606,0,0,0,0,0,0,0,0,0,0
54,54,54,1.1952,402.1137143444322,-12.875566071078415,-310.51304568990463,0,0,0,0,0,0,0,0,0,0
55,55,55,1.19522,402.26228233199015,-12.900091911515858,-310.38417002759394,0,0,0,0,0,0,0,0,0,0
56,56,56,1.19524,402.4112698602128,-12.916297041550909,-310.24304092971346,0,0,0,0,0,0,0,0,0,0
57,57,57,1.19526,402.5604777876187,-12.923765524923006,-310.08966396779687,0,0,0,0,0,0,0,0,0,0
58,58,58,1.19528,402.7096974079894,-12.922086885155384,-309.9240451969069,0,0,0,0,0,0,0,0,0,0
59,59,59,1.1953,402.8587105843965,-12.910856365028009,-309.7461911553843,0,0,0,0,0,0,0,0,0,0
60,60,60,1.19532,403.0072898891868,-12.889675182505332,-309.5561088646102,0,0,0,0,0,0,0,0,0,0
61,61,61,1.1953399999999998,403.15519874985023,-12.858150782967698,-309.3538058287016,0,0,0,0,0,0,0,0,0,0
62,62,62,1.19536,403.3021916006638,-12.815897087595022,-309.1392900342335,0,0,0,0,0,0,0,0,0,0
63,63,63,1.19538,403.4480140400332,-12.762534737756384,-308.91256994992995,0,0,0,0,0,0,0,0,0,0
64,64,64,1.1954,403.59240299342,-12.697691335259597,-308.67365452630565,0,0,0,0,0,0,0,0,0,0
65,65,65,1.19542,403.7350868817709,-12.621001678318548,-308.422553195337,0,0,0,0,0,0,0,0,0,0
66,66,66,1.1954399999999998,403.8757857953332,-12.532107993098156,-308.15927587007207,0,0,0,0,0,0,0,0,0,0
67,67,67,1.19546,404.0121742468132,-12.565296729035383,-307.8838329442467,0,0,0,0,0,0,0,0,0,0
68,68,68,1.19548,404.1491277391111,-12.585636306573427,-307.5962352918808,0,0,0,0,0,0,0,0,0,0
69,69,69,1.1955,404.2863453922823,-12.592712276740324,-307.29649426683187,0,0,0,0,0,0,0,0,0,0
70,70,70,1.19552,404.4235169907409,-12.586118350796376,-306.98462170236803,0,0,0,0,0,0,0,0,0,0
71,71,71,1.19554,404.5603231775677,-12.5654566495973,-306.6606299106784,0,0,0,0,0,0,0,0,0,0
72,72,72,1.19556,404.6948298730493,-12.597769190950457,-306.3245316824098,0,0,0,0,0,0,0,0,0,0
73,73,73,1.19558,404.82985636640126,-12.615282478640443,-305.97634028614226,0,0,0,0,0,0,0,0,0,0
74,74,74,1.1956,404.96505922813446,-12.617586080230888,-305.6160694678723,0,0,0,0,0,0,0,0,0,0
75,75,75,1.19562,405.1008570789424,-12.604280226036373,-305.24373345048167,0,0,0,0,0,0,0,0,0,0
76,76,76,1.19564,405.2345017914646,-12.642473539452691,-304.859346933152,0,0,0,0,0,0,0,0,0,0
77,77,77,1.19566,405.36877831486265,-12.664301020625544,-304.4629250908116,0,0,0,0,0,0,0,0,0,0
78,78,78,1.19568,405.50330983730055,-12.669352027620626,-304.0544835735128,0,0,0,0,0,0,0,0,0,0
79,79,79,1.1957,405.6377104729294,-12.657226016090425,-303.6340385058234,0,0,0,0,0,0,0,0,0,0
80,80,80,1.19572,405.7715854974922,-12.627532778145747,-303.2016064862024,0,0,0,0,0,0,0,0,0,0
81,81,81,1.19574,405.90453158920553,-12.579892675229967,-302.7572045863177,0,0,0,0,0,0,0,0,0,0
82,82,82,1.19576,406.0361370747736,-12.513936864865022,-302.30085035040327,0,0,0,0,0,0,0,0,0,0
83,83,83,1.1957799999999998,406.1659821803822,-12.42930752114348,-301.8325617945392,0,0,0,0,0,0,0,0,0,0
84,84,84,1.1958,406.2936392875442,-12.325658048843112,-301.35235740595124,0,0,0,0,0,0,0,0,0,0
85,85,85,1.19582,406.41668045656456,-12.338092398893467,-300.8602561422952,0,0,0,0,0,0,0,0,0,0
86,86,86,1.19584,406.53973370595617,-12.33088903006164,-300.3562774308773,0,0,0,0,0,0,0,0,0,0
87,87,87,1.19586,406.66235435862296,-12.303659244620455,-299.8404411679234,0,0,0,0,0,0,0,0,0,0
88,88,88,1.19588,406.78408932291546,-12.256026122063464,-299.3127677177518,0,0,0,0,0,0,0,0,0,0
89,89,89,1.1959,406.9036636541263,-12.255426184894668,-298.7732779120306,0,0,0,0,0,0,0,0,0,0
90,90,90,1.19592,407.0213675189432,-12.301540006390344,-298.22199304887454,0,0,0,0,0,0,0,0,0,0
91,91,91,1.19594,407.1398098324222,-12.326204087959772,-297.6589348920606,0,0,0,0,0,0,0,0,0,0
92,92,92,1.19596,407.2585114306708,-12.329016146889648,-297.084125670181,0,0,0,0,0,0,0,0,0,0
93,93,93,1.19598,407.3769845723538,-12.309586449379673,-296.49758807570413,0,0,0,0,0,0,0,0,0,0
94,94,94,1.196,407.4947332219276,-12.267538030133522,-295.8993452641406,0,0,0,0,0,0,0,0,0,0
95,95,95,1.19602,407.6112533375477,-12.202506904950814,-295.28942085308694,0,0,0,0,0,0,0,0,0,0
96,96,96,1.19604,407.726033163489,-12.114142276208833,-294.66783892130894,0,0,0,0,0,0,0,0,0,0
97,97,97,1.19606,407.8379523460752,-12.070063220124789,-294.03462400780813,0,0,0,0,0,0,0,0,0,0
98,98,98,1.19608,407.9472510389136,-12.069973598323797,-293.3898011108136,0,0,0,0,0,0,0,0,0,0
99,99,99,1.1961,408.05624098621234,-12.045577338820117,-292.7333956868409,0,0,0,0,0,0,0,0,0,0
100,100,100,1.19612,408.1643880063062,-11.996504877560335,-292.0654336496465,0,0,0,0,0,0,0,0,0,0
101,101,101,1.19614,408.2711502085516,-11.922400469216443,-291.38594136922154,0,0,0,0,0,0,0,0,0,0
102,102,102,1.19616,408.3736458050688,-11.959015106991922,-290.6949456707701,0,0,0,0,0,0,0,0,0,0
103,103,103,1.19618,408.4766143668974,-11.969970450472806,-289.9924738336069,0,0,0,0,0,0,0,0,0,0
104,104,104,1.1962,408.57949958958943,-11.95488229458778,-289.27855359012966,0,0,0,0,0,0,0,0,0,0
105,105,105,1.1962199999999998,408.6817372674204,-11.913380662648976,-288.5532131246811,0,0,0,0,0,0,0,0,0,0
106,106,106,1.19624,408.7827556045799,-11.845110003336526,-287.81648107245394,0,0,0,0,0,0,0,0,0,0
107,107,107,1.19626,408.8813910988927,-11.817860453424291,-287.06838651838154,0,0,0,0,0,0,0,0,0,0
108,108,108,1.19628,408.9777993630504,-11.831328653067605,-286.3089589959423,0,0,0,0,0,0,0,0,0,0
109,109,109,1.1963,409.0741619064859,-11.817043982968393,-285.5382284860483,0,0,0,0,0,0,0,0,0,0
110,110,110,1.19632,409.1698862413343,-11.774640940208611,-284.75622541580645,0,0,0,0,0,0,0,0,0,0
111,111,111,1.19634,409.26437251095024,-11.703768990640803,-283.9629806573729,0,0,0,0,0,0,0,0,0,0
112,112,112,1.19636,409.3570138120977,-11.604092750382437,-283.15852552668576,0,0,0,0,0,0,0,0,0,0
113,113,113,1.19638,409.44491870702944,-11.611743179422874,-282.3428917822485,0,0,0,0,0,0,0,0,0,0
114,114,114,1.1964,409.5326429417207,-11.589999715683348,-281.5161116238995,0,0,0,0,0,0,0,0,0,0
115,115,115,1.19642,409.61956833736514,-11.538505660461167,-280.6782176914889,0,0,0,0,0,0,0,0,0,0
116,116,116,1.19644,409.7045065811427,-11.525188743391602,-279.8292430636496,0,0,0,0,0,0,0,0,0,0
117,117,117,1.19646,409.78754307504965,-11.549740915114947,-278.96922125643846,0,0,0,0,0,0,0,0,0,0
118,118,118,1.19648,409.8707365011731,-11.543555865749695,-278.0981862220283,0,0,0,0,0,0,0,0,0,0
119,119,119,1.1965,409.9534497980263,-11.506274006178588,-277.2161723474302,0,0,0,0,0,0,0,0,0,0
120,120,120,1.19652,410.0350388986876,-11.437551458336726,-276.32321445299385,0,0,0,0,0,0,0,0,0,0
121,121,121,1.19654,410.1148530588816,-11.337060223029338,-275.41934779120817,0,0,0,0,0,0,0,0,0,0
122,122,122,1.1965599999999998,410.1907715945179,-11.272837339452408,-274.50460804516524,0,0,0,0,0,0,0,0,0,0
123,123,123,1.19658,410.264249371326,-11.24462432739287,-273.5790313272155,0,0,0,0,0,0,0,0,0,0
124,124,124,1.1966,410.3355602051428,-11.252126520268206,-272.64265417755973,0,0,0,0,0,0,0,0,0,0
125,125,125,1.19662,410.4066635617674,-11.226657944173056,-271.6955135627475,0,0,0,0,0,0,0,0,0,0
126,126,126,1.19664,410.4763412924571,-11.236274592031116,-270.7376468742857,0,0,0,0,0,0,0,0,0,0
127,127,127,1.1966599999999998,410.5458474803849,-11.21225259528608,-269.7690919271024,0,0,0,0,0,0,0,0,0,0
128,128,128,1.19668,410.61450609410167,-11.154251344100697,-268.7898869580797,0,0,0,0,0,0,0,0,0,0
129,129,129,1.1967,410.68163470969927,-11.061946491505289,-267.8000706245708,0,0,0,0,0,0,0,0,0,0
130,130,130,1.19672,410.7465448399258,-10.93503010255473,-266.79968200281183,0,0,0,0,0,0,0,0,0,0
131,131,131,1.19674,410.8063790035444,-10.91011800589724,-265.7887605864507,0,0,0,0,0,0,0,0,0,0
132,132,132,1.19676,410.86416250263727,-10.918513597994671,-264.7673462849156,0,0,0,0,0,0,0,0,0,0
133,133,133,1.19678,410.92174209435376,-10.891447374092898,-263.7354794219128,0,0,0,0,0,0,0,0,0,0
134,134,134,1.1968,410.97789531691154,-10.897070514580538,-262.69320073377,0,0,0,0,0,0,0,0,0,0
135,135,135,1.19682,411.0337847922252,-10.866583118949018,-261.6405513678556,0,0,0,0,0,0,0,0,0,0
136,136,136,1.19684,411.0887072063041,-10.799657659557022,-260.57757288098304,0,0,0,0,0,0,0,0,0,0
137,137,137,1.19686,411.14195332048047,-10.69598310690753,-259.50430723770376,0,0,0,0,0,0,0,0,0,0
138,138,138,1.19688,411.1928082948746,-10.555265064172168,-258.42079680872706,0,0,0,0,0,0,0,0,0,0
139,139,139,1.1969,411.2384601205261,-10.514278431145282,-257.32708436917966,0,0,0,0,0,0,0,0,0,0
140,140,140,1.19692,411.281318815834,-10.572792795106812,-256.22321309694604,0,0,0,0,0,0,0,0,0,0
141,141,141,1.19694,411.3249031657858,-10.593443172619796,-255.10922657099368,0,0,0,0,0,0,0,0,0,0
142,142,142,1.19696,411.368498415009,-10.575890315887964,-253.9851687695832,0,0,0,0,0,0,0,0,0,0
143,143,143,1.19698,411.41138385971,-10.519811325238532,-252.85108406861207,0,0,0,0,0,0,0,0,0,0
144,144,144,1.1969999999999998,411.45283315825696,-10.424899779996,-251.7070172397925,0,0,0,0,0,0,0,0,0,0
145,145,145,1.19702,411.4921146440386,-10.290865862838556,-250.55301344891336,0,0,0,0,0,0,0,0,0,0
146,146,146,1.19704,411.5271519626227,-10.18600968148583,-249.3891182540892,0,0,0,0,0,0,0,0,0,0
147,147,147,1.19706,411.5583025198199,-10.1786749162297,-248.21537760387764,0,0,0,0,0,0,0,0,0,0
148,148,148,1.19708,411.5882213913798,-10.200017860701088,-247.03183783560303,0,0,0,0,0,0,0,0,0,0
149,149,149,1.1971,411.6181494257282,-10.181146866761573,-245.83854567332472,0,0,0,0,0,0,0,0,0,0
150,150,150,1.19712,411.64735271717126,-10.121750167627638,-244.6355482262278,0,0,0,0,0,0,0,0,0,0
151,151,151,1.19714,411.6750921181482,-10.021532161463425,-243.42289298657016,0,0,0,0,0,0,1,0,0,1
152,152,152,1.19716,411.70062353673137,-9.880213924152269,-242.2006278278932,0,0,0,0,0,0,1,0,0,1
153,153,153,1.19718,411.72085998164414,-9.834747551487329,-240.96880100315445,0,0,0,0,0,0,1,0,0,1
154,154,154,1.1972,411.7400701478936,-9.816298691436462,-239.72746114274565,0,0,0,0,0,0,1,0,0,1
155,155,155,1.19722,411.7572706766714,-9.82456244619548,-238.4766572526613,0,0,0,0,0,0,1,0,0,1
156,156,156,1.19724,411.7742370231365,-9.790645916315462,-237.21643871248625,0,0,0,0,0,0,1,0,0,1
157,157,157,1.19726,411.79022542726045,-9.714253744405337,-235.9468552734789,0,0,0,0,0,0,1,0,0,1
158,158,158,1.19728,411.8044873622357,-9.595106703749025,-234.66795705664256,0,0,0,0,0,0,1,0,0,1
159,159,159,1.1973,411.81526310275166,-9.50156611836943,-233.379794550666,0,0,0,0,0,0,1,0,0,1
160,160,160,1.19732,411.8223545473684,-9.502011058176576,-232.0824186100224,0,0,0,0,0,0,1,0,0,1
161,161,161,1.1973399999999998,411.8283945036066,-9.527556880090922,-230.77588045288093,0,0,0,0,0,0,1,0,0,1
162,162,162,1.19736,411.8344913236578,-9.509284376288583,-229.46023165911896,0,0,0,0,0,0,1,0,0,1
163,163,163,1.19738,411.8398990363889,-9.446903066239056,-228.13552416832167,0,0,0,0,0,0,1,0,0,1
164,164,164,1.1974,411.843867158314,-9.34013821548576,-226.80181027764905,0,0,0,0,0,0,1,0,0,1
165,165,165,1.19742,411.8456409632432,-9.188730926931694,-225.45914263986552,0,0,0,0,0,0,1,0,0,1
166,166,166,1.1974399999999998,411.8431168185263,-9.129698771722474,-224.10757426117857,0,0,0,0,0,0,1,0,0,1
167,167,167,1.19746,411.8373584166142,-9.16279293725472,-222.74715849918115,0,0,0,0,0,0,1,0,0,1
168,168,168,1.19748,411.83176945954,-9.150492514205023,-221.37794906078267,0,0,0,0,0,0,1,0,0,1
169,169,169,1.1975,411.82560485851656,-9.092515912435212,-220.00000000000264,0,0,0,0,0,0,1,0,0,1
170,170,170,1.19752,411.81811532514257,-8.988596841153349,-218.61336571593543,0,0,0,0,0,0,1,0,0,1
171,171,171,1.19754,411.8085476239776,-8.838484391347714,-217.21810095050324,0,0,0,0,0,0,1,0,0,1
172,172,172,1.19756,411.7948654363177,-8.779188879759698,-215.81426078639512,0,0,0,0,0,0,1,0,0,1
173,173,173,1.19758,411.7780485174902,-8.810459456629518,-214.4019006448044,0,0,0,0,0,0,1,0,0,1
174,174,174,1.1976,411.7613577980994,-8.794798112556554,-212.9810762832783,0,0,0,0,0,0,1,0,0,1
175,175,175,1.19762,411.744051674714,-8.731935406676246,-211.5518437935554,0,0,0,0,0,0,1,0,0,1
176,176,176,1.19764,411.7253846965009,-8.621616703466215,-210.1142595992483,0,0,0,0,0,0,1,0,0,1
177,177,177,1.19766,411.7046078005188,-8.463602246048998,-208.66838045377148,0,0,0,0,0,0,1,0,0,1
178,178,178,1.19768,411.6786237510447,-8.46347679794889,-207.2142634379451,0,0,0,0,0,0,1,0,0,1
179,179,179,1.1977,411.6516552451816,-8.483787727026282,-205.75196595776623,0,0,0,0,0,0,1,0,0,1
180,180,180,1.19772,411.6246343875161,-8.455669301208598,-204.28154574230163,0,0,0,0,0,0,1,0,0,1
181,181,181,1.19774,411.59682559106943,-8.378866820725497,-202.8030608411837,0,0,0,0,0,0,1,0,0,1
182,182,182,1.19776,411.56748979724495,-8.25313985639491,-201.31656962249176,0,0,0,0,0,0,1,0,0,1
183,183,183,1.1977799999999998,411.5350421016248,-8.146842089888537,-199.82213077034027,0,0,0,0,0,0,1,0,0,1
184,184,184,1.1978,411.4992118908268,-8.128317730730743,-198.3198032826028,0,0,0,0,0,0,1,0,0,1
185,185,185,1.19782,411.4621545523266,-8.128744903372816,-196.8096464686232,0,0,0,0,0,0,1,0,0,1
186,186,186,1.19784,411.4247511079532,-8.079302711353133,-195.29171994677927,0,0,0,0,0,0,1,0,0,1
187,187,187,1.19786,411.38627468620086,-7.979753176690186,-193.7660836422388,0,0,0,0,0,0,1,0,0,1
188,188,188,1.19788,411.34599532969446,-7.82987201895713,-192.23279778448287,0,0,0,0,0,0,1,0,0,1
189,189,189,1.1979,411.3013393069426,-7.7665292767153264,-190.6919229050396,0,0,0,0,0,0,1,0,0,1
190,190,190,1.19792,411.2545440793151,-7.78949328627855,-189.1435198349969,0,0,0,0,0,0,1,0,0,1
191,191,191,1.19794,411.20772707572144,-7.761436369834365,-187.58764970264272,0,0,0,0,0,0,1,0,0,1
192,192,192,1.19796,411.1601755800636,-7.682125648562718,-186.0243739310939,0,0,0,0,0,0,1,0,0,1
193,193,193,1.19798,411.1111739915926,-7.55134128737615,-184.4537542357728,0,0,0,0,0,0,1,0,0,1
194,194,194,1.198,411.060004008144,-7.368876545099037,-182.87585262208407,0,0,0,0,0,0,1,0,0,1
195,195,195,1.19802,411.0033927153427,-7.40850927958626,-181.2907313828676,0,0,0,0,0,0,1,0,0,1
196,196,196,1.19804,410.9469794332262,-7.39601053170994,-179.69845309598114,0,0,0,0,0,0,1,0,0,1
197,197,197,1.19806,410.8900675945793,-7.331154734459141,-178.09908062187392,0,0,0,0,0,0,1,0,0,1
198,198,198,1.19808,410.8319579716304,-7.213728697837857,-176.49267710100375,0,0,0,0,0,0,1,0,0,1
199,199,199,1.1981,410.77194884235325,-7.0435316536466175,-174.87930595146003,0,0,0,0,0,0,1,0,0,1
200,200,200,1.19812,410.7068927256327,-7.0941510532248495,-173.25903086635873,0,0,0,0,0,0,1,0,0,1
201,201,201,1.19812909258917,410.7068927256327,-7.0941510532248495,-173.25903086635873,0,0,0,0,0,0,1,0,0,1
