,Unnamed: 0.1,Unnamed: 0,Time / s,Vo:Measured voltage,IL:Measured current,Vin:Measured voltage,open1:Output,open3:Output,open2:Output,open4:Output,short1:Output,short2:Output,short3:Output,short4:Output,OPEN,SHORT
0,0,0,1.1559592562389336,407.1030757941791,-12.33840967419868,-297.65893489206184,0,0,0,0,0,0,0,0,0,0
1,1,1,1.15596,407.22207110249934,-12.342110922308173,-297.08412567018223,0,0,0,0,0,0,0,0,0,0
2,2,2,1.15598,407.3408574275666,-12.323562950063415,-296.49758807570544,0,0,0,0,0,0,0,0,0,0
3,3,3,1.156,407.458938556166,-12.282388321151087,-295.8993452641419,0,0,0,0,0,0,0,0,0,0
4,4,4,1.15602,407.5758102584805,-12.21822258484505,-295.2894208530828,0,0,0,0,0,0,0,0,0,0
5,5,5,1.15604,407.690960580617,-12.130714481736662,-294.6678389213103,0,0,0,0,0,0,0,0,0,0
6,6,6,1.15606,407.8025229588018,-12.087477411460812,-294.03462400780955,0,0,0,0,0,0,0,0,0,0
7,7,7,1.15608,407.9122241655469,-12.088231636453289,-293.38980111081503,0,0,0,0,0,0,0,0,0,0
8,8,8,1.1561,408.0216347742148,-12.064669266894718,-292.7333956868424,0,0,0,0,0,0,0,0,0,0
9,9,9,1.15612,408.1302203743477,-12.016420306869051,-292.0654336496418,0,0,0,0,0,0,0,0,0,0
10,10,10,1.15614,408.2374388372371,-11.943128584828118,-291.385941369223,0,0,0,0,0,0,0,0,0,0
11,11,11,1.15616,408.3404016054981,-11.980533521339106,-290.6949456707717,0,0,0,0,0,0,0,0,0,0
12,12,12,1.15618,408.4438540411571,-11.99226783317247,-289.99247383360847,0,0,0,0,0,0,0,0,0,0
13,13,13,1.1562,408.54723958549386,-11.977946924080912,-289.27855359013125,0,0,0,0,0,0,0,0,0,0
14,14,14,1.15622,408.6499937702589,-11.9372004323538,-288.55321312467606,0,0,0,0,0,0,0,0,0,0
15,15,15,1.15624,408.7515445290014,-11.869672427994796,-287.8164810724556,0,0,0,0,0,0,0,0,0,0
16,16,16,1.1562599999999998,408.84999830111445,-11.84314786891464,-287.06838651838314,0,0,0,0,0,0,0,0,0,0
17,17,17,1.15628,408.9469624477638,-11.857339546217046,-286.308958995944,0,0,0,0,0,0,0,0,0,0
18,18,18,1.1563,409.0438958672055,-11.843765136016527,-285.53822848605006,0,0,0,0,0,0,0,0,0,0
19,19,19,1.15632,409.1402057819012,-11.802058790250912,-284.75622541580816,0,0,0,0,0,0,0,0,0,0
20,20,20,1.15634,409.23529203839286,-11.731869636505554,-283.9629806573747,0,0,0,0,0,0,0,0,0,0
21,21,21,1.15636,409.32854742964633,-11.63286195967151,-283.15852552668014,0,0,0,0,0,0,0,0,0,0
22,22,22,1.15638,409.41786290356094,-11.572935166243855,-282.3428917822503,0,0,0,0,0,0,0,0,0,0
23,23,23,1.1564,409.5047927085732,-11.551827125417752,-281.51611162390134,0,0,0,0,0,0,0,0,0,0
24,24,24,1.15642,409.590937448213,-11.500986540711184,-280.6782176914831,0,0,0,0,0,0,0,0,0,0
25,25,25,1.15644,409.6738391033194,-11.556600038779235,-279.82924306365135,0,0,0,0,0,0,0,0,0,0
26,26,26,1.15646,409.7581166774788,-11.5135585765886,-278.9692212564247,0,0,0,0,0,0,0,0,0,0
27,27,27,1.15648,409.8405827811469,-11.50805261880856,-278.0981862220302,0,0,0,0,0,0,0,0,0,0
28,28,28,1.1565,409.9225831897123,-11.471466100525626,-277.2161723474241,0,0,0,0,0,0,0,0,0,0
29,29,29,1.15652,410.00347416215175,-11.403454811078063,-276.32321445299584,0,0,0,0,0,0,0,0,0,0
30,30,30,1.15654,410.0826052730379,-11.303690411402869,-275.41934779121016,0,0,0,0,0,0,0,0,0,0
31,31,31,1.15656,410.1578610939034,-11.240204162564304,-274.50460804515893,0,0,0,0,0,0,0,0,0,0
32,32,32,1.15658,410.23069645293407,-11.212736902700366,-273.57903132721754,0,0,0,0,0,0,0,0,0,0
33,33,33,1.1566,410.3013851107066,-11.220993295003248,-272.6426541775618,0,0,0,0,0,0,0,0,0,0
34,34,34,1.15662,410.37133112234267,-11.264673375167527,-271.6955135627496,0,0,0,0,0,0,0,0,0,0
35,35,35,1.15664,410.4423464113812,-11.206661776010831,-270.7376468742878,0,0,0,0,0,0,0,0,0,0
36,36,36,1.15666,410.5112808828943,-11.183397296921632,-269.7690919270957,0,0,0,0,0,0,0,0,0,0
37,37,37,1.15668,410.5793832679696,-11.126165884673956,-268.78988695808187,0,0,0,0,0,0,0,0,0,0
38,38,38,1.1566999999999998,410.64597137977165,-11.03464284756962,-267.80007062457304,0,0,0,0,0,0,0,0,0,0
39,39,39,1.15672,410.7103569610907,-10.908519900835914,-266.79968200281405,0,0,0,0,0,0,0,0,0,0
40,40,40,1.15674,410.7696905448301,-10.884400373040933,-265.7887605864529,0,0,0,0,0,0,0,0,0,0
41,41,41,1.15676,410.8276632147504,-10.89359332058061,-264.7673462849179,0,0,0,0,0,0,0,0,0,0
42,42,42,1.15678,410.88424963683406,-10.935786949181711,-263.7354794219151,0,0,0,0,0,0,0,0,0,0
43,43,43,1.1568,410.94128445730826,-10.942195183388677,-262.6932007337628,0,0,0,0,0,0,0,0,0,0
44,44,44,1.15682,410.9980702355622,-10.912473823465362,-261.6405513678579,0,0,0,0,0,0,0,0,0,0
45,45,45,1.15684,411.0539032795038,-10.84629503439149,-260.5775728809854,0,0,0,0,0,0,0,0,0,0
46,46,46,1.15686,411.10807396662494,-10.74334748745518,-259.50430723770614,0,0,0,0,0,0,0,0,0,0
47,47,47,1.15688,411.1598670676284,-10.60333649489706,-258.42079680872945,0,0,0,0,0,0,0,0,0,0
48,48,48,1.1569,411.20718846212986,-10.494503607711628,-257.32708436917216,0,0,0,0,0,0,0,0,0,0
49,49,49,1.15692,411.24969366054376,-10.553670390229726,-256.2232130969484,0,0,0,0,0,0,0,0,0,0
50,50,50,1.15694,411.2929369697546,-10.574980280317003,-255.10922657099616,0,0,0,0,0,0,0,0,0,0
51,51,51,1.15696,411.3362037604941,-10.558093770556264,-253.98516876958564,0,0,0,0,0,0,0,0,0,0
52,52,52,1.15698,411.37877345012487,-10.502687699131956,-252.85108406861465,0,0,0,0,0,0,0,0,0,0
53,53,53,1.157,411.4199198131779,-10.40845538080656,-251.70701723977427,0,0,0,0,0,0,0,0,0,0
54,54,54,1.15702,411.4589112941707,-10.275106731381255,-250.55301344891592,0,0,0,0,0,0,0,0,0,0
55,55,55,1.1570399999999998,411.4936739281695,-10.170936034703988,-249.38911825409173,0,0,0,0,0,0,0,0,0,0
56,56,56,1.15706,411.5245670881352,-10.164280966279415,-248.2153776038802,0,0,0,0,0,0,0,0,0,0
57,57,57,1.15708,411.5542432422002,-10.186302941162532,-247.0318378355949,0,0,0,0,0,0,0,0,0,0
58,58,58,1.1571,411.583941037192,-10.168115616485949,-245.83854567332736,0,0,0,0,0,0,0,0,0,0
59,59,59,1.15712,411.61292664473774,-10.109406974520738,-244.63554822623047,0,0,0,0,0,0,0,0,0,0
60,60,60,1.15714,411.64046099091206,-10.009881344269996,-243.4228929865618,0,0,0,0,0,0,0,0,0,0
61,61,61,1.15716,411.66580005641214,-9.869259513934727,-242.20062782789583,0,0,0,0,0,0,0,0,0,0
62,62,62,1.15718,411.6858600230851,-9.824481537314778,-240.96880100315715,0,0,0,0,0,0,0,0,0,0
63,63,63,1.1572,411.7036012224446,-9.87532149593926,-239.72746114274835,0,0,0,0,0,0,0,0,0,0
64,64,64,1.15722,411.72185880238817,-9.88427213403924,-238.47665725266407,0,0,0,0,0,0,0,0,0,0
65,65,65,1.15724,411.7398936888439,-9.85102184438309,-237.21643871247755,0,0,0,0,0,0,0,0,0,0
66,66,66,1.15726,411.7569617527648,-9.775275052518024,-235.94685527348167,0,0,0,0,0,0,0,0,0,0
67,67,67,1.15728,411.7723140947136,-9.656752321856064,-234.6679570566453,0,0,0,0,0,0,0,0,0,0
68,68,68,1.1573,411.78519733113376,-9.495190453161303,-233.3797945506688,0,0,0,0,0,0,0,0,0,0
69,69,69,1.15732,411.7921958859456,-9.496203722442802,-232.0824186100253,0,0,0,0,0,0,0,0,0,0
70,70,70,1.15734,411.7981535238909,-9.522314417823443,-230.775880452872,0,0,0,0,0,0,0,0,0,0
71,71,71,1.15736,411.804177652572,-9.504608151446131,-229.4602316591218,0,0,0,0,0,0,0,0,0,0
72,72,72,1.15738,411.8095223188103,-9.442794261253209,-228.13552416832468,0,0,0,0,0,0,0,0,0,0
73,73,73,1.1574,411.81343705398575,-9.336597830971822,-226.80181027765195,0,0,0,0,0,0,0,0,0,0
74,74,74,1.15742,411.8151671436828,-9.185759781457897,-225.45914263986847,0,0,0,0,0,0,0,0,0,0
75,75,75,1.15744,411.81178664895646,-9.127283687711218,-224.10757426116925,0,0,0,0,0,0,0,0,0,0
76,76,76,1.15746,411.80600522025696,-9.160942650372874,-222.74715849918408,0,0,0,0,0,0,0,0,0,0
77,77,77,1.1574799999999998,411.80040248773406,-9.14920726939764,-221.37794906078565,0,0,0,0,0,0,0,0,0,0
78,78,78,1.1575,411.7942333617316,-9.09179578658448,-220.00000000000568,0,0,0,0,0,0,0,0,0,0
79,79,79,1.15752,411.78674855022746,-8.988441743135521,-218.6133657159385,0,0,0,0,0,0,0,0,0,0
80,80,80,1.15754,411.777194811413,-8.838894062140227,-217.21810095050628,0,0,0,0,0,0,0,0,0,0
81,81,81,1.15756,411.7627318134965,-8.780148528714351,-215.81426078639817,0,0,0,0,0,0,0,0,0,0
82,82,82,1.15758,411.7459465704149,-8.811975922687699,-214.40190064478188,0,0,0,0,0,0,0,0,0,0
83,83,83,1.1576,411.7292962817798,-8.796870681999604,-212.9810762832685,0,0,0,0,0,0,0,0,0,0
84,84,84,1.15762,411.71203932839455,-8.734563212722737,-211.55184379355856,0,0,0,0,0,0,0,0,0,0
85,85,85,1.15764,411.6934302412564,-8.624798726581686,-210.11425959925148,0,0,0,0,0,0,0,0,0,0
86,86,86,1.15766,411.6727199368575,-8.467337314298035,-208.66838045377463,0,0,0,0,0,0,0,0,0,0
87,87,87,1.15768,411.64680921171134,-8.467747662048883,-207.2142634379219,0,0,0,0,0,0,0,0,0,0
88,88,88,1.1577,411.6199214620661,-8.48858769926141,-205.75196595776944,0,0,0,0,0,0,0,0,0,0
89,89,89,1.15772,411.5929893341112,-8.46099688096981,-204.28154574230484,0,0,0,0,0,0,0,0,0,0
90,90,90,1.15774,411.5652772140996,-8.38472037337507,-202.8030608411869,0,0,0,0,0,0,0,0,0,0
91,91,91,1.15776,411.53604601465,-8.259517613743553,-201.316569622495,0,0,0,0,0,0,0,0,0,0
92,92,92,1.15778,411.504553392745,-8.085162374675944,-199.82213077033003,0,0,0,0,0,0,0,0,0,0
93,93,93,1.1578,411.4678321316813,-8.067148946429164,-198.31980328260607,0,0,0,0,0,0,0,0,0,0
94,94,94,1.1578199999999998,411.4299008815517,-8.068096026912054,-196.80964646862645,0,0,0,0,0,0,0,0,0,0
95,95,95,1.15784,411.39163151808407,-8.019187569505796,-195.29171994678268,0,0,0,0,0,0,0,0,0,0
96,96,96,1.15786,411.35229736685767,-7.920185462717563,-193.76608364224208,0,0,0,0,0,0,0,0,0,0
97,97,97,1.15788,411.3111686655433,-7.7708652894877215,-192.23279778448625,0,0,0,0,0,0,0,0,0,0
98,98,98,1.1579,411.26537426754567,-7.776622727507735,-190.69192290504296,0,0,0,0,0,0,0,0,0,0
99,99,99,1.1579199999999998,411.2187371568693,-7.800135392732884,-189.14351983500032,0,0,0,0,0,0,0,0,0,0
100,100,100,1.15794,411.1720858389749,-7.77262455080288,-187.58764970264613,0,0,0,0,0,0,0,0,0,0
101,101,101,1.15796,411.12470755810926,-7.693857205916034,-186.0243739310973,0,0,0,0,0,0,0,0,0,0
102,102,102,1.15798,411.0758866722573,-7.563613406637171,-184.45375423577624,0,0,0,0,0,0,0,0,0,0
103,103,103,1.158,411.02490483638655,-7.381686296101701,-182.8758526220876,0,0,0,0,0,0,0,0,0,0
104,104,104,1.15802,410.96848101154194,-7.421830260573995,-181.29073138285668,0,0,0,0,0,0,0,0,0,0
105,105,105,1.15804,410.9122619223178,-7.409839849078724,-179.69845309598463,0,0,0,0,0,0,0,0,0,0
106,106,106,1.15806,410.85555095971455,-7.345489395085352,-178.09908062187745,0,0,0,0,0,0,0,0,0,0
107,107,107,1.15808,410.7976488528688,-7.228565609711882,-176.49267710100727,0,0,0,0,0,0,0,0,0,0
108,108,108,1.1581,410.7378538353641,-7.05886762652592,-174.87930595146355,0,0,0,0,0,0,0,0,0,0
109,109,109,1.15812,410.673008792594,-7.109960111831409,-173.2590308663476,0,0,0,0,0,0,0,0,0,0
110,110,110,1.15814,410.608495251096,-7.107829122398585,-171.6319158113747,0,0,0,0,0,0,0,0,0,0
111,111,111,1.15816,410.5436344140071,-7.052258147250996,-169.99802502224654,0,0,0,0,0,0,0,0,0,0
112,112,112,1.15818,410.477745061097,-6.943042382091725,-168.35742300214403,0,0,0,0,0,0,0,0,0,0
113,113,113,1.1582,410.4101436989063,-6.77998876878704,-166.71017451930007,0,0,0,0,0,0,0,0,0,0
114,114,114,1.15822,410.3380487857849,-6.768062551758816,-165.05634460417485,0,0,0,0,0,0,0,0,0,0
115,115,115,1.15824,410.2652280169342,-6.770255841621585,-163.39599854721632,0,0,0,0,0,0,0,0,0,0
116,116,116,1.1582599999999998,410.19212642717815,-6.717973546610868,-161.72920189601396,0,0,0,0,0,0,0,0,0,0
117,117,117,1.15828,410.11808272640445,-6.611020807806722,-160.05602045283035,0,0,0,0,0,0,0,0,0,0
118,118,118,1.1583,410.0424335806919,-6.449213832750617,-158.37652027203427,0,0,0,0,0,0,0,0,0,0
119,119,119,1.15832,409.96300880442726,-6.369018441261581,-156.69076765738663,0,0,0,0,0,0,0,0,0,0
120,120,120,1.15834,409.88161682072337,-6.3702076254257705,-154.99882915954473,0,0,0,0,0,0,0,0,0,0
121,121,121,1.15836,409.79994490993823,-6.315934123219908,-153.30077157331277,0,0,0,0,0,0,0,0,0,0
122,122,122,1.15838,409.7173535508278,-6.206014156757663,-151.59666193512743,0,0,0,0,0,0,0,0,0,0
123,123,123,1.1584,409.6332014084989,-6.040274335814158,-149.886567520304,0,0,0,0,0,0,0,0,0,0
124,124,124,1.15842,409.54498523708025,-6.0233048459551535,-148.1705558404263,0,0,0,0,0,0,0,0,0,0
125,125,125,1.15844,409.45607394495,-6.018361411533724,-146.44869464072818,0,0,0,0,0,0,0,0,0,0
126,126,126,1.15846,409.36682927968417,-5.957001333484297,-144.7210518973104,0,0,0,0,0,0,0,0,0,0
127,127,127,1.15848,409.2766350652622,-5.839052779362845,-142.98769581458143,0,0,0,0,0,0,0,0,0,0
128,128,128,1.1585,409.1840761659009,-5.732542459768515,-141.24869482245597,0,0,0,0,0,0,0,0,0,0
129,129,129,1.15852,409.0896686819058,-5.637281550111427,-139.50411757369957,0,0,0,0,0,0,0,0,0,0
130,130,130,1.15854,408.993231736629,-5.621233938977466,-137.75403294126653,0,0,0,0,0,0,0,0,0,0
131,131,131,1.15856,408.8963650208635,-5.547863894274716,-135.9985100154698,0,0,0,0,0,0,0,0,0,0
132,132,132,1.15858,408.7984773682685,-5.417012141661588,-134.2376181013803,0,0,0,0,0,0,0,0,0,0
133,133,133,1.1586,408.6978243810536,-5.3647492168597015,-132.47142671597982,0,0,0,0,0,0,0,0,0,0
134,134,134,1.15862,408.5958733502957,-5.322749073925486,-130.70000558546397,0,0,0,0,0,0,0,0,0,0
135,135,135,1.15864,408.4930675125264,-5.29081864982524,-128.92342464253792,0,0,0,0,0,0,0,0,0,0
136,136,136,1.15866,408.3897029241444,-5.200696630970044,-127.14175402354316,0,0,0,0,0,0,0,0,0,0
137,137,137,1.15868,408.2852148880544,-5.0522367103959525,-125.35506406581722,0,0,0,0,0,0,0,0,0,0
138,138,138,1.1586999999999998,408.1779652209004,-4.98134948936681,-123.56342530480428,0,0,0,0,0,0,0,0,0,0
139,139,139,1.15872,408.06915898010647,-4.987811619607348,-121.7669084713185,0,0,0,0,0,0,0,0,0,0
140,140,140,1.15874,407.9601788526333,-4.935403272477548,-119.96558448880091,0,0,0,0,0,0,0,0,0,0
141,141,141,1.15876,407.8504891564533,-4.823983563490778,-118.159524470389,0,0,0,0,0,0,0,0,0,0
142,142,142,1.15878,407.7388885271303,-4.721368782197254,-116.3487997163216,0,0,0,0,0,0,0,0,0,0
143,143,143,1.1588,407.6257851444024,-4.627387845058179,-114.53348171081323,0,0,0,0,0,0,0,0,0,0
144,144,144,1.15882,407.51103999145806,-4.609779691708334,-112.71364211959248,0,0,0,0,0,0,0,0,0,0
145,145,145,1.15884,407.3959293313728,-4.5325193957484,-110.88935278677756,0,0,0,0,0,0,0,0,0,0
146,146,146,1.15886,407.27931553604026,-4.463353109413134,-109.06068573217108,0,0,0,0,0,0,0,0,0,0
147,147,147,1.15888,407.16156701537966,-4.402112710003891,-107.22771314845023,0,0,0,0,0,0,0,0,0,0
148,148,148,1.1589,407.04311303497167,-4.28078715112011,-105.39050739820097,0,0,0,0,0,0,0,0,0,0
149,149,149,1.15892,406.9230653152517,-4.167076769252964,-103.54914101119373,0,0,0,0,0,0,0,0,0,0
150,150,150,1.15894,406.80119483287245,-4.128613067291916,-101.70368668140388,0,0,0,0,0,0,0,0,0,0
151,151,151,1.15896,406.6739769619567,0.0003068193135355,-99.85421726419176,0,1,0,0,0,0,0,0,1,0
152,152,152,1.15898,406.5199621697531,0.000308498131605,-98.0008057734766,0,1,0,0,0,0,0,0,1,0
153,153,153,1.159,406.3660058885079,0.0003089476558583,-96.14352537873695,0,1,0,0,0,0,0,0,1,0
154,154,154,1.15902,406.2121080980508,0.0002344574659707,-94.28244940225626,0,1,0,0,0,0,0,0,1,0
155,155,155,1.1590399999999998,406.0582687778742,-9.241770639068868e-05,-92.41765131611062,0,1,0,0,0,0,0,0,1,0
156,156,156,1.15906,405.9044878611141,-9.05492599409358e-05,-90.54920473931848,0,1,0,0,0,0,0,0,1,0
157,157,157,1.15908,405.7507652771321,-8.867723876146228e-05,-88.67718343498525,0,1,0,0,0,0,0,0,1,0
158,158,158,1.1591,405.5971009103751,-8.680171675642559e-05,-86.80166130727265,0,1,0,0,0,0,0,0,1,0
159,159,159,1.15912,405.44349473879487,-8.492276796825653e-05,-84.92271239861692,0,1,0,0,0,0,0,0,1,0
160,160,160,1.1591399999999998,405.2899467403521,-8.304046657461896e-05,-83.0404108866867,0,1,0,0,0,0,0,0,1,0
161,161,161,1.15916,405.13645689301626,-8.115488688553234e-05,-81.15483108150556,0,1,0,0,0,0,0,0,1,0
162,162,162,1.15918,404.98302517476384,-7.926610334048777e-05,-79.26604742256974,0,1,0,0,0,0,0,0,1,0
163,163,163,1.1592,404.8296515635806,-7.737419050539173e-05,-77.37413447578977,0,1,0,0,0,0,0,0,1,0
164,164,164,1.15922,404.6763360374608,-7.547922306975738e-05,-75.47916693068355,0,1,0,0,0,0,0,0,1,0
165,165,165,1.15924,404.5230785744064,-7.358127584362019e-05,-73.58121959729078,0,1,0,0,0,0,0,0,1,0
166,166,166,1.15926,404.3698791524281,-7.168042375472123e-05,-71.68036740335675,0,1,0,0,0,0,0,0,1,0
167,167,167,1.15928,404.21673774954496,-6.97767418454289e-05,-69.77668539125409,0,1,0,0,0,0,0,0,1,0
168,168,168,1.1593,404.0636543437836,-6.787030526982839e-05,-67.87024871507177,0,1,0,0,0,0,0,0,1,0
169,169,169,1.15932,403.9106289131794,-6.596118929080557e-05,-65.96113263769992,0,1,0,0,0,0,0,0,1,0
170,170,170,1.15934,403.75766143577766,-6.404946927693867e-05,-64.04941252772048,0,1,0,0,0,0,0,0,1,0
171,171,171,1.15936,403.60475188962926,-6.21352206997295e-05,-62.1351638566392,0,1,0,0,0,0,0,0,1,0
172,172,172,1.15938,403.45190025279487,-6.02185191304168e-05,-60.218462195698656,0,1,0,0,0,0,0,0,1,0
173,173,173,1.1594,403.2991065033441,-5.829944023702779e-05,-58.29938321292912,0,1,0,0,0,0,0,0,1,0
174,174,174,1.15942,403.1463706193534,-5.637805978159737e-05,-56.37800267036957,0,1,0,0,0,0,0,0,1,0
175,175,175,1.15944,402.99369257890817,-5.44544536168841e-05,-54.454396420781805,0,1,0,0,0,0,0,0,1,0
176,176,176,1.15946,402.8410723601025,-5.252869768360038e-05,-52.52864040488162,0,1,0,0,0,0,0,0,1,0
177,177,177,1.1594799999999998,402.6885099410375,-5.060086800727558e-05,-50.60081064820172,0,1,0,0,0,0,0,0,1,0
178,178,178,1.1595,402.53600529982407,-4.867104069530716e-05,-48.67098325814242,0,1,0,0,0,0,0,0,1,0
179,179,179,1.15952,402.3835584145814,-4.673929193400753e-05,-46.739234421019646,0,1,0,0,0,0,0,0,1,0
180,180,180,1.15954,402.2311692634357,-4.480569798547554e-05,-44.80564039893483,0,1,0,0,0,0,0,0,1,0
181,181,181,1.15956,402.07883782452274,-4.287033518472413e-05,-42.8702775269041,0,1,0,0,0,0,0,0,1,0
182,182,182,1.15958,401.9265640759856,-4.093327993652787e-05,-40.933222209704766,0,1,0,0,0,0,0,0,1,0
183,183,183,1.1596,401.77434799597546,-3.8994608712546256e-05,-38.99455091899903,0,1,0,0,0,0,0,0,1,0
184,184,184,1.15962,401.62218956265264,-3.705439804818204e-05,-37.05434019019238,0,1,0,0,0,0,0,0,1,0
185,185,185,1.15964,401.4700887541858,-3.5112724539612835e-05,-35.112666619464655,0,1,0,0,0,0,0,0,1,0
186,186,186,1.15966,401.3180455487509,-3.316966484081887e-05,-33.16960686079888,0,1,0,0,0,0,0,0,1,0
187,187,187,1.15968,401.1660599245331,-3.1225295660434984e-05,-31.225237622832125,0,1,0,0,0,0,0,0,1,0
188,188,188,1.1597,401.0141318597256,-2.927969375886227e-05,-29.279635665967778,0,1,0,0,0,0,0,0,1,0
189,189,189,1.15972,400.8622613325296,-2.733293594511464e-05,-27.33287779922212,0,1,0,0,0,0,0,0,1,0
190,190,190,1.15974,400.710448321154,-2.5385099073840062e-05,-25.385040877244712,0,1,0,0,0,0,0,0,1,0
191,191,191,1.15976,400.5586928038177,-2.3436260042337927e-05,-23.436201797337247,0,1,0,0,0,0,0,0,1,0
192,192,192,1.15978,400.4069947587466,-2.148649578740079e-05,-21.4864374962944,0,1,0,0,0,0,0,0,1,0
193,193,193,1.1598,400.25535416417455,-1.953588328241847e-05,-19.535824947507503,0,1,0,0,0,0,0,0,1,0
194,194,194,1.15982,400.1037709983444,-1.7584499534214865e-05,-17.58444115780238,0,1,0,0,0,0,0,0,1,0
195,195,195,1.15984,399.95224523950674,-1.563242158006168e-05,-15.632363164452077,0,1,0,0,0,0,0,0,1,0
196,196,196,1.15986,399.8007768659208,-1.3679726484688968e-05,-13.679668032188594,0,1,0,0,0,0,0,0,1,0
197,197,197,1.15988,399.64936585585366,-1.1726491337120618e-05,-11.726432850036876,0,1,0,0,0,0,0,0,1,0
198,198,198,1.1599,399.49801218758114,-9.772793247770817e-06,-9.77273472841278,0,1,0,0,0,0,0,0,1,0
199,199,199,1.1599199999999998,399.3467158393869,-7.818709345277194e-06,-7.818650795955211,0,1,0,0,0,0,0,0,1,0
200,200,200,1.15994,399.1954767895624,-5.864316773491347e-06,-5.864258196516532,0,1,0,0,0,0,0,0,1,0
201,201,201,1.1599592562389334,399.1954767895624,-5.864316773491347e-06,-5.864258196516532,0,1,0,0,0,0,0,0,1,0
