,Unnamed: 0.1,Unnamed: 0,Time / s,Vo:Measured voltage,IL:Measured current,Vin:Measured voltage,open1:Output,open3:Output,open2:Output,open4:Output,short1:Output,short2:Output,short3:Output,short4:Output,OPEN,SHORT
0,0,0,1.1895048305224574,403.05818933681593,2.0047212270278765,48.670983258134896,0,0,0,0,0,0,0,0,0,0
1,1,1,1.18952,402.912814292934,1.9823680065569351,46.7392344210296,0,0,0,0,0,0,0,0,0,0
2,2,2,1.18954,402.7672970210991,1.8961898345667405,44.80564039892729,0,0,0,0,0,0,0,0,0,0
3,3,3,1.18956,402.6214054536647,1.74614623799492,42.87027752689655,0,0,0,0,0,0,0,0,0,0
4,4,4,1.18958,402.4746209909684,1.6663580240345477,40.933222209714735,0,0,0,0,0,0,0,0,0,0
5,5,5,1.1896,402.32724946894007,1.6566552298251989,38.994550918991465,0,0,0,0,0,0,0,0,0,0
6,6,6,1.18962,402.179807196206,1.5828080355871663,37.05434019018481,0,0,0,0,0,0,0,0,0,0
7,7,7,1.18964,402.0320998127127,1.444786210864428,35.11266661945708,0,0,0,0,0,0,0,0,0,0
8,8,8,1.18966,401.88378561852977,1.30954258185907,33.169606860791305,0,0,0,0,0,0,0,0,0,0
9,9,9,1.1896799999999998,401.7347760613837,1.3108985560972648,31.225237622842133,0,0,0,0,0,0,0,0,0,0
10,10,10,1.1897,401.5857481465266,1.2478282827562286,29.2796356659602,0,0,0,0,0,0,0,0,0,0
11,11,11,1.18972,401.4365457009902,1.1203119689107477,27.33287779921453,0,0,0,0,0,0,0,0,0,0
12,12,12,1.18974,401.28690149084485,0.9952135527175174,25.38504087723712,0,0,0,0,0,0,0,0,0,0
13,13,13,1.18976,401.1368158174012,0.9393070195162329,23.436201797329645,0,0,0,0,0,0,0,0,0,0
14,14,14,1.1897799999999998,400.9865685459782,0.8856091142605406,21.48643749630444,0,0,0,0,0,0,0,0,0,0
15,15,15,1.1898,400.83622177211737,0.7672322515846915,19.535824947499894,0,0,0,0,0,0,0,0,0,0
16,16,16,1.18982,400.68555492359,0.7177338251380404,17.584441157794767,0,0,0,0,0,0,0,0,0,0
17,17,17,1.18984,400.53482083611465,0.603454574017557,15.63236316444446,0,0,0,0,0,0,0,0,0,0
18,18,18,1.18986,400.3838428925175,0.5578567123182147,13.679668032180976,0,0,0,0,0,0,0,0,0,0
19,19,19,1.18988,400.2328275554465,0.4473860911433313,11.72643285002926,0,0,0,0,0,0,0,0,0,0
20,20,20,1.1899,400.0816468303117,0.4054099296334454,9.77273472840516,0,0,0,0,0,0,0,0,0,0
21,21,21,1.18992,399.9304555374712,0.2984791071169133,7.81865079594759,0,0,0,0,0,0,0,0,0,0
22,22,22,1.18994,399.7791778887863,0.1932335041851201,5.864258196526592,0,0,0,0,0,0,0,0,0,0
23,23,23,1.18996,399.6278511227808,0.1562205259282278,3.909634086250894,0,0,0,0,0,0,0,0,0,0
24,24,24,1.18998,399.476549479621,0.1207308081455482,1.9548556302981528,0,0,0,0,0,0,0,0,0,0
25,25,25,1.19,399.3252844741148,0.0201531863387284,1.0060871365015932e-11,0,0,0,0,0,0,0,0,0,0
26,26,26,1.19002,399.1740535409848,-0.0124312746425186,-1.954855630278032,0,0,0,0,0,0,0,0,0,0
27,27,27,1.19004,399.0228798811608,-0.110154469586829,-3.9096340862307737,0,0,0,0,0,0,0,0,0,0
28,28,28,1.19006,398.8717879108604,-0.1400296533859054,-5.864258196506473,0,0,0,0,0,0,0,0,0,0
29,29,29,1.19008,398.7207672027256,-0.2350850150103619,-7.818650795945155,0,0,0,0,0,0,0,0,0,0
30,30,30,1.1901,398.569837473473,-0.3952900199421368,-9.772734728385048,0,0,0,0,0,0,0,0,0,0
31,31,31,1.1901199999999998,398.4191577030669,-0.4878052123578671,-11.72643285000915,0,0,0,0,0,0,0,0,0,0
32,32,32,1.19014,398.2686707506656,-0.579116789406439,-13.679668032178544,0,0,0,0,0,0,0,0,0,0
33,33,33,1.19016,398.1183676520686,-0.6692568365431574,-15.632363164442028,0,0,0,0,0,0,0,0,0,0
34,34,34,1.19018,397.9683475021204,-0.7582603799630014,-17.584441157792337,0,0,0,0,0,0,0,0,0,0
35,35,35,1.1902,397.81859761839286,-0.8461539649515305,-19.535824947497463,0,0,0,0,0,0,0,0,0,0
36,36,36,1.19022,397.6691451249469,-0.9329634255015924,-21.486437496302003,0,0,0,0,0,0,0,0,0,0
37,37,37,1.19024,397.51995945465006,-1.0187097016455202,-23.43620179732721,0,0,0,0,0,0,0,0,0,0
38,38,38,1.19026,397.37127324080194,-1.0371882055853772,-25.385040877234687,0,0,0,0,0,0,0,0,0,0
39,39,39,1.19028,397.2227362246401,-1.1208927584126565,-27.332877799212103,0,0,0,0,0,0,0,0,0,0
40,40,40,1.1903,397.0744668698744,-1.2697678273739663,-29.27963566595777,0,0,0,0,0,0,0,0,0,0
41,41,41,1.19032,396.9269849280975,-1.2852918696332616,-31.22523762283971,0,0,0,0,0,0,0,0,0,0
42,42,42,1.19034,396.7797849483132,-1.2998725083160894,-33.16960686078888,0,0,0,0,0,0,0,0,0,0
43,43,43,1.19036,396.6327550502736,-1.3796217234751251,-35.11266661945466,0,0,0,0,0,0,0,0,0,0
44,44,44,1.19038,396.4860530450926,-1.5244739481047274,-37.0543401901824,0,0,0,0,0,0,0,0,0,0
45,45,45,1.1904,396.340244718025,-1.6022503697765291,-38.99455091898904,0,0,0,0,0,0,0,0,0,0
46,46,46,1.19042,396.19500203131366,-1.6130117537659046,-40.933222209712326,0,0,0,0,0,0,0,0,0,0
47,47,47,1.19044,396.04994554487774,-1.6888396962802512,-42.870277526894135,0,0,0,0,0,0,0,0,0,0
48,48,48,1.19046,395.90527220838766,-1.8296585991119405,-44.80564039892488,0,0,0,0,0,0,0,0,0,0
49,49,49,1.19048,395.7614755703991,-1.969432648448399,-46.739234421009705,0,0,0,0,0,0,0,0,0,0
50,50,50,1.1905,395.61875134613246,-1.9762708883531743,-48.670983258132495,0,0,0,0,0,0,0,0,0,0
51,51,51,1.19052,395.47622407789765,-2.048028004606373,-50.6008106481918,0,0,0,0,0,0,0,0,0,0
52,52,52,1.19054,395.33412956029713,-2.1846183890301214,-52.52864040487172,0,0,0,0,0,0,0,0,0,0
53,53,53,1.1905599999999998,395.1932522369217,-2.2542265076059325,-54.45439642077192,0,0,0,0,0,0,0,0,0,0
54,54,54,1.19058,395.053059042464,-2.3227299855538623,-56.378002670359685,0,0,0,0,0,0,0,0,0,0
55,55,55,1.1906,394.91342280473447,-2.390097474447148,-58.29938321291923,0,0,0,0,0,0,0,0,0,0
56,56,56,1.19062,394.77426230417854,-2.522094898292774,-60.21846219567145,0,0,0,0,0,0,0,0,0,0
57,57,57,1.19064,394.6364761454494,-2.5870829048596446,-62.135163856629326,0,0,0,0,0,0,0,0,0,0
58,58,58,1.19066,394.4991882527431,-2.7165806037533304,-64.04941252774525,0,0,0,0,0,0,0,0,0,0
59,59,59,1.19068,394.3630842232265,-2.7790302459463283,-65.96113263769008,0,0,0,0,0,0,0,0,0,0
60,60,60,1.1907,394.2281521137773,-2.774455434352152,-67.8702487150447,0,0,0,0,0,0,0,0,0,0
61,61,61,1.19072,394.09341730923165,-2.834230011535821,-69.7766853912443,0,0,0,0,0,0,0,0,0,0
62,62,62,1.19074,393.9592108807346,-2.958243564778526,-71.68036740334696,0,0,0,0,0,0,0,0,0,0
63,63,63,1.19076,393.8261659338068,-3.0807458685036533,-73.5812195972982,0,0,0,0,0,0,0,0,0,0
64,64,64,1.19078,393.6948495545258,-3.070451999809228,-75.47916693067381,0,0,0,0,0,0,0,0,0,0
65,65,65,1.1908,393.5637119157869,-3.124199078655836,-77.37413447578001,0,0,0,0,0,0,0,0,0,0
66,66,66,1.19082,393.43312125093007,-3.2418669580259887,-79.26604742256,0,0,0,0,0,0,0,0,0,0
67,67,67,1.19084,393.3037741781312,-3.357782664913445,-81.15483108149586,0,0,0,0,0,0,0,0,0,0
68,68,68,1.19086,393.1762693221097,-3.340822304658482,-83.04041088667701,0,0,0,0,0,0,0,0,0,0
69,69,69,1.19088,393.0489112759154,-3.3875485712482227,-84.92271239860726,0,0,0,0,0,0,0,0,0,0
70,70,70,1.1908999999999998,392.9221047691834,-3.497831750622863,-86.801661307263,0,0,0,0,0,0,0,0,0,0
71,71,71,1.19092,392.796253536055,-3.671536859127241,-88.6771834349756,0,0,0,0,0,0,0,0,0,0
72,72,72,1.19094,392.6730087950058,-3.712198975896304,-90.54920473930888,0,0,0,0,0,0,0,0,0,0
73,73,73,1.19096,392.5504466888592,-3.750681651379735,-92.41765131610104,0,0,0,0,0,0,0,0,0,0
74,74,74,1.19098,392.42842287123113,-3.8523052189748928,-94.28244940224668,0,0,0,0,0,0,0,0,0,0
75,75,75,1.1909999999999998,392.30794995935247,-3.9515463774843487,-96.1435253787274,0,0,0,0,0,0,0,0,0,0
76,76,76,1.19102,392.1888023250454,-4.048305266845685,-98.00080577346704,0,0,0,0,0,0,0,0,0,0
77,77,77,1.19104,392.07120070818667,-4.077140496014328,-99.85421726418222,0,0,0,0,0,0,0,0,0,0
78,78,78,1.19106,391.9541030138743,-4.168653875093707,-101.70368668139436,0,0,0,0,0,0,0,0,0,0
79,79,79,1.19108,391.8385979315783,-4.257391178029976,-103.54914101118422,0,0,0,0,0,0,0,0,0,0
80,80,80,1.1911,391.72443325796473,-4.343239730345049,-105.39050739820816,0,0,0,0,0,0,0,0,0,0
81,81,81,1.19112,391.6118419019023,-4.36082285735236,-107.2277131484408,0,0,0,0,0,0,0,0,0,0
82,82,82,1.19114,391.4996947983476,-4.440575753998163,-109.06068573216166,0,0,0,0,0,0,0,0,0,0
83,83,83,1.19116,391.3891484417665,-4.517110215401205,-110.88935278676816,0,0,0,0,0,0,0,0,0,0
84,84,84,1.19118,391.2799228261173,-4.590301117850153,-112.71364211958311,0,0,0,0,0,0,0,0,0,0
85,85,85,1.1912,391.1716280409652,-4.725218335694165,-114.53348171082033,0,0,0,0,0,0,0,0,0,0
86,86,86,1.19122,391.06546106061,-4.79133782430682,-116.34879971629586,0,0,0,0,0,0,0,0,0,0
87,87,87,1.19124,390.960882620418,-4.853738478034871,-118.15952447037972,0,0,0,0,0,0,0,0,0,0
88,88,88,1.19126,390.85758344669847,-4.912282696300994,-119.96558448879162,0,0,0,0,0,0,0,0,0,0
89,89,89,1.19128,390.7551398474841,-5.031958668628624,-121.76690847129298,0,0,0,0,0,0,0,0,0,0
90,90,90,1.1913,390.65482529219673,-5.082370951252007,-123.56342530479502,0,0,0,0,0,0,0,0,0,0
91,91,91,1.19132,390.55604085743096,-5.128515689771519,-125.35506406580802,0,0,0,0,0,0,0,0,0,0
92,92,92,1.1913399999999998,390.45844649177246,-5.170243490006981,-127.14175402353398,0,0,0,0,0,0,0,0,0,0
93,93,93,1.19136,390.3615931741913,-5.272465529550256,-128.92342464252877,0,0,0,0,0,0,0,0,0,0
94,94,94,1.19138,390.2666066371339,-5.3699496209079935,-130.70000558545485,0,0,0,0,0,0,0,0,0,0
95,95,95,1.1914,390.17313816856057,-5.462535240597366,-132.4714267159707,0,0,0,0,0,0,0,0,0,0
96,96,96,1.19142,390.08215944183047,-5.485061492580029,-134.23761810137125,0,0,0,0,0,0,0,0,0,0
97,97,97,1.19144,389.99176127422623,-5.5673896168289225,-135.99851001547665,0,0,0,0,0,0,0,0,0,0
98,98,98,1.19146,389.90255842448255,-5.709318604818302,-137.75403294125752,0,0,0,0,0,0,0,0,0,0
99,99,99,1.19148,389.81680444664,-5.71574851432074,-139.5041175736906,0,0,0,0,0,0,0,0,0,0
100,100,100,1.1915,389.73192730488506,-5.71647772101252,-141.24869482244696,0,0,0,0,0,0,0,0,0,0
101,101,101,1.19152,389.6474182165298,-5.7762773691723455,-142.9876958145725,0,0,0,0,0,0,0,0,0,0
102,102,102,1.19154,389.5639201821394,-5.894939581541798,-144.72105189731712,0,0,0,0,0,0,0,0,0,0
103,103,103,1.19156,389.4826843930187,-6.007339164876793,-146.4486946407193,0,0,0,0,0,0,0,0,0,0
104,104,104,1.19158,389.4041524072363,-6.048392081194988,-148.17055584041745,0,0,0,0,0,0,0,0,0,0
105,105,105,1.1916,389.3269297783351,-6.082823202678456,-149.8865675202952,0,0,0,0,0,0,0,0,0,0
106,106,106,1.19162,389.2504726111838,-6.175317283441183,-151.59666193511865,0,0,0,0,0,0,0,0,0,0
107,107,107,1.19164,389.17544779353256,-6.325650055934667,-153.3007715733194,0,0,0,0,0,0,0,0,0,0
108,108,108,1.19166,389.1043395803399,-6.339056128986165,-154.998829159536,0,0,0,0,0,0,0,0,0,0
109,109,109,1.19168,389.03425962160514,-6.345054078624047,-156.69076765737796,0,0,0,0,0,0,0,0,0,0
110,110,110,1.1917,388.9646309585432,-6.408272413394958,-158.3765202720256,0,0,0,0,0,0,0,0,0,0
111,111,111,1.19172,388.8961454720599,-6.528481772397157,-160.05602045282174,0,0,0,0,0,0,0,0,0,0
112,112,112,1.19174,388.8294919322648,-6.705441422998308,-161.72920189600538,0,0,0,0,0,0,0,0,0,0
113,113,113,1.19176,388.76782149606805,-6.679750870049063,-163.39599854720777,0,0,0,0,0,0,0,0,0,0
114,114,114,1.1917799999999998,388.7062109248184,-6.71037631287715,-165.05634460416633,0,0,0,0,0,0,0,0,0,0
115,115,115,1.1918,388.6453753215629,-6.797084925015192,-166.71017451927665,0,0,0,0,0,0,0,0,0,0
116,116,116,1.19182,388.5860264784535,-6.93963175709506,-168.35742300213556,0,0,0,0,0,0,0,0,0,0
117,117,117,1.19184,388.53057888141535,-7.008268429679801,-169.9980250222381,0,0,0,0,0,0,0,0,0,0
118,118,118,1.19186,388.47725376188106,-7.002768663190775,-171.63191581135155,0,0,0,0,0,0,0,0,0,0
119,119,119,1.19188,388.4242478406628,-7.052395821604913,-173.25903086635392,0,0,0,0,0,0,0,0,0,0
120,120,120,1.1919,388.3722942301266,-7.1569026457285245,-174.87930595145522,0,0,0,0,0,0,0,0,0,0
121,121,121,1.19192,388.32212238315554,-7.31602906133599,-176.49267710099895,0,0,0,0,0,0,0,0,0,0
122,122,122,1.19194,388.2765787078637,-7.335390568457367,-178.0990806218692,0,0,0,0,0,0,0,0,0,0
123,123,123,1.19196,388.2322565155201,-7.344162000939469,-179.69845309597642,0,0,0,0,0,0,0,0,0,0
124,124,124,1.19198,388.1884533470165,-7.406798055183949,-181.2907313828629,0,0,0,0,0,0,0,0,0,0
125,125,125,1.192,388.14591788185743,-7.523037833731459,-182.8758526220794,0,0,0,0,0,0,0,0,0,0
126,126,126,1.19202,388.10539478567233,-7.692606947435466,-184.4537542357681,0,0,0,0,0,0,0,0,0,0
127,127,127,1.19204,388.0704507545319,-7.656540487871543,-186.0243739310892,0,0,0,0,0,0,0,0,0,0
128,128,128,1.19206,388.0353837587671,-7.6732686860780035,-187.5876497026381,0,0,0,0,0,0,0,0,0,0
129,129,129,1.19208,388.00095973539385,-7.74253242038216,-189.1435198349924,0,0,0,0,0,0,0,0,0,0
130,130,130,1.1921,387.967940459308,-7.8640583409737665,-190.69192290503497,0,0,0,0,0,0,0,0,0,0
131,131,131,1.1921199999999998,387.93817252261687,-7.972914548176004,-192.2327977844783,0,0,0,0,0,0,0,0,0,0
132,132,132,1.19214,387.91220844176064,-7.939519876463764,-193.76608364223424,0,0,0,0,0,0,0,0,0,0
133,133,133,1.19216,387.8861419568176,-7.957543464718927,-195.29171994677483,0,0,0,0,0,0,0,0,0,0
134,134,134,1.19218,387.8607499829674,-8.026716001514426,-196.80964646861867,0,0,0,0,0,0,0,0,0,0
135,135,135,1.1922,387.8368049485711,-8.146753307456537,-198.31980328259831,0,0,0,0,0,0,0,0,0,0
136,136,136,1.1922199999999998,387.8150745723148,-8.317356424480051,-199.8221307703223,0,0,0,0,0,0,0,0,0,0
137,137,137,1.19224,387.7993691912894,-8.279719552125371,-201.3165696224873,0,0,0,0,0,0,0,0,0,0
138,138,138,1.19226,387.7834743124088,-8.292042145651045,-202.80306084117936,0,0,0,0,0,0,0,0,0,0
139,139,139,1.19228,387.7681749141164,-8.354046807638126,-204.28154574229723,0,0,0,0,0,0,0,0,0,0
140,140,140,1.1923,387.7542511851448,-8.465440670280907,-205.75196595776188,0,0,0,0,0,0,0,0,0,0
141,141,141,1.19232,387.74247828337343,-8.625915493542772,-207.2142634379276,0,0,0,0,0,0,0,0,0,0
142,142,142,1.19234,387.7367784631881,-8.576699407815694,-208.6683804537672,0,0,0,0,0,0,0,0,0,0
143,143,143,1.19236,387.730675629186,-8.575928097141942,-210.1142595992441,0,0,0,0,0,0,0,0,0,0
144,144,144,1.19238,387.7249602055064,-8.623318739312962,-211.5518437935382,0,0,0,0,0,0,0,0,0,0
145,145,145,1.1924,387.7204175583661,-8.718572476968804,-212.9810762832612,0,0,0,0,0,0,0,0,0,0
146,146,146,1.19242,387.7178277364972,-8.861374524383221,-214.40190064480024,0,0,0,0,0,0,0,0,0,0
147,147,147,1.19244,387.7201331293263,-8.922178844530332,-215.8142607863909,0,0,0,0,0,0,0,0,0,0
148,148,148,1.19246,387.7249129165394,-8.90063160058982,-217.2181009504864,0,0,0,0,0,0,0,0,0,0
149,149,149,1.19248,387.72972384041134,-8.925647818147066,-218.6133657159313,0,0,0,0,0,0,0,0,0,0
150,150,150,1.1925,387.7353533535082,-8.996925984374958,-219.9999999999985,0,0,0,0,0,0,0,0,0,0
151,151,151,1.19252,387.6237727298968,0.0001662458659574,-221.3779490607786,0,0,1,0,0,0,0,0,1,0
152,152,152,1.19254,387.47697784507193,0.0001647298613969,-222.7471584991771,0,0,1,0,0,0,0,0,1,0
153,153,153,1.1925599999999998,387.33023906552745,0.0001632226956278,-224.10757426116228,0,0,1,0,0,0,0,0,1,0
154,154,154,1.19258,387.18355631070574,0.000161682829158,-225.4591426398616,0,0,1,0,0,0,0,0,1,0
155,155,155,1.1926,387.036929558692,3.899565800545786e-06,-226.80181027764507,0,0,1,0,0,0,0,0,1,0
156,156,156,1.19262,386.89035872583,-0.0038425011676876,-228.13552416831783,0,0,1,0,0,0,0,0,1,0
157,157,157,1.19264,386.7438436087722,-0.2111973367023112,-229.460231659115,0,0,1,0,0,0,0,0,1,0
158,158,158,1.19266,386.5973843545988,-0.1786441255157573,-230.77588045287703,0,0,1,0,0,0,0,0,1,0
159,159,159,1.19268,386.45098064648295,-0.1023181837895386,-232.0824186100185,0,0,1,0,0,0,0,0,1,0
160,160,160,1.1927,386.304632388789,-0.0639893164044187,-233.37979455066213,0,0,1,0,0,0,0,0,1,0
161,161,161,1.19272,386.158336046306,-3.9289668651419785,-234.6679570566388,0,0,1,0,0,0,0,0,1,0
162,162,162,1.19274,386.01209846494544,-4.207760618858968,-235.9468552734751,0,0,1,0,0,0,0,0,1,0
163,163,163,1.19276,385.8659165336464,-4.2346656183699904,-237.21643871248247,0,0,1,0,0,0,0,0,1,0
164,164,164,1.19278,385.7197900414543,-4.218327466537165,-238.4766572526576,0,0,1,0,0,0,0,0,1,0
165,165,165,1.1928,385.5737189289568,-4.200708689503837,-239.727461142742,0,0,1,0,0,0,0,0,1,0
166,166,166,1.19282,385.4277033066736,-3.9726108675960696,-240.9688010031508,0,0,1,0,0,0,0,0,1,0
167,167,167,1.19284,385.2817427368519,-4.1206871443761806,-242.2006278278895,0,0,1,0,0,0,0,0,1,0
168,168,168,1.19286,385.1358410015733,-0.3971870264087478,-243.42289298656647,0,0,1,0,0,0,0,0,1,0
169,169,169,1.19288,384.9899838395227,-8.530034317491946,-244.63554822622424,0,0,1,0,0,0,0,0,1,0
170,170,170,1.1928999999999998,384.844192987876,-4.456857948921701,-245.8385456733212,0,0,1,0,0,0,0,0,1,0
171,171,171,1.19292,384.69845743931455,-0.3265659922147338,-247.0318378355888,0,0,1,0,0,0,0,0,1,0
172,172,172,1.19294,384.5527659214824,-8.579230124039345,-248.2153776038741,0,0,1,0,0,0,0,0,1,0
173,173,173,1.19296,384.4071408206386,-4.438683048731548,-249.3891182540752,0,0,1,0,0,0,0,0,1,0
174,174,174,1.19298,384.2615709531202,-0.2477557208149871,-250.55301344889943,0,0,1,0,0,0,0,0,1,0
175,175,175,1.1929999999999998,384.11604489125455,-8.617307251732507,-251.7070172397684,0,0,1,0,0,0,0,0,1,0
176,176,176,1.19302,383.9705855095479,-4.170281563299913,-252.8510840686088,0,0,1,0,0,0,0,0,1,0
177,177,177,1.19304,383.8251696485689,-12.614783694771369,-253.9851687695696,0,0,1,0,0,0,0,0,1,0
178,178,178,1.19306,383.67982011673166,-8.646001125314115,-255.1092265709904,0,0,1,0,0,0,0,0,1,0
179,179,179,1.19308,383.534529436799,-0.5301402896461979,-256.22321309694274,0,0,1,0,0,0,0,0,1,0
180,180,180,1.1931,383.389278717296,-9.087738035180337,-257.3270843691764,0,0,1,0,0,0,0,0,1,0
181,181,181,1.19312,383.244098528888,-0.5406705376674462,-258.4207968087238,0,0,1,0,0,0,0,0,1,0
182,182,182,1.19314,383.09895780025926,-9.171166286799783,-259.5043072377006,0,0,1,0,0,0,0,0,1,0
183,183,183,1.19316,382.9538876983639,-0.5453180108595092,-260.5775728809799,0,0,1,0,0,0,0,0,1,0
184,184,184,1.19318,382.8088568772632,-9.247350840406927,-261.6405513678524,0,0,1,0,0,0,0,0,1,0
185,185,185,1.1932,382.66389677090194,-0.5497851662009523,-262.69320073376696,0,0,1,0,0,0,0,0,1,0
186,186,186,1.19322,382.5189757740484,-9.321980955699184,-263.73547942190976,0,0,1,0,0,0,0,0,1,0
187,187,187,1.19324,382.374125577385,-0.5541639145862604,-264.7673462849126,0,0,1,0,0,0,0,0,1,0
188,188,188,1.19326,382.2293143215615,-9.39513743315937,-265.78876058644767,0,0,1,0,0,0,0,0,1,0
189,189,189,1.19328,382.0845739488873,-0.5584550686366347,-266.7996820028089,0,0,1,0,0,0,0,0,1,0
190,190,190,1.1933,381.93987235094113,-9.466810224106696,-267.80007062456787,0,0,1,0,0,0,0,0,1,0
191,191,191,1.19332,381.7952417165924,-0.5626579751995145,-268.7898869580768,0,0,1,0,0,0,0,0,1,0
192,192,192,1.1933399999999998,381.6506496934342,-9.536988035038872,-269.7690919270907,0,0,1,0,0,0,0,0,1,0
193,193,193,1.19336,381.50612871179175,-0.5667719710297298,-270.7376468742828,0,0,1,0,0,0,0,0,1,0
194,194,194,1.19338,381.361646180397,-9.605659784508374,-271.6955135627447,0,0,1,0,0,0,0,0,1,0
195,195,195,1.1934,381.21723476588727,-0.5707964065319127,-272.6426541775569,0,0,1,0,0,0,0,0,1,0
196,196,196,1.19342,381.07286164329486,-9.67281462850212,-273.5790313272128,0,0,1,0,0,0,0,0,1,0
197,197,197,1.19344,380.9285597103892,-0.5747306462469349,-274.50460804516246,0,0,1,0,0,0,0,0,1,0
198,198,198,1.19346,380.7842959137016,-9.738441962537674,-275.41934779120544,0,0,1,0,0,0,0,0,1,0
199,199,199,1.19348,380.6401033769176,-0.5785740689584935,-276.3232144529912,0,0,1,0,0,0,0,0,1,0
200,200,200,1.1935,380.4959488233018,-9.802531423343911,-277.2161723474196,0,0,1,0,0,0,0,0,1,0
201,201,201,1.1935048305224571,380.4959488233018,-9.802531423343911,-277.2161723474196,0,0,1,0,0,0,0,0,1,0
