,Unnamed: 0.1,Unnamed: 0,Time / s,Vo:Measured voltage,IL:Measured current,Vin:Measured voltage,short1:Output,short2:Output,short3:Output,short4:Output,open1:Output,open3:Output,open2:Output,open4:Output,OPEN,SHORT
0,0,0,1.1839235015279908,392.8269067483168,12.106418732053438,293.3898011108128,0,0,0,0,0,0,0,0,0,0
1,1,1,1.18394,392.9512721400352,12.139050020584865,294.03462400780734,0,0,0,0,0,0,0,0,0,0
2,2,2,1.18396,393.0775301191522,12.124382026859484,294.66783892130815,0,0,0,0,0,0,0,0,0,0
3,3,3,1.18398,393.2036083595422,12.127474425835388,295.2894208530862,0,0,0,0,0,0,0,0,0,0
4,4,4,1.184,393.3299061075937,12.14793706283116,295.89934526413987,0,0,0,0,0,0,0,0,0,0
5,5,5,1.18402,393.4568134716564,12.185369138395655,296.49758807570333,0,0,0,0,0,0,0,0,0,0
6,6,6,1.18404,393.5847111864183,12.23935945594944,297.08412567018024,0,0,0,0,0,0,0,0,0,0
7,7,7,1.18406,393.71397038307776,12.309486675255052,297.6589348920599,0,0,0,0,0,0,0,0,0,0
8,8,8,1.18408,393.8449523654151,12.395319571569278,298.22199304886885,0,0,0,0,0,0,0,0,0,0
9,9,9,1.1841,393.9780083919065,12.496417300326152,298.77327791202504,0,0,0,0,0,0,0,0,0,0
10,10,10,1.1841199999999998,394.11518936345954,12.480993155651031,299.3127677177511,0,0,0,0,0,0,0,0,0,0
11,11,11,1.18414,394.2521267861684,12.479884237683734,299.8404411679181,0,0,0,0,0,0,0,0,0,0
12,12,12,1.18416,394.3891459076998,12.49269722223378,300.35627743087207,0,0,0,0,0,0,0,0,0,0
13,13,13,1.18418,394.5265626944246,12.519030007864767,300.86025614229,0,0,0,0,0,0,0,0,0,0
14,14,14,1.1842,394.6646836357378,12.558471969794317,301.35235740594624,0,0,0,0,0,0,0,0,0,0
15,15,15,1.18422,394.8048541702543,12.544819283786374,301.83256179453434,0,0,0,0,0,0,0,0,0,0
16,16,16,1.18424,394.9447958473529,12.543404554796544,302.30085035039855,0,0,0,0,0,0,0,0,0,0
17,17,17,1.18426,395.0865894126368,12.488003608982472,302.7572045863131,0,0,0,0,0,0,0,0,0,0
18,18,18,1.18428,395.2261401907353,12.509851223901055,303.20160648620185,0,0,0,0,0,0,0,0,0,0
19,19,19,1.1843,395.3655062250668,12.542741279980191,303.63403850581903,0,0,0,0,0,0,0,0,0,0
20,20,20,1.18432,395.507510315406,12.52038093435433,304.0544835735123,0,0,0,0,0,0,0,0,0,0
21,21,21,1.18434,395.6490576990024,12.508198281554376,304.46292509081104,0,0,0,0,0,0,0,0,0,0
22,22,22,1.18436,395.7893473907965,12.571750047279572,304.8593469331514,0,0,0,0,0,0,0,0,0,0
23,23,23,1.18438,395.9322102504352,12.578740827740251,305.2437334504812,0,0,0,0,0,0,0,0,0,0
24,24,24,1.1844,396.0752865005695,12.594673660569304,305.61606946787185,0,0,0,0,0,0,0,0,0,0
25,25,25,1.18442,396.218779912272,12.619137834938154,305.9763402861418,0,0,0,0,0,0,0,0,0,0
26,26,26,1.18444,396.3628845327066,12.65171708408242,306.32453168240943,0,0,0,0,0,0,0,0,0,0
27,27,27,1.1844599999999998,396.5077845623064,12.691989852774295,306.660629910678,0,0,0,0,0,0,0,0,0,0
28,28,28,1.18448,396.65365423828416,12.739529567863704,306.98462170236763,0,0,0,0,0,0,0,0,0,0
29,29,29,1.1845,396.800657724522,12.793904911724862,307.2964942668316,0,0,0,0,0,0,0,0,0,0
30,30,30,1.18452,396.9489490079184,12.854680098441971,307.5962352918804,0,0,0,0,0,0,0,0,0,0
31,31,31,1.18454,397.09867180124974,12.92141515256744,307.8838329442464,0,0,0,0,0,0,0,0,0,0
32,32,32,1.18456,397.2499594525982,12.993666190283442,308.15927587007184,0,0,0,0,0,0,0,0,0,0
33,33,33,1.18458,397.40470354092247,12.938554761398953,308.4225531953366,0,0,0,0,0,0,0,0,0,0
34,34,34,1.1846,397.55688018019663,12.954257226582564,308.6736545263054,0,0,0,0,0,0,0,0,0,0
35,35,35,1.18462,397.7106800712488,12.907921055864064,308.91256994992966,0,0,0,0,0,0,0,0,0,0
36,36,36,1.18464,397.86289563935225,12.931654730770806,309.1392900342332,0,0,0,0,0,0,0,0,0,0
37,37,37,1.18466,398.0161300565513,12.89248577649416,309.3538058286994,0,0,0,0,0,0,0,0,0,0
38,38,38,1.18468,398.1671625578136,12.92263989491339,309.5561088646082,0,0,0,0,0,0,0,0,0,0
39,39,39,1.1847,398.3201347188729,12.88905087167912,309.74619115538405,0,0,0,0,0,0,0,0,0,0
40,40,40,1.18472,398.4710280984973,12.924025666118297,309.9240451969052,0,0,0,0,0,0,0,0,0,0
41,41,41,1.18474,398.6239649663675,12.894393357155844,310.0896639677953,0,0,0,0,0,0,0,0,0,0
42,42,42,1.18476,398.7749064722536,12.932559350939655,310.243040929712,0,0,0,0,0,0,0,0,0,0
43,43,43,1.18478,398.927957847036,12.905249139225596,310.38417002759246,0,0,0,0,0,0,0,0,0,0
44,44,44,1.1848,399.0803124275533,12.87847073401428,310.5130456899034,0,0,0,0,0,0,0,0,0,0
45,45,45,1.18482,399.2315122975216,12.918351884941552,310.629662828855,0,0,0,0,0,0,0,0,0,0
46,46,46,1.18484,399.3840609032656,12.89145196590424,310.73401684060025,0,0,0,0,0,0,0,0,0,0
47,47,47,1.18486,399.5346567631121,12.930443739673864,310.8261036054242,0,0,0,0,0,0,0,0,0,0
48,48,48,1.18488,399.6873566608708,12.901798231718152,310.9059194878949,0,0,0,0,0,0,0,0,0,0
49,49,49,1.1848999999999998,399.83805205729806,12.938273766767628,310.97346133702126,0,0,0,0,0,0,0,0,0,0
50,50,50,1.18492,399.9907832339407,12.906241687091272,311.0287264863671,0,0,0,0,0,0,0,0,0,0
51,51,51,1.18494,400.1422058318657,12.938559442906826,311.0717127541566,0,0,0,0,0,0,0,0,0,0
52,52,52,1.18496,400.2947703560728,12.90148715227192,311.10241844336696,0,0,0,0,0,0,0,0,0,0
53,53,53,1.18498,400.44589964016177,12.92800299748245,311.1208423417896,0,0,0,0,0,0,0,0,0,0
54,54,54,1.185,400.5967684585329,12.951019191890508,311.12698372208087,0,0,0,0,0,0,0,0,0,0
55,55,55,1.18502,400.748075582354,12.970130499733605,311.1208423417896,0,0,0,0,0,0,0,0,0,0
56,56,56,1.18504,400.9009834879864,12.918117413074818,311.1024184433669,0,0,0,0,0,0,0,0,0,0
57,57,57,1.18506,401.0520835926505,12.928152830945988,311.0717127541566,0,0,0,0,0,0,0,0,0,0
58,58,58,1.18508,401.20330274228513,12.933054270634935,311.0287264863671,0,0,0,0,0,0,0,0,0,0
59,59,59,1.1851,401.3545155395759,12.932411332128677,310.9734613370219,0,0,0,0,0,0,0,0,0,0
60,60,60,1.18512,401.5055870384277,12.925817073664865,310.9059194878955,0,0,0,0,0,0,0,0,0,0
61,61,61,1.18514,401.65637283185407,12.912868273174226,310.82610360542407,0,0,0,0,0,0,0,0,0,0
62,62,62,1.18516,401.8054629138501,12.96011698463534,310.73401684060104,0,0,0,0,0,0,0,0,0,0
63,63,63,1.18518,401.9559949030351,12.93327663006568,310.62966282885594,0,0,0,0,0,0,0,0,0,0
64,64,64,1.1852,402.10527879066393,12.965873951092638,310.5130456899044,0,0,0,0,0,0,0,0,0,0
65,65,65,1.18522,402.25565285522873,12.92351535930398,310.38417002759365,0,0,0,0,0,0,0,0,0,0
66,66,66,1.1852399999999998,402.4044078225474,12.93983717864952,310.24304092971323,0,0,0,0,0,0,0,0,0,0
67,67,67,1.18526,402.5533865092048,12.947428294365798,310.08966396779664,0,0,0,0,0,0,0,0,0,0
68,68,68,1.18528,402.7023803763008,12.94587814425417,309.9240451969066,0,0,0,0,0,0,0,0,0,0
69,69,69,1.1853,402.8511714520973,12.934781881111862,309.7461911553856,0,0,0,0,0,0,0,0,0,0
70,70,70,1.18532,402.9995324719004,12.91374062871613,309.5561088646099,0,0,0,0,0,0,0,0,0,0
71,71,71,1.1853399999999998,403.1472270238328,12.882361734114149,309.35380582870124,0,0,0,0,0,0,0,0,0,0
72,72,72,1.18536,403.2940097003812,12.840259016068094,309.1392900342351,0,0,0,0,0,0,0,0,0,0
73,73,73,1.18538,403.4396262556408,12.7870530095084,308.91256994993165,0,0,0,0,0,0,0,0,0,0
74,74,74,1.1854,403.5838137681527,12.722371205849452,308.6736545263076,0,0,0,0,0,0,0,0,0,0
75,75,75,1.18542,403.72630080923886,12.645848289025304,308.4225531953388,0,0,0,0,0,0,0,0,0,0
76,76,76,1.18544,403.8649972032799,12.624417627494193,308.1592758700692,0,0,0,0,0,0,0,0,0,0
77,77,77,1.18546,404.00196348988936,12.657799916981649,307.88383294424625,0,0,0,0,0,0,0,0,0,0
78,78,78,1.18548,404.1395003781332,12.678318380037068,307.59623529188286,0,0,0,0,0,0,0,0,0,0
79,79,79,1.1855,404.277306708048,12.68555843398101,307.29649426683136,0,0,0,0,0,0,0,0,0,0
80,80,80,1.18552,404.41507198107695,12.679113663508348,306.9846217023675,0,0,0,0,0,0,0,0,0,0
81,81,81,1.18554,404.5524765545475,12.658586070123397,306.66062991067776,0,0,0,0,0,0,0,0,0,0
82,82,82,1.18556,404.6891918417619,12.623586316541346,306.32453168240926,0,0,0,0,0,0,0,0,0,0
83,83,83,1.18558,404.82365429135433,12.641188873797407,305.97634028614164,0,0,0,0,0,0,0,0,0,0
84,84,84,1.1856,404.9590692140316,12.643592590208138,305.6160694678717,0,0,0,0,0,0,0,0,0,0
85,85,85,1.18562,405.0943106069667,12.63038012813289,305.24373345048105,0,0,0,0,0,0,0,0,0,0
86,86,86,1.18564,405.2277839796825,12.668681954866695,304.85934693315124,0,0,0,0,0,0,0,0,0,0
87,87,87,1.18566,405.3618928001318,12.69062224729282,304.46292509081087,0,0,0,0,0,0,0,0,0,0
88,88,88,1.1856799999999998,405.4962603820839,12.69579027274399,304.0544835735121,0,0,0,0,0,0,0,0,0,0
89,89,89,1.1857,405.630500963105,12.68378539303335,303.6340385058227,0,0,0,0,0,0,0,0,0,0
90,90,90,1.18572,405.7642199401003,12.654217303381738,303.2016064862017,0,0,0,0,0,0,0,0,0,0
91,91,91,1.18574,405.8970141101195,12.606706265349263,302.7572045863169,0,0,0,0,0,0,0,0,0,0
92,92,92,1.18576,406.0284719163079,12.540883333640632,302.3008503504025,0,0,0,0,0,0,0,0,0,0
93,93,93,1.18578,406.1581736988328,12.456390576657997,301.83256179453406,0,0,0,0,0,0,0,0,0,0
94,94,94,1.1858,406.28391791722265,12.420576118202346,301.3523574059504,0,0,0,0,0,0,0,0,0,0
95,95,95,1.18582,406.40757492313287,12.433169590610484,300.8602561422943,0,0,0,0,0,0,0,0,0,0
96,96,96,1.18584,406.5312497612952,12.426110170907108,300.35627743087645,0,0,0,0,0,0,0,0,0,0
97,97,97,1.18586,406.6544974706822,12.39900902674612,299.84044116792256,0,0,0,0,0,0,0,0,0,0
98,98,98,1.18588,406.7768646727827,12.35148911005307,299.31276771775566,0,0,0,0,0,0,0,0,0,0
99,99,99,1.1859,406.8978898414519,12.283185375897606,298.7732779120297,0,0,0,0,0,0,0,0,0,0
100,100,100,1.18592,407.0154603480463,12.329383837257952,298.2219930488736,0,0,0,0,0,0,0,0,0,0
101,101,101,1.18594,407.13377274288047,12.354135854486174,297.65893489206474,0,0,0,0,0,0,0,0,0,0
102,102,102,1.18596,407.25234796238567,12.357039061767871,297.0841256701852,0,0,0,0,0,0,0,0,0,0
103,103,103,1.18598,407.3706983635872,12.337703639789709,296.49758807570845,0,0,0,0,0,0,0,0,0,0
104,104,104,1.186,407.4883280072901,12.295752535378906,295.89934526414504,0,0,0,0,0,0,0,0,0,0
105,105,105,1.18602,407.6047329459286,12.230821674145242,295.2894208530915,0,0,0,0,0,0,0,0,0,0
106,106,106,1.18604,407.7194015159421,12.142560166013398,294.66783892130786,0,0,0,0,0,0,0,0,0,0
107,107,107,1.18606,407.829106774209,12.166540472483668,294.0346240078128,0,0,0,0,0,0,0,0,0,0
108,108,108,1.18608,407.9390355547543,12.166582391971229,293.38980111081247,0,0,0,0,0,0,0,0,0,0
109,109,109,1.1861,408.0486614162294,12.142302605023165,292.73339568683974,0,0,0,0,0,0,0,0,0,0
110,110,110,1.1861199999999998,408.1574499030296,12.09333141486613,292.06543364964534,0,0,0,0,0,0,0,0,0,0
111,111,111,1.18614,408.26485884772313,12.019312950071996,291.38594136922035,0,0,0,0,0,0,0,0,0,0
112,112,112,1.18616,408.3691627915738,11.98795225836462,290.694945670769,0,0,0,0,0,0,0,0,0,0
113,113,113,1.18618,408.47202733999006,11.998957916919387,289.9924738336057,0,0,0,0,0,0,0,0,0,0
114,114,114,1.1862,408.5748115618636,11.983922626297208,289.27855359012847,0,0,0,0,0,0,0,0,0,0
115,115,115,1.18622,408.6769513332218,11.942476339384951,288.5532131246732,0,0,0,0,0,0,0,0,0,0
116,116,116,1.18624,408.77787493836695,11.874263432526014,287.8164810724527,0,0,0,0,0,0,0,0,0,0
117,117,117,1.18626,408.8743636542965,11.915202260668975,287.06838651838024,0,0,0,0,0,0,0,0,0,0
118,118,118,1.18628,408.9713970246132,11.928754129822938,286.308958995941,0,0,0,0,0,0,0,0,0,0
119,119,119,1.1863,409.0683899975387,11.914538634009569,285.53822848604693,0,0,0,0,0,0,0,0,0,0
120,120,120,1.18632,409.16474983152347,11.872190152893724,284.7562254158051,0,0,0,0,0,0,0,0,0,0
121,121,121,1.18634,409.2598764137518,11.801358040868957,283.9629806573716,0,0,0,0,0,0,0,0,0,0
122,122,122,1.18636,409.3531625824556,11.701706808608018,283.1585255266844,0,0,0,0,0,0,0,0,0,0
123,123,123,1.18638,409.4428458031159,11.641142685172536,282.3428917822471,0,0,0,0,0,0,0,0,0,0
124,124,124,1.1864,409.5304788726996,11.61939181252824,281.5161116238981,0,0,0,0,0,0,0,0,0,0
125,125,125,1.18642,409.6173151839517,11.567892574921974,280.6782176914874,0,0,0,0,0,0,0,0,0,0
126,126,126,1.18644,409.70180801021127,11.554573670021126,279.82924306364805,0,0,0,0,0,0,0,0,0,0
127,127,127,1.1864599999999998,409.7840457041815,11.579130906139998,278.969221256437,0,0,0,0,0,0,0,0,0,0
128,128,128,1.18648,409.8664453724214,11.57296915237358,278.0981862220347,0,0,0,0,0,0,0,0,0,0
129,129,129,1.1865,409.9483703814472,11.535728700856907,277.21617234742865,0,0,0,0,0,0,0,0,0,0
130,130,130,1.18652,410.029177089456,11.467065545119164,276.32321445300045,0,0,0,0,0,0,0,0,0,0
131,131,131,1.18654,410.1082151742078,11.366651547970028,275.4193477912148,0,0,0,0,0,0,0,0,0,0
132,132,132,1.1865599999999998,410.1837068093297,11.302524991722995,274.504608045172,0,0,0,0,0,0,0,0,0,0
133,133,133,1.18658,410.2571052550758,11.274415576088572,273.5790313272224,0,0,0,0,0,0,0,0,0,0
134,134,134,1.1866,410.3279922982336,11.282019369231383,272.64265417756667,0,0,0,0,0,0,0,0,0,0
135,135,135,1.18662,410.39777406983154,11.32504846654952,271.6955135627459,0,0,0,0,0,0,0,0,0,0
136,136,136,1.18664,410.4680607492237,11.334782504244291,270.73764687429275,0,0,0,0,0,0,0,0,0,0
137,137,137,1.18666,410.5381828108638,11.310864615116913,269.7690919270919,0,0,0,0,0,0,0,0,0,0
138,138,138,1.18668,410.60746400747,11.252954043131291,268.789886958078,0,0,0,0,0,0,0,0,0,0
139,139,139,1.1867,410.6752216963097,11.160726299913838,267.8000706245691,0,0,0,0,0,0,0,0,0,0
140,140,140,1.18672,410.7407671684141,11.03387331397436,266.79968200281013,0,0,0,0,0,0,0,0,0,0
141,141,141,1.18674,410.80231439918407,10.94055760525527,265.78876058644886,0,0,0,0,0,0,0,0,0,0
142,142,142,1.18676,410.85969732447575,10.948984953263247,264.76734628491386,0,0,0,0,0,0,0,0,0,0
143,143,143,1.18678,410.9175480527385,10.921963285098874,263.73547942191107,0,0,0,0,0,0,0,0,0,0
144,144,144,1.1868,410.9729730316875,10.92762155492686,262.6932007337682,0,0,0,0,0,0,0,0,0,0
145,145,145,1.18682,411.0281407388789,10.897184971857758,261.64055136785373,0,0,0,0,0,0,0,0,0,0
146,146,146,1.18684,411.0823482128373,10.830325866663287,260.5775728809812,0,0,0,0,0,0,0,0,0,0
147,147,147,1.18686,411.1348865642474,10.72673306078678,259.50430723770194,0,0,0,0,0,0,0,0,0,0
148,148,148,1.18688,411.1850412992724,10.586112000937389,258.4207968087252,0,0,0,0,0,0,0,0,0,0
149,149,149,1.1868999999999998,411.22916639899455,10.613759110504663,257.3270843691778,0,0,0,0,0,0,0,0,0,0
150,150,150,1.18692,411.2740953148209,10.603860665812922,256.2232130969441,0,0,0,0,0,0,0,0,0,0
151,151,151,1.18694,411.1487209809375,1.658708975868226,255.10922657099167,0,0,0,0,1,0,0,0,1,0
152,152,152,1.18696,410.9930176821695,1.778506478078725,253.9851687695813,0,0,0,0,1,0,0,0,1,0
153,153,153,1.18698,410.83737385477326,1.8549337584324768,252.85108406861025,0,0,0,0,1,0,0,0,1,0
154,154,154,1.187,410.6817894368844,1.9305334376755048,251.70701723978016,0,0,0,0,1,0,0,0,1,0
155,155,155,1.18702,410.5262644053332,2.005296029761736,250.5530134489114,0,0,0,0,1,0,0,0,1,0
156,156,156,1.18704,410.3707987085661,2.0420064835285263,249.3891182540872,0,0,0,0,1,0,0,0,1,0
157,157,157,1.18706,410.2153919592896,2.0310862000608023,248.21537760388628,0,0,0,0,1,0,0,0,1,0
158,158,158,1.18708,410.0600440295117,2.020097010061136,247.031837835601,0,0,0,0,1,0,0,0,1,0
159,159,159,1.1871,409.90475489606285,2.009696490347882,245.8385456733336,0,0,0,0,1,0,0,0,1,0
160,160,160,1.18712,409.74952460077645,2.065632718297787,244.6355482262367,0,0,0,0,1,0,0,0,1,0
161,161,161,1.18714,409.5943531172732,2.0554266683288547,243.4228929865791,0,0,0,0,1,0,0,0,1,0
162,162,162,1.18716,409.43924036297005,2.045122018618647,242.2006278279021,0,0,0,0,1,0,0,0,1,0
163,163,163,1.18718,409.2841863153193,2.034736610166574,240.96880100316352,0,0,0,0,1,0,0,0,1,0
164,164,164,1.1872,409.1291909517976,2.0242708575792485,239.72746114274352,0,0,0,0,1,0,0,0,1,0
165,165,165,1.18722,408.97425424989297,2.013725174033996,238.4766572526592,0,0,0,0,1,0,0,0,1,0
166,166,166,1.18724,408.8193761871031,2.0030999758624923,237.2164387124955,0,0,0,0,1,0,0,0,1,0
167,167,167,1.18726,408.66455674093527,1.9923956825355127,235.9468552734767,0,0,0,0,1,0,0,0,1,0
168,168,168,1.18728,408.5097958889068,1.9816127166463424,234.6679570566404,0,0,0,0,1,0,0,0,1,0
169,169,169,1.1873,408.3550936085462,1.9707515038941776,233.3797945506637,0,0,0,0,1,0,0,0,1,0
170,170,170,1.18732,408.2004498773905,1.9598124730671955,232.08241861002017,0,0,0,0,1,0,0,0,1,0
171,171,171,1.1873399999999998,408.0458646729878,1.948796056025752,230.77588045287868,0,0,0,0,1,0,0,0,1,0
172,172,172,1.18736,407.8913379728952,1.9377026876852472,229.46023165911663,0,0,0,0,1,0,0,0,1,0
173,173,173,1.18738,407.736869754681,1.9265328059989808,228.1355241683195,0,0,0,0,1,0,0,0,1,0
174,174,174,1.1874,407.5824599959235,1.915286851940908,226.8018102776468,0,0,0,0,1,0,0,0,1,0
175,175,175,1.18742,407.42810867420974,1.9039652694881184,225.45914263986324,0,0,0,0,1,0,0,0,1,0
176,176,176,1.18744,407.27381576713833,1.8925685056034427,224.107574261164,0,0,0,0,1,0,0,0,1,0
177,177,177,1.18746,407.1195812523176,1.8810970102177085,222.7471584991788,0,0,0,0,1,0,0,0,1,0
178,178,178,1.18748,406.96540510736577,1.8695512362120288,221.3779490607804,0,0,0,0,1,0,0,0,1,0
179,179,179,1.1875,406.8112873099108,1.8579316393998977,220.00000000000023,0,0,0,0,1,0,0,0,1,0
180,180,180,1.18752,406.6572278375919,1.846238678509201,218.61336571593307,0,0,0,0,1,0,0,0,1,0
181,181,181,1.18754,406.5032266680568,1.8344728151641312,217.21810095050083,0,0,0,0,1,0,0,0,1,0
182,182,182,1.18756,406.3492837789643,1.822634513866912,215.8142607863927,0,0,0,0,1,0,0,0,1,0
183,183,183,1.18758,406.195399147984,1.8107242419795355,214.401900644802,0,0,0,0,1,0,0,0,1,0
184,184,184,1.1876,406.04157275279454,1.7987424697052077,212.98107628327585,0,0,0,0,1,0,0,0,1,0
185,185,185,1.18762,405.8878045710845,1.786689670069896,211.55184379355296,0,0,0,0,1,0,0,0,1,0
186,186,186,1.18764,405.7340945805538,1.7745663189035836,210.11425959925887,0,0,0,0,1,0,0,0,1,0
187,187,187,1.18766,405.58044275891206,1.7623728948214912,208.66838045378208,0,0,0,0,1,0,0,0,1,0
188,188,188,1.1876799999999998,405.4268490838789,1.7501098792052447,207.2142634379425,0,0,0,0,1,0,0,0,1,0
189,189,189,1.1877,405.2733135331836,1.7377777561837515,205.7519659577769,0,0,0,0,1,0,0,0,1,0
190,190,190,1.18772,405.119836084566,1.7253770126142136,204.28154574231243,0,0,0,0,1,0,0,0,1,0
191,191,191,1.18774,404.9664167157768,1.7129081380628424,202.80306084119465,0,0,0,0,1,0,0,0,1,0
192,192,192,1.18776,404.8130554045762,1.7003716247855174,201.31656962250267,0,0,0,0,1,0,0,0,1,0
193,193,193,1.1877799999999998,404.6597521287349,1.687767967708414,199.8221307703513,0,0,0,0,1,0,0,0,1,0
194,194,194,1.1878,404.5065068660329,1.6750976644083844,198.31980328260016,0,0,0,0,1,0,0,0,1,0
195,195,195,1.18782,404.353319594262,1.6623612150933933,196.80964646863427,0,0,0,0,1,0,0,0,1,0
196,196,196,1.18784,404.2001902912231,1.6495591225827173,195.2917199467768,0,0,0,0,1,0,0,0,1,0
197,197,197,1.18786,404.04711893472734,1.6366918922871236,193.76608364223617,0,0,0,0,1,0,0,0,1,0
198,198,198,1.18788,403.8941055025962,1.6237600321888868,192.23279778448023,0,0,0,0,1,0,0,0,1,0
199,199,199,1.1879,403.74114997266224,1.6107640528217606,190.6919229050369,0,0,0,0,1,0,0,0,1,0
