Time / s,Vo:Measured voltage,IL:Measured current,Vin:Measured voltage,short1:Output,short2:Output,short3:Output,short4:Output,open1:Output,open3:Output,open2:Output,open4:Output
1.1657738140048983,406.0052709722996,12.501003343974524,302.30085035040094,0,0,0,0,0,0,0,0
1.16578,406.13408206231605,12.41710507189393,301.83256179453247,0,0,0,0,0,0,0,0
1.1658,406.25793848647953,12.449597473599567,301.35235740594874,0,0,0,0,0,0,0,0
1.16582,406.38226308422566,12.462821024385748,300.8602561422926,0,0,0,0,0,0,0,0
1.16584,406.50661920126015,12.456374992318416,300.3562774308747,0,0,0,0,0,0,0,0
1.16586,406.6305614934333,12.429870213609,299.84044116792074,0,0,0,0,0,0,0,0
1.16588,406.753636191932,12.382929318308218,299.31276771775384,0,0,0,0,0,0,0,0
1.1659,406.8753813733488,12.315186949352189,298.7732779120278,0,0,0,0,0,0,0,0
1.1659199999999998,406.9936741443482,12.361921448366727,298.2219930488717,0,0,0,0,0,0,0,0
1.16594,407.1139339075584,12.319354907939212,297.6589348920628,0,0,0,0,0,0,0,0
1.16596,407.23175283076654,12.322753192817236,297.08412567018325,0,0,0,0,0,0,0,0
1.16598,407.3493583737428,12.303931067913522,296.4975880757064,0,0,0,0,0,0,0,0
1.166,407.4662549927889,12.262511195276954,295.89934526414294,0,0,0,0,0,0,0,0
1.16602,407.5819391292832,12.198129206220434,295.2894208530838,0,0,0,0,0,0,0,0
1.16604,407.69416735016097,12.17836424948595,294.6678389213114,0,0,0,0,0,0,0,0
1.16606,407.8046696968944,12.202937266735384,294.0346240078106,0,0,0,0,0,0,0,0
1.16608,407.9154079831,12.203552562595211,293.38980111081617,0,0,0,0,0,0,0,0
1.1661,408.02585533777153,12.179826526561564,292.7333956868435,0,0,0,0,0,0,0,0
1.16612,408.13547686957446,12.131389181221897,292.065433649643,0,0,0,0,0,0,0,0
1.16614,408.243729969503,12.057884385062692,291.3859413692242,0,0,0,0,0,0,0,0
1.16616,408.34888281312806,12.027013481736956,290.6949456707729,0,0,0,0,0,0,0,0
1.16618,408.45260034038574,12.038485226772506,289.99247383360967,0,0,0,0,0,0,0,0
1.1662,408.5562470256549,12.023895678284964,289.2785535901325,0,0,0,0,0,0,0,0
1.16622,408.6592583013884,11.982874571910743,288.55321312467737,0,0,0,0,0,0,0,0
1.16624,408.7610620039193,11.915066077313597,287.81648107245684,0,0,0,0,0,0,0,0
1.16626,408.8593949777924,11.88825407985168,287.06838651838444,0,0,0,0,0,0,0,0
1.16628,408.955866276162,11.902164467921168,286.30895899594526,0,0,0,0,0,0,0,0
1.1663,409.0523051315564,11.88832047726376,285.53822848605137,0,0,0,0,0,0,0,0
1.16632,409.148119072823,11.846356297489308,284.7562254158024,0,0,0,0,0,0,0,0
1.16634,409.2427082533439,11.775921086695387,283.96298065736886,0,0,0,0,0,0,0,0
1.1663599999999998,409.33546577321766,11.676679153117473,283.15852552668895,0,0,0,0,0,0,0,0
1.16638,409.4246330836984,11.616533522532544,282.34289178224424,0,0,0,0,0,0,0,0
1.1664,409.5117630387204,11.595209866767066,281.5161116238952,0,0,0,0,0,0,0,0
1.16642,409.5964681611492,11.612397727088654,280.6782176914846,0,0,0,0,0,0,0,0
1.16644,409.68118999705297,11.59953543801752,279.8292430636451,0,0,0,0,0,0,0,0
1.16646,409.7643665006029,11.624544572721764,278.9692212564262,0,0,0,0,0,0,0,0
1.16648,409.8477137125692,11.618813290963182,278.0981862220317,0,0,0,0,0,0,0,0
1.1665,409.9305945527459,11.581981694254305,277.21617234742564,0,0,0,0,0,0,0,0
1.16652,410.0123649289544,11.51370559568908,276.32321445299726,0,0,0,0,0,0,0,0
1.16654,410.0923740651377,11.41365668790859,275.4193477912117,0,0,0,0,0,0,0,0
1.16656,410.1699648327043,11.281522703529076,274.50460804516047,0,0,0,0,0,0,0,0
1.16658,410.2429453236473,11.253727164471211,273.5790313272192,0,0,0,0,0,0,0,0
1.1666,410.31342412144346,11.261651665508376,272.64265417756343,0,0,0,0,0,0,0,0
1.16662,410.3828073902957,11.305007948480933,271.6955135627512,0,0,0,0,0,0,0,0
1.16664,410.4527023471247,11.315077827050134,270.7376468742894,0,0,0,0,0,0,0,0
1.16666,410.5224396353758,11.291504282016176,269.7690919270974,0,0,0,0,0,0,0,0
1.16668,410.59134317361526,11.233946401676098,268.7898869580836,0,0,0,0,0,0,0,0
1.1666999999999998,410.6587304817498,11.142079538393686,267.80007062457474,0,0,0,0,0,0,0,0
1.16672,410.7239130101677,11.01559545789231,266.79968200281576,0,0,0,0,0,0,0,0
1.16674,410.7851076027266,10.922653675635589,265.78876058645466,0,0,0,0,0,0,0,0
1.16676,410.8421508298255,10.931456731485982,264.76734628491965,0,0,0,0,0,0,0,0
1.16678,410.89813520558096,10.97328451106239,263.73547942191686,0,0,0,0,0,0,0,0
1.1667999999999998,410.95456655479126,10.979340017512618,262.69320073377406,0,0,0,0,0,0,0,0
1.16682,411.0107477445271,10.949279078840547,261.6405513678597,0,0,0,0,0,0,0,0
1.16684,411.0659753905218,10.882773881194064,260.5775728809872,0,0,0,0,0,0,0,0
1.16686,411.119540178116,10.779513110456616,259.50430723769824,0,0,0,0,0,0,0,0
1.16688,411.1707271857476,10.639202086892832,258.42079680873127,0,0,0,0,0,0,0,0
1.1669,411.2162885975496,10.598607043790857,257.3270843691641,0,0,0,0,0,0,0,0
1.16692,411.2602900617868,10.588977640590173,256.2232130969403,0,0,0,0,0,0,0,0
1.16694,411.3029069415697,10.61001406821204,255.109226570988,0,0,0,0,0,0,0,0
1.16696,411.3455482545325,10.59286730114942,253.9851687695774,0,0,0,0,0,0,0,0
1.16698,411.3874937162212,10.537214155281667,252.85108406860627,0,0,0,0,0,0,0,0
1.167,411.42801739853456,10.442747916911626,251.70701723977623,0,0,0,0,0,0,0,0
1.16702,411.4663880424254,10.309178467244694,250.55301344890745,0,0,0,0,0,0,0,0
1.16704,411.49941990585376,10.27337197258512,249.3891182540832,0,0,0,0,0,0,0,0
1.16706,411.53062449904064,10.266527070643717,248.21537760388225,0,0,0,0,0,0,0,0
1.16708,411.56091350695743,10.288353891813026,247.0318378355969,0,0,0,0,0,0,0,0
1.1671,411.5912263438111,10.269959407472124,245.83854567332943,0,0,0,0,0,0,0,0
1.16712,411.6208290108616,10.211031561465964,244.6355482262325,0,0,0,0,0,0,0,0
1.1671399999999998,411.6489822629744,10.11127464778824,243.42289298657488,0,0,0,0,0,0,0,0
1.16716,411.6749419088526,9.970409423062844,242.200627827898,0,0,0,0,0,0,0,0
1.16718,411.6955934403063,9.925379272609256,240.96880100315929,0,0,0,0,0,0,0,0
1.1672,411.71430836890687,9.907351470071058,239.72746114275049,0,0,0,0,0,0,0,0
1.16722,411.7319243727404,9.916045035092296,238.47665725266623,0,0,0,0,0,0,0,0
1.16724,411.74931993446745,9.882550346778215,237.2164387124797,0,0,0,0,0,0,0,0
1.16726,411.7657511938549,9.806571784711204,235.94685527348383,0,0,0,0,0,0,0,0
1.16728,411.78046951906816,9.687829861155254,234.6679570566476,0,0,0,0,0,0,0,0
1.1673,411.7914058996119,9.59467920733209,233.37979455067105,0,0,0,0,0,0,0,0
1.16732,411.79864386524366,9.595506317844755,232.08241861002747,0,0,0,0,0,0,0,0
1.16734,411.8055274035533,9.552803794889824,230.77588045287416,0,0,0,0,0,0,0,0
1.16736,411.81091233699,9.534912230193044,229.4602316591241,0,0,0,0,0,0,0,0
1.16738,411.8156217490709,9.472925228737578,228.13552416832687,0,0,0,0,0,0,0,0
1.1674,411.8189054213452,9.366567798396874,226.80181027765423,0,0,0,0,0,0,0,0
1.16742,411.8187412353525,9.284203764431636,225.4591426398708,0,0,0,0,0,0,0,0
1.16744,411.8161292981921,9.225596152426505,224.1075742611593,0,0,0,0,0,0,0,0
1.16746,411.8108356016653,9.259110587685488,222.74715849918644,0,0,0,0,0,0,0,0
1.16748,411.8057249454863,9.247222152683351,221.37794906078804,0,0,0,0,0,0,0,0
1.1675,411.8000521424186,9.189649014950222,219.9999999999956,0,0,0,0,0,0,0,0
1.16752,411.7930678014214,9.08612464319526,218.6133657159283,0,0,0,0,0,0,0,0
1.16754,411.7840185802576,8.936397889815952,217.21810095049605,0,0,0,0,0,0,0,0
1.16756,411.7702915419279,8.877468482064263,215.81426078638788,0,0,0,0,0,0,0,0
1.1675799999999998,411.75395971889526,8.90910107335137,214.4019006447972,0,0,0,0,0,0,0,0
1.1676,411.73776677234616,8.893793441100636,212.98107628327097,0,0,0,0,0,0,0,0
1.16762,411.7209710040274,8.831275926939085,211.55184379354807,0,0,0,0,0,0,0,0
1.16764,411.7028268646216,8.721293679532133,210.114259599254,0,0,0,0,0,0,0,0
1.16766,411.6825851890648,8.563606727949848,208.6683804537772,0,0,0,0,0,0,0,0
1.16768,411.65773155670576,8.495189217821645,207.2142634379244,0,0,0,0,0,0,0,0
1.1677,411.6302222078903,8.515806263059375,205.751965957772,0,0,0,0,0,0,0,0
1.16772,411.6026728902596,8.488003087528378,204.2815457423073,0,0,0,0,0,0,0,0
1.16774,411.57434818969466,8.411524782034322,202.8030608411896,0,0,0,0,0,0,0,0
1.16776,411.5445092169065,8.286130705141506,201.31656962249755,0,0,0,0,0,0,0,0
1.16778,411.511313390376,8.180168166357529,199.82213077033256,0,0,0,0,0,0,0,0
1.1678,411.4747388455938,8.1619860382273,198.31980328260863,0,0,0,0,0,0,0,0
1.16782,411.43719688064135,8.162764248988434,196.8096464686291,0,0,0,0,0,0,0,0
1.16784,411.39932186550055,8.113680958136449,195.2917199467853,0,0,0,0,0,0,0,0
1.16786,411.36038707550495,8.01449797603013,193.76608364224475,0,0,0,0,0,0,0,0
1.16788,411.31966269666566,7.864990808284845,192.23279778448887,0,0,0,0,0,0,0,0
1.1679,411.2739925681488,7.8705594494244355,190.6919229050456,0,0,0,0,0,0,0,0
1.1679199999999998,411.22771285552216,7.893884012215161,189.14351983500296,0,0,0,0,0,0,0,0
1.16794,411.1814240419204,7.866179856375186,187.5876497026488,0,0,0,0,0,0,0,0
1.16796,411.1344133339344,7.787213910358883,186.0243739311,0,0,0,0,0,0,0,0
1.16798,411.0859650505429,7.656766147583104,184.4537542357789,0,0,0,0,0,0,0,0
1.168,411.03435479736805,7.5431248239268545,182.87585262209024,0,0,0,0,0,0,0,0
1.1680199999999998,410.9795171515133,7.514566606064363,181.29073138287376,0,0,0,0,0,0,0,0
1.16804,410.923629332966,7.502361059078066,179.69845309598736,0,0,0,0,0,0,0,0
1.16806,410.8672547341756,7.437790885543632,178.09908062188018,0,0,0,0,0,0,0,0
1.16808,410.80969405630753,7.320642724159587,176.49267710099545,0,0,0,0,0,0,0,0
1.1681,410.7502455037018,7.150715636501733,174.8793059514517,0,0,0,0,0,0,0,0
1.16812,410.6860244803159,7.133141178352185,173.2590308663357,0,0,0,0,0,0,0,0
1.16814,410.620941024408,7.130796422692084,171.63191581136277,0,0,0,0,0,0,0,0
1.16816,410.5555161102381,7.075019926749564,169.99802502223451,0,0,0,0,0,0,0,0
1.16818,410.48906865370014,6.965606803078988,168.35742300214685,0,0,0,0,0,0,0,0
1.1682,410.4209152960099,6.80236390851324,166.710174519288,0,0,0,0,0,0,0,0
1.16822,410.3483021810193,6.790262554633728,165.05634460417772,0,0,0,0,0,0,0,0
1.16824,410.2749285428928,6.792289755723481,163.3959985472192,0,0,0,0,0,0,0,0
1.16826,410.201280779612,6.7398489926378815,161.7292018960168,0,0,0,0,0,0,0,0
1.16828,410.12669772263433,6.632745315870608,160.05602045283322,0,0,0,0,0,0,0,0
1.1683,410.0505161581217,6.470794840778647,158.37652027203717,0,0,0,0,0,0,0,0
1.16832,409.97010812132,6.458789779444088,156.69076765738953,0,0,0,0,0,0,0,0
1.16834,409.88897152799535,6.459842619255018,154.99882915954765,0,0,0,0,0,0,0,0
1.1683599999999998,409.8075619323204,6.405429776912367,153.30077157333108,0,0,0,0,0,0,0,0
1.16838,409.72523980606974,6.295367388410644,151.59666193513036,0,0,0,0,0,0,0,0
1.1684,409.64136380604174,6.129481977515205,149.88656752030695,0,0,0,0,0,0,0,0
1.16842,409.5535786704913,6.112369459789841,148.17055584042924,0,0,0,0,0,0,0,0
1.16844,409.46490313013487,6.1072785416863065,146.44869464073116,0,0,0,0,0,0,0,0
1.16846,409.3759012599333,6.045768387455642,144.72105189731334,0,0,0,0,0,0,0,0
1.16848,409.2859568813956,5.927667081542175,142.9876958145844,0,0,0,0,0,0,0,0
1.1685,409.1944522271461,5.752812425053615,141.24869482245893,0,0,0,0,0,0,0,0
1.16852,409.0991686611477,5.72558538020614,139.5041175737026,0,0,0,0,0,0,0,0
1.16854,409.0029490720541,5.7093877079685456,137.75403294126954,0,0,0,0,0,0,0,0
1.16856,408.9063069664289,5.6358653697362335,135.99851001547282,0,0,0,0,0,0,0,0
1.16858,408.8086511789748,5.504859010194345,134.2376181013833,0,0,0,0,0,0,0,0
1.1686,408.7088048392484,5.384330815706349,132.47142671598283,0,0,0,0,0,0,0,0
1.16862,408.6061873464661,5.410288568105268,130.70000558545098,0,0,0,0,0,0,0,0
1.16864,408.50358202801687,5.378207589051514,128.923424642541,0,0,0,0,0,0,0,0
1.16866,408.4004254371326,5.287933100713646,127.14175402353008,0,0,0,0,0,0,0,0
1.16868,408.29615288039537,5.139318717445285,125.35506406580411,0,0,0,0,0,0,0,0
1.1687,408.189413909168,5.068282274287981,123.56342530479112,0,0,0,0,0,0,0,0
1.16872,408.0811300416194,5.006580411337575,121.76690847130531,0,0,0,0,0,0,0,0
1.16874,407.9717167088944,4.954032508079111,119.96558448878768,0,0,0,0,0,0,0,0
1.16876,407.86160186740153,4.842477787250924,118.1595244703921,0,0,0,0,0,0,0,0
1.16878,310.42915030610806,3.669205517523753,116.34879971630828,1,0,0,0,0,0,0,0
1.1687999999999998,145.5192907395728,2.3226487896182366,114.53348171083276,1,0,0,0,0,0,0,0
1.16882,110.79886526030502,2.344294674702992,112.71364211959562,1,0,0,0,0,0,0,0
1.16884,102.74804696584422,2.642265800517211,110.88935278678072,1,0,0,0,0,0,0,0
1.16886,101.24866316498708,2.9379841777247275,109.06068573217424,1,0,0,0,0,0,0,0
1.16888,99.78108573014272,3.221688881157028,107.22771314845342,1,0,0,0,0,0,0,0
1.1689,98.34444591531025,3.4922009787529724,105.39050739820414,1,0,0,0,0,0,0,0
1.16892,96.93785342874254,3.7483730204429486,103.54914101119688,1,0,0,0,0,0,0,0
1.16894,96.28588131654668,3.956874857220536,101.70368668140704,1,0,0,0,0,0,0,0
1.16896,95.6456076892949,4.137386703450376,99.85421726419492,1,0,0,0,0,0,0,0
1.16898,94.2985264340983,4.296993709293018,98.00080577347978,1,0,0,0,0,0,0,0
1.169,93.68339550326854,4.4193532553320845,96.14352537874016,1,0,0,0,0,0,0,0
1.16902,92.37412208415309,4.519345622058185,94.28244940225947,1,0,0,0,0,0,0,0
1.16904,91.78003747451125,4.5810246719902254,92.4176513161138,1,0,0,0,0,0,0,0
1.16906,90.5040162231528,4.619032114025207,90.54920473932172,1,0,0,0,0,0,0,0
1.16908,89.248490837136,4.636519002721683,88.67718343498846,1,0,0,0,0,0,0,0
1.1691,88.01251739492363,4.632705808843526,86.80166130727591,1,0,0,0,0,0,0,0
1.16912,86.79514361828802,4.606846800803816,84.92271239862019,1,0,0,0,0,0,0,0
1.1691399999999998,85.59541002011333,4.558230306275561,83.04041088668993,1,0,0,0,0,0,0,0
1.16916,84.41235104179539,4.486178935948124,81.1548310815088,1,0,0,0,0,0,0,0
1.16918,83.24499617927002,4.390049769788799,79.26604742257298,1,0,0,0,0,0,0,0
1.1692,82.09237109672304,4.269234506201226,77.37413447577589,1,0,0,0,0,0,0,0
1.16922,80.34287297604692,4.140104220918531,75.47916693068682,1,0,0,0,0,0,0,0
1.16924,78.62939031156115,4.004822749899538,73.58121959727688,1,0,0,0,0,0,0,0
1.16926,76.36985000947244,3.8685554604038654,71.68036740334281,1,0,0,0,0,0,0,0
1.16928,74.73846573668355,3.726660993796342,69.77668539124014,1,0,0,0,0,0,0,0
1.1693,72.58827740999855,3.5900694220821125,67.87024871505777,1,0,0,0,0,0,0,0
1.16932,71.03549446952442,3.453890486518558,65.9611326376859,1,0,0,0,0,0,0,0
1.16934,68.98904187339323,3.3105025623400586,64.04941252772376,1,0,0,0,0,0,0,0
1.16936,67.00023377692068,3.1699254660564584,62.13516385664248,1,0,0,0,0,0,0,0
1.16938,65.06738230622162,3.0302017437584574,60.2184621956846,1,0,0,0,0,0,0,0
1.1694,63.18879362023812,2.889432274073299,58.299383212932405,1,0,0,0,0,0,0,0
1.16942,61.36276981707554,2.745776436389893,56.37800267037287,1,0,0,0,0,0,0,0
1.16944,59.13865549305172,2.6174814720048616,54.45439642078511,1,0,0,0,0,0,0,0
1.16946,56.99383714678039,2.48927409877626,52.528640404884925,1,0,0,0,0,0,0,0
1.16948,54.92584185048548,2.3661732468247263,50.60081064820504,1,0,0,0,0,0,0,0
1.1695,52.93189809602881,2.2456278242624395,48.67098325814575,1,0,0,0,0,0,0,0
1.16952,51.00971686780905,2.13177913921692,46.73923442102297,1,0,0,0,0,0,0,0
1.16954,48.785481503978296,2.025617661534872,44.80564039893815,1,0,0,0,0,0,0,0
1.16956,46.65788258516376,1.9261376062176017,42.87027752690743,1,0,0,0,0,0,0,0
1.1695799999999998,44.62273991487179,1.830188867820498,40.93322220972561,1,0,0,0,0,0,0,0
1.1696,42.675970351712365,1.734759057425759,38.99455091900235,1,0,0,0,0,0,0,0
1.16962,40.50571707474223,1.6456070935230636,37.05434019019571,1,0,0,0,0,0,0,0
1.16964,38.44580778320786,1.5607479545938787,35.11266661946799,1,0,0,0,0,0,0,0
1.16966,36.215068457793976,1.4797244392242783,33.16960686080222,1,0,0,0,0,0,0,0
1.16968,34.11406507388363,1.4046390132750306,31.22523762283546,1,0,0,0,0,0,0,0
1.1697,32.13523241799485,1.3313358722873343,29.27963566597112,1,0,0,0,0,0,0,0
1.16972,30.271336694357107,1.2559034804764142,27.33287779922546,1,0,0,0,0,0,0,0
1.16974,28.30016816280128,1.177120803245262,25.385040877248056,1,0,0,0,0,0,0,0
