Time / s,Vo:Measured voltage,IL:Measured current,Vin:Measured voltage,short1:Output,short2:Output,short3:Output,short4:Output,open1:Output,open3:Output,open2:Output,open4:Output
1.1629277583832978,388.3044816563026,10.280245155132167,247.0318378355949,0,0,0,0,0,0,0,0
1.16294,388.35517239461217,10.313462781067742,248.2153776038802,0,0,0,0,0,0,0,0
1.16296,388.40727149608114,10.32015829520415,249.38911825408115,0,0,0,0,0,0,0,0
1.16298,388.4598444186566,10.364696098096966,250.5530134489054,0,0,0,0,0,0,0,0
1.163,388.5136214075955,10.446724812132093,251.70701723978468,0,0,0,0,0,0,0,0
1.16302,388.5693254534976,10.565876076004958,252.8510840686044,0,0,0,0,0,0,0,0
1.16304,388.6300237051439,10.59225028348428,253.98516876957547,0,0,0,0,0,0,0,0
1.16306,388.6915746625365,10.65493191178134,255.10922657098604,0,0,0,0,0,0,0,0
1.16308,388.7562038331022,10.623997128665934,256.2232130969384,0,0,0,0,0,0,0,0
1.1631,388.8205422893983,10.628610756224134,257.32708436917216,0,0,0,0,0,0,0,0
1.16312,388.885297604515,10.668429483125356,258.4207968087196,0,0,0,0,0,0,0,0
1.1631399999999998,388.9511700495916,10.743093105056118,259.5043072376964,0,0,0,0,0,0,0,0
1.16316,389.0188522605647,10.852224704337033,260.5775728809757,0,0,0,0,0,0,0,0
1.16318,389.09145019855407,10.865763614512511,261.6405513678483,0,0,0,0,0,0,0,0
1.1632,389.16463568933216,10.912932988711413,262.6932007337628,0,0,0,0,0,0,0,0
1.16322,389.2390874775173,10.993363435462047,263.73547942190567,0,0,0,0,0,0,0,0
1.16324,389.31702658303846,10.976925259664313,264.7673462849179,0,0,0,0,0,0,0,0
1.16326,389.3949289839492,10.992943482807307,265.78876058644374,0,0,0,0,0,0,0,0
1.16328,389.4734597291864,11.041058851728748,266.79968200280496,0,0,0,0,0,0,0,0
1.1633,389.553276046481,11.12089582880548,267.800070624564,0,0,0,0,0,0,0,0
1.16332,389.63661193793513,11.16714067599026,268.789886958073,0,0,0,0,0,0,0,0
1.16334,389.72210198566273,11.179339994416468,269.7690919270957,0,0,0,0,0,0,0,0
1.16336,389.8081323778409,11.222027863043092,270.73764687427905,0,0,0,0,0,0,0,0
1.16338,389.8953363666788,11.294825786975832,271.695513562741,0,0,0,0,0,0,0,0
1.1634,389.9854726004989,11.332356066010728,272.6426541775618,0,0,0,0,0,0,0,0
1.16342,390.07711554606885,11.334176603439372,273.5790313272091,0,0,0,0,0,0,0,0
1.16344,390.16906617058464,11.364887311988577,274.50460804516723,0,0,0,0,0,0,0,0
1.16346,390.26193312236495,11.424110402246235,275.41934779121016,0,0,0,0,0,0,0,0
1.1634799999999998,390.35631664477455,11.51145280810684,276.32321445299584,0,0,0,0,0,0,0,0
1.1635,390.4553954337461,11.496386875500292,277.2161723474241,0,0,0,0,0,0,0,0
1.16352,390.5544047208795,11.508561045255632,278.0981862220302,0,0,0,0,0,0,0,0
1.16354,390.6539265280561,11.547602062559484,278.96922125643255,0,0,0,0,0,0,0,0
1.16356,390.7545344681932,11.613121880306169,279.8292430636436,0,0,0,0,0,0,0,0
1.1635799999999998,390.8567934325624,11.704717877708854,280.6782176914831,0,0,0,0,0,0,0,0
1.1636,390.962883509682,11.691683745234975,281.5161116238938,0,0,0,0,0,0,0,0
1.16362,391.06892164683273,11.703849752857176,282.3428917822428,0,0,0,0,0,0,0,0
1.16364,391.1754535167241,11.740837244891395,283.15852552668014,0,0,0,0,0,0,0,0
1.16366,391.28301617198713,11.802253527678188,283.9629806573675,0,0,0,0,0,0,0,0
1.16368,391.39479335993207,11.757260439684035,284.75622541580816,0,0,0,0,0,0,0,0
1.1637,391.50483463719854,11.801051503752834,285.538228486043,0,0,0,0,0,0,0,0
1.16372,391.6170166435896,11.802789009050072,286.3089589959371,0,0,0,0,0,0,0,0
1.16374,391.7294457473988,11.827296208348043,287.0683865183764,0,0,0,0,0,0,0,0
1.16376,391.8426211693792,11.874181699585996,287.8164810724489,0,0,0,0,0,0,0,0
1.16378,391.9570331404792,11.943041085703468,288.55321312467606,0,0,0,0,0,0,0,0
1.1638,392.07316262045686,12.033457212918456,289.2785535901248,0,0,0,0,0,0,0,0
1.16382,392.1926757897402,12.079650206426598,289.99247383360205,0,0,0,0,0,0,0,0
1.16384,392.31386279558376,12.081135048236488,290.69494567076543,0,0,0,0,0,0,0,0
1.16386,392.43526218052784,12.102852352376791,291.3859413692168,0,0,0,0,0,0,0,0
1.16388,392.557323107011,12.144406593225566,292.0654336496418,0,0,0,0,0,0,0,0
1.1639,392.68223011950863,12.139962507766857,292.7333956868364,0,0,0,0,0,0,0,0
1.1639199999999998,392.8064630136389,12.154485124277612,293.3898011108091,0,0,0,0,0,0,0,0
1.16394,392.9329260770815,12.122132786936234,294.0346240078037,0,0,0,0,0,0,0,0
1.16396,393.0588118570744,12.107929510099057,294.6678389213046,0,0,0,0,0,0,0,0
1.16398,393.18452870330793,12.111495757195163,295.2894208530883,0,0,0,0,0,0,0,0
1.164,393.31047606247023,12.132441100152482,295.89934526413646,0,0,0,0,0,0,0,0
1.16402,393.437044236866,12.170364461223745,296.4975880757108,0,0,0,0,0,0,0,0
1.16404,393.5646141486894,12.224854360788395,297.08412567018223,0,0,0,0,0,0,0,0
1.16406,393.69355711008745,12.295489170985752,297.65893489206184,0,0,0,0,0,0,0,0
1.16408,393.8242345991344,12.3818373750326,298.2219930488708,0,0,0,0,0,0,0,0
1.1641,393.9569980418504,12.483457832074505,298.77327791202686,0,0,0,0,0,0,0,0
1.16412,394.093424036811,12.534233770374192,299.31276771775777,0,0,0,0,0,0,0,0
1.16414,394.2316017964128,12.533656273985583,299.8404411679199,0,0,0,0,0,0,0,0
1.16416,394.3698726581927,12.546969070999308,300.35627743087383,0,0,0,0,0,0,0,0
1.16418,394.5103570223604,12.508037877286526,300.86025614229175,0,0,0,0,0,0,0,0
1.1642,394.64823575757566,12.547894334126877,301.3523574059479,0,0,0,0,0,0,0,0
1.16422,394.788172252463,12.534664886204672,301.83256179453593,0,0,0,0,0,0,0,0
1.16424,394.92788985593694,12.533679203141196,302.30085035040014,0,0,0,0,0,0,0,0
1.16426,395.06766789971607,12.544540839730551,302.75720458631463,0,0,0,0,0,0,0,0
1.16428,395.2095797045285,12.500997307018269,303.2016064861994,0,0,0,0,0,0,0,0
1.1643,395.348751721008,12.534312827369677,303.63403850582046,0,0,0,0,0,0,0,0
1.16432,395.49057057247455,12.512385542672176,304.0544835735099,0,0,0,0,0,0,0,0
1.16434,395.6301400198119,12.56655940290616,304.4629250908088,0,0,0,0,0,0,0,0
1.1643599999999998,395.7728379030045,12.564625450669816,304.85934693314925,0,0,0,0,0,0,0,0
1.16438,395.915545770975,12.5720425150643,305.24373345047906,0,0,0,0,0,0,0,0
1.1644,396.0584770779009,12.588405448344355,305.6160694678698,0,0,0,0,0,0,0,0
1.16442,396.2018356770655,12.613303280420157,305.9763402861398,0,0,0,0,0,0,0,0
1.16444,396.3458156917381,12.646319483254274,306.3245316824075,0,0,0,0,0,0,0,0
1.16446,396.4906013923136,12.687032238491314,306.66062991067906,0,0,0,0,0,0,0,0
1.16448,396.6363670797778,12.735014708157507,306.98462170236587,0,0,0,0,0,0,0,0
1.1645,396.78327697556784,12.789835308266564,307.2964942668298,0,0,0,0,0,0,0,0
1.16452,396.9314851178854,12.851057985165667,307.5962352918787,0,0,0,0,0,0,0,0
1.16454,397.0811352645304,12.91824249445452,307.8838329442448,0,0,0,0,0,0,0,0
1.16456,397.2323608023022,12.990944682308504,308.1592758700727,0,0,0,0,0,0,0,0
1.16458,397.3870526559151,12.936291703784544,308.4225531953375,0,0,0,0,0,0,0,0
1.1646,397.53996712450544,12.952446970577538,308.67365452630406,0,0,0,0,0,0,0,0
1.16462,397.69373584221023,12.90655108384778,308.91256994993046,0,0,0,0,0,0,0,0
1.16464,397.84593080260873,12.930722859385831,309.139290034234,0,0,0,0,0,0,0,0
1.16466,397.99915483697055,12.891995200708108,309.35380582870016,0,0,0,0,0,0,0,0
1.16468,398.15018739737735,12.922587887496144,309.55610886460886,0,0,0,0,0,0,0,0
1.1646999999999998,398.3031699726299,12.889440093370496,309.7461911553846,0,0,0,0,0,0,0,0
1.16472,398.45408405938576,12.9248528529009,309.9240451969057,0,0,0,0,0,0,0,0
1.16474,398.60705209422775,12.895660629594838,310.08966396779584,0,0,0,0,0,0,0,0
1.16476,398.75928847317465,12.867819498334368,310.24304092971244,0,0,0,0,0,0,0,0
1.16478,398.9103550911952,12.907404665777529,310.38417002759303,0,0,0,0,0,0,0,0
1.1648,399.06277267729286,12.881082961758004,310.51304568990486,0,0,0,0,0,0,0,0
1.16482,399.2140458363577,12.92141608620586,310.62966282885526,0,0,0,0,0,0,0,0
1.16484,399.366678824906,12.894968980080105,310.73401684060053,0,0,0,0,0,0,0,0
1.16486,399.5173691081134,12.934408313323129,310.82610360542367,0,0,0,0,0,0,0,0
1.16488,399.67017454057,12.906210628222068,310.9059194878952,0,0,0,0,0,0,0,0
1.1649,399.82098524501134,12.9431282201542,310.97346133702206,0,0,0,0,0,0,0,0
1.16492,399.9738428314872,12.91153788467696,311.0287264863668,0,0,0,0,0,0,0,0
1.16494,400.1246159786805,12.94429504183818,311.07171275415635,0,0,0,0,0,0,0,0
1.16496,400.27732809169896,12.907677754696572,311.10241844336684,0,0,0,0,0,0,0,0
1.16498,400.4286146084216,12.934641702259563,311.1208423417895,0,0,0,0,0,0,0,0
1.165,400.5796510723409,12.958101769068694,311.12698372208087,0,0,0,0,0,0,0,0
1.16502,400.7323942200157,12.910880237429176,311.1208423417897,0,0,0,0,0,0,0,0
1.16504,400.8834481158781,12.926090914009803,311.10241844336707,0,0,0,0,0,0,0,0
1.16506,401.0347473740365,12.936576164302735,311.0717127541568,0,0,0,0,0,0,0,0
1.16508,401.1853907160997,12.941926040730928,311.02872648636736,0,0,0,0,0,0,0,0
1.1651,401.3360387443942,12.941746238116082,310.97346133702223,0,0,0,0,0,0,0,0
1.16512,401.4873420006587,12.935625609211602,310.905919487896,0,0,0,0,0,0,0,0
1.1651399999999998,401.63837051291694,12.92314427401468,310.8261036054246,0,0,0,0,0,0,0,0
1.16516,401.787712496406,12.970851029538029,310.7340168406007,0,0,0,0,0,0,0,0
1.16518,401.9385085953915,12.944465016730462,310.62966282885645,0,0,0,0,0,0,0,0
1.1652,402.089324666924,12.910508431476512,310.513045689904,0,0,0,0,0,0,0,0
1.16522,402.23794041303057,12.935602307466915,310.38417002759326,0,0,0,0,0,0,0,0
1.16524,402.38698932688334,12.952374052151423,310.2430409297114,0,0,0,0,0,0,0,0
1.16526,402.5375299476464,12.893334288581872,310.0896639677961,0,0,0,0,0,0,0,0
1.16528,402.6852727865033,12.89221133184496,309.92404519690604,0,0,0,0,0,0,0,0
1.1653,402.8328236469149,12.881574200648364,309.746191155385,0,0,0,0,0,0,0,0
1.16532,402.9799560018458,12.861023729320056,309.5561088646092,0,0,0,0,0,0,0,0
1.16534,403.1264341698244,12.830166956639712,309.3538058286986,0,0,0,0,0,0,0,0
1.16536,403.27201346605614,12.788617374477154,309.1392900342344,0,0,0,0,0,0,0,0
1.16538,403.4164403592413,12.73599517244951,308.91256994993086,0,0,0,0,0,0,0,0
1.1654,403.5594526339865,12.671927478452202,308.6736545263067,0,0,0,0,0,0,0,0
1.16542,403.70077955872176,12.596048594920626,308.422553195338,0,0,0,0,0,0,0,0
1.16544,403.8373043097402,12.642577706726382,308.1592758700708,0,0,0,0,0,0,0,0
1.16546,403.9747072553802,12.676654571413271,307.88383294424784,0,0,0,0,0,0,0,0
1.1654799999999998,404.1126965009955,12.697856293112183,307.5962352918819,0,0,0,0,0,0,0,0
1.1655,404.2509706155612,12.705767895787972,307.2964942668331,0,0,0,0,0,0,0,0
1.16552,404.3892188205842,12.699982577790548,306.9846217023693,0,0,0,0,0,0,0,0
1.16554,404.52712118474864,12.680101961512367,306.66062991067963,0,0,0,0,0,0,0,0
1.16556,404.66434882417707,12.64573633800752,306.3245316824112,0,0,0,0,0,0,0,0
1.1655799999999998,404.8001075986618,12.663952358462648,305.9763402861436,0,0,0,0,0,0,0,0
1.1656,404.9360588465506,12.666940062568756,305.6160694678738,0,0,0,0,0,0,0,0
1.16562,405.071849563801,12.654297879294642,305.24373345048315,0,0,0,0,0,0,0,0
1.16564,405.20588122990256,12.693152262952722,304.8593469331534,0,0,0,0,0,0,0,0
1.16566,405.3405605277701,12.71563095652776,304.46292509081314,0,0,0,0,0,0,0,0
1.16568,405.47675306576514,12.653759531488134,304.0544835735069,0,0,0,0,0,0,0,0
1.1657,405.6100516416674,12.64225761614382,303.63403850582506,0,0,0,0,0,0,0,0
1.16572,405.7428406651075,12.613215848551906,303.2016064862042,0,0,0,0,0,0,0,0
1.16574,405.874717455832,12.566254180500858,302.75720458631537,0,0,0,0,0,0,0,0
1.16576,406.0052709722996,12.501003343974524,302.30085035040094,0,0,0,0,0,0,0,0
1.16578,406.13408206231605,12.41710507189393,301.83256179453247,0,0,0,0,0,0,0,0
1.1658,406.25793848647953,12.449597473599567,301.35235740594874,0,0,0,0,0,0,0,0
1.16582,406.38226308422566,12.462821024385748,300.8602561422926,0,0,0,0,0,0,0,0
1.16584,406.50661920126015,12.456374992318416,300.3562774308747,0,0,0,0,0,0,0,0
1.16586,406.6305614934333,12.429870213609,299.84044116792074,0,0,0,0,0,0,0,0
1.16588,406.753636191932,12.382929318308218,299.31276771775384,0,0,0,0,0,0,0,0
1.1659,406.8753813733488,12.315186949352189,298.7732779120278,0,0,0,0,0,0,0,0
1.1659199999999998,406.9936741443482,12.361921448366727,298.2219930488717,0,0,0,0,0,0,0,0
1.16594,407.1598857131637,9.605707398726503,297.6589348920628,0,0,0,0,0,0,1,0
1.16596,407.24129788969753,5.944463010583364,297.08412567018325,0,0,0,0,0,0,1,0
1.16598,407.2114367569643,2.263002009582607,296.4975880757064,0,0,0,0,0,0,1,0
1.166,407.0778545991206,0.0002958993604268,295.89934526414294,0,0,0,0,0,0,1,0
1.16602,406.92331039686303,0.000295289436372,295.2894208530838,0,0,0,0,0,0,1,0
1.16604,406.769097955368,0.0002946678547958,294.6678389213114,0,0,0,0,0,0,1,0
1.16606,406.615045094776,0.0002940346402372,294.0346240078106,0,0,0,0,0,0,1,0
1.16608,406.4610505642488,0.0002933898176945,293.38980111081617,0,0,0,0,0,0,1,0
1.1661,406.30711434140176,0.0002927334126242,292.7333956868435,0,0,0,0,0,0,1,0
1.16612,406.1532364038589,0.00029206545094,292.065433649643,0,0,0,0,0,0,1,0
1.16614,405.9994167292536,0.0002913859590119,291.3859413692242,0,0,0,0,0,0,1,0
1.16616,405.8456552952284,0.000290694963665,290.6949456707729,0,0,0,0,0,0,1,0
1.16618,405.69195207943454,0.0002899924921788,289.99247383360967,0,0,0,0,0,0,1,0
1.1662,405.5383070595336,0.0002892785722855,289.2785535901325,0,0,0,0,0,0,1,0
1.16622,405.3847202131949,0.0002885532321694,288.55321312467737,0,0,0,0,0,0,1,0
1.16624,405.2311915180972,0.0002878165004659,287.81648107245684,0,0,0,0,0,0,1,0
1.16626,405.0777209519295,0.0002870684062598,287.06838651838444,0,0,0,0,0,0,1,0
1.16628,404.9243084923884,0.0002863089790845,286.30895899594526,0,0,0,0,0,0,1,0
1.1663,404.77095411718153,0.0002855382489209,285.53822848605137,0,0,0,0,0,0,1,0
1.16632,404.6176578040237,0.0002847562461962,284.7562254158024,0,0,0,0,0,0,1,0
1.16634,404.4644195306403,0.0002839630017825,283.96298065736886,0,0,0,0,0,0,1,0
1.1663599999999998,404.3112392747652,0.0002831585469957,283.15852552668895,0,0,0,0,0,0,1,0
1.16638,404.1581170141421,0.0002823429135943,282.34289178224424,0,0,0,0,0,0,1,0
1.1664,404.005052726524,0.0002815161337781,281.5161116238952,0,0,0,0,0,0,1,0
1.16642,403.852046389673,0.000280678240187,280.6782176914846,0,0,0,0,0,0,1,0
1.16644,403.6990979813593,0.0002798292658996,279.8292430636451,0,0,0,0,0,0,1,0
1.16646,403.54620747936326,0.0002789692444319,278.9692212564262,0,0,0,0,0,0,1,0
1.16648,403.39337486147616,0.0002780982097361,278.0981862220317,0,0,0,0,0,0,1,0
1.1665,403.240600105496,0.0002772161961991,277.21617234742564,0,0,0,0,0,0,1,0
1.16652,403.087883189231,0.0002763232386414,276.32321445299726,0,0,0,0,0,0,1,0
1.16654,402.93522409049865,0.0002754193723154,275.4193477912117,0,0,0,0,0,0,1,0
1.16656,402.782622787126,0.0002745046329042,274.50460804516047,0,0,0,0,0,0,1,0
1.16658,402.6300792569492,0.00027357905652,273.5790313272192,0,0,0,0,0,0,1,0
1.1666,402.4775934778135,0.0002726426797032,272.64265417756343,0,0,0,0,0,0,1,0
1.16662,402.32516542757406,0.0002716955394202,271.6955135627512,0,0,0,0,0,0,1,0
1.16664,402.1727950840948,0.0002707376730625,270.7376468742894,0,0,0,0,0,0,1,0
1.16666,402.0204824252485,0.0002697691184451,269.7690919270974,0,0,0,0,0,0,1,0
1.16668,401.8682274289184,0.0002687899138048,268.7898869580836,0,0,0,0,0,0,1,0
1.1666999999999998,401.7160300729966,0.000267800097799,267.80007062457474,0,0,0,0,0,0,1,0
1.16672,401.5638903353848,0.0002667997095038,266.79968200281576,0,0,0,0,0,0,1,0
1.16674,401.4118081939932,0.0002657887884129,265.78876058645466,0,0,0,0,0,0,1,0
1.16676,401.2597836267429,0.0002647673744358,264.76734628491965,0,0,0,0,0,0,1,0
1.16678,401.10781661156295,0.0002637355078961,263.73547942191686,0,0,0,0,0,0,1,0
1.1667999999999998,400.95590712639193,0.0002626932295301,262.69320073377406,0,0,0,0,0,0,1,0
1.16682,400.8040551491793,0.0002616405804852,261.6405513678597,0,0,0,0,0,0,1,0
1.16684,400.6522606578814,0.0002605776023182,260.5775728809872,0,0,0,0,0,0,1,0
1.16686,400.5005236304665,0.0002595043369937,259.50430723769824,0,0,0,0,0,0,1,0
1.16688,400.3488440449112,0.0002584208268822,258.42079680873127,0,0,0,0,0,0,1,0
1.1669,400.1972218792008,0.000257327114759,257.3270843691641,0,0,0,0,0,0,1,0
