Time / s,Vo:Measured voltage,IL:Measured current,Vin:Measured voltage,short1:Output,short2:Output,short3:Output,short4:Output,open1:Output,open3:Output,open2:Output,open4:Output
1.1281230949688872,410.62295045953016,7.161663413813253,173.25903086633926,0,0,0,0,0,0,0,0
1.12814,410.5582594038,7.160193361707106,171.6319158113663,0,0,0,0,0,0,0,0
1.12816,410.49323783532543,7.105285830448895,169.9980250222233,0,0,0,0,0,0,0,0
1.12818,410.42720459186336,6.996735781024638,168.35742300215043,0,0,0,0,0,0,0,0
1.1282,410.35947623459975,6.834349919835217,166.71017451929157,0,0,0,0,0,0,0,0
1.12822,410.2872839068693,6.82306873913816,165.05634460418133,0,0,0,0,0,0,0,0
1.12824,410.21433583133006,6.8259000492163615,163.39599854722283,0,0,0,0,0,0,0,0
1.12826,410.1411231787815,6.774257496978088,161.72920189600538,0,0,0,0,0,0,0,0
1.12828,410.06698470482553,6.6679460073046295,160.0560204528369,0,0,0,0,0,0,0,0
1.1283,409.991257118278,6.506781570987018,158.37652027204084,0,0,0,0,0,0,0,0
1.12832,409.9112956705396,6.495526690277251,156.69076765739322,0,0,0,0,0,0,0,0
1.12834,409.8306085350529,6.497313981852569,154.99882915955132,0,0,0,0,0,0,0,0
1.12836,409.749656648872,6.443629694625651,153.3007715733194,0,0,0,0,0,0,0,0
1.12838,409.66780041216526,6.334289861751532,151.59666193513408,0,0,0,0,0,0,0,0
1.1283999999999998,409.58439840897455,6.169120905091649,149.88656752031068,0,0,0,0,0,0,0,0
1.12842,409.4973667305677,6.0844443315512695,148.170555840433,0,0,0,0,0,0,0,0
1.12844,409.4084116157972,6.080035526537473,146.4486946407349,0,0,0,0,0,0,0,0
1.12846,409.3191377342213,6.019210649087031,144.72105189731712,0,0,0,0,0,0,0,0
1.12848,409.2289289384912,5.90179769203472,142.9876958145882,0,0,0,0,0,0,0,0
1.1285,409.1371674913621,5.727634364530734,141.24869482244696,0,0,0,0,0,0,0,0
1.12852,409.04164592120776,5.70107289424634,139.5041175737064,0,0,0,0,0,0,0,0
1.12854,408.94519900185423,5.685533761592958,137.75403294127338,0,0,0,0,0,0,0,0
1.12856,408.8483364481188,5.612672355233598,135.99851001546077,0,0,0,0,0,0,0,0
1.12858,408.7504671163374,5.482329241214698,134.23761810138717,0,0,0,0,0,0,0,0
1.1286,408.650417470332,5.362456831832918,132.4714267159547,0,0,0,0,0,0,0,0
1.12862,408.5476130649412,5.3890432722140496,130.70000558545485,0,0,0,0,0,0,0,0
1.12864,408.44482700875056,5.357592799248428,128.92342464252877,0,0,0,0,0,0,0,0
1.12866,408.34149586995846,5.267950568754352,127.14175402353398,0,0,0,0,0,0,0,0
1.12868,408.237054969464,5.119970128594053,125.35506406580802,0,0,0,0,0,0,0,0
1.1287,408.1301595457389,5.049549556670925,123.5634253047788,0,0,0,0,0,0,0,0
1.12872,408.02172782162177,4.988455139117275,121.76690847130924,0,0,0,0,0,0,0,0
1.12874,407.91217496241273,4.936506119794321,119.96558448879162,0,0,0,0,0,0,0,0
1.12876,407.8019260962671,4.825551510781211,118.15952447039606,0,0,0,0,0,0,0,0
1.12878,407.68969553417145,4.791347976314223,116.34879971631226,0,0,0,0,0,0,0,0
1.1288,407.576947727325,4.697812376607189,114.53348171082033,0,0,0,0,0,0,0,0
1.12882,407.462257891806,4.680626847605426,112.71364211959958,0,0,0,0,0,0,0,0
1.1288399999999998,407.3472153445584,4.603788708728721,110.8893527867847,0,0,0,0,0,0,0,0
1.12886,407.2313136334504,4.467170822108204,109.06068573217824,0,0,0,0,0,0,0,0
1.12888,407.11335442206814,4.406351942823604,107.22771314845744,0,0,0,0,0,0,0,0
1.1289,406.9946979503793,4.285449814964891,105.39050739820816,0,0,0,0,0,0,0,0
1.12892,406.87404816948776,4.2399653204217325,103.5491410112009,0,0,0,0,0,0,0,0
1.12894,406.7523825029568,4.201887823692922,101.70368668139436,0,0,0,0,0,0,0,0
1.12896,406.6300276456013,4.171051539650356,99.85421726419898,0,0,0,0,0,0,0,0
1.12898,406.5072569991997,4.079536773434701,98.00080577348382,0,0,0,0,0,0,0,0
1.129,406.3836107059903,3.927233905799648,96.1435253787442,0,0,0,0,0,0,0,0
1.12902,406.25790612300256,3.8494529628190697,94.28244940226352,0,0,0,0,0,0,0,0
1.12904,406.1308475983873,3.845982210866648,92.417651316101,0,0,0,0,0,0,0,0
1.12906,406.00360078492304,3.781273887220183,90.54920473932576,0,0,0,0,0,0,0,0
1.12908,405.87573867212575,3.655226415517935,88.67718343499254,0,0,0,0,0,0,0,0
1.1291,405.74638995342906,3.5353641426365305,86.80166130728,0,0,0,0,0,0,0,0
1.12912,405.6152799036864,3.5567426905119843,84.92271239862427,0,0,0,0,0,0,0,0
1.12914,405.4841600745909,3.5163536585127293,83.04041088665997,0,0,0,0,0,0,0,0
1.12916,405.3526371815132,3.4141042539261552,81.15483108151292,0,0,0,0,0,0,0,0
1.12918,405.22031751506256,3.2499069414462127,79.2660474225771,0,0,0,0,0,0,0,0
1.1292,405.0858613899141,3.226215265228135,77.37413447578001,0,0,0,0,0,0,0,0
1.12922,404.9509643077122,3.2077898110047585,75.47916693067381,0,0,0,0,0,0,0,0
1.12924,404.81583374142,3.127017237977209,73.58121959728102,0,0,0,0,0,0,0,0
1.12926,404.68011065189415,2.9838189283864915,71.68036740334696,0,0,0,0,0,0,0,0
1.1292799999999998,404.5431149293959,2.845542271463408,69.77668539124429,0,0,0,0,0,0,0,0
1.1293,404.4047493892626,2.7794558756511933,67.87024871506195,0,0,0,0,0,0,0,0
1.12932,404.2657537161909,2.71798942501893,65.96113263769008,0,0,0,0,0,0,0,0
1.12934,404.1263330439217,2.5936565972306425,64.04941252772794,0,0,0,0,0,0,0,0
1.12936,403.98588606877473,2.47372138764652,62.135163856646656,0,0,0,0,0,0,0,0
1.12938,403.8443323528497,2.425366242896367,60.21846219567144,0,0,0,0,0,0,0,0
1.1294,403.7023161921353,2.381119831043053,58.2993832129366,0,0,0,0,0,0,0,0
1.12942,403.5600096966497,2.2735977697805865,56.37800267037706,0,0,0,0,0,0,0,0
1.12944,403.416766767981,2.237215957198896,54.45439642078932,0,0,0,0,0,0,0,0
1.12946,403.2732891807798,2.1373663537119607,52.528640404889146,0,0,0,0,0,0,0,0
1.12948,403.12905934364176,2.0411846215577327,50.60081064819178,0,0,0,0,0,0,0,0
1.1295,402.98425213601377,1.948560096749668,48.67098325814996,0,0,0,0,0,0,0,0
1.12952,402.83870147770085,1.9265194048220813,46.739234421027184,0,0,0,0,0,0,0,0
1.12954,402.6930097953018,1.8406543696614408,44.805640398942366,0,0,0,0,0,0,0,0
1.12956,402.5469450229167,1.6909245132087052,42.87027752691165,0,0,0,0,0,0,0,0
1.12958,402.3998137138748,1.6784913271289894,40.933222209712326,0,0,0,0,0,0,0,0
1.1296,402.2525076552968,1.6690341047697976,38.99455091900659,0,0,0,0,0,0,0,0
1.1296199999999998,402.1051315647943,1.5954321893444616,37.05434019019995,0,0,0,0,0,0,0,0
1.12964,401.957491081149,1.457655348091235,35.11266661947223,0,0,0,0,0,0,0,0
1.12966,401.8092425172858,1.322643959226384,33.16960686080646,0,0,0,0,0,0,0,0
1.12968,401.6602931816735,1.3241945872638752,31.225237622839707,0,0,0,0,0,0,0,0
1.1297,401.51132593707473,1.26131874687292,29.27963566597537,0,0,0,0,0,0,0,0
1.12972,401.3621846098149,1.1339966440005598,27.33287779919448,0,0,0,0,0,0,0,0
1.12974,401.2125998633923,1.009079808977163,25.385040877234683,0,0,0,0,0,0,0,0
1.12976,401.0625697905194,0.9533298565292156,23.43620179734485,0,0,0,0,0,0,0,0
1.12978,400.9123762594396,0.8997759732374003,21.48643749628436,0,0,0,0,0,0,0,0
1.1298,400.7620834672399,0.7815429797004191,19.535824947497463,0,0,0,0,0,0,0,0
1.12982,400.6114664650372,0.7321635249939783,17.584441157774677,0,0,0,0,0,0,0,0
1.12984,400.4607823851436,0.618003124746842,15.632363164442026,0,0,0,0,0,0,0,0
1.12986,400.3098501693524,0.5724992799262357,13.679668032178542,0,0,0,0,0,0,0,0
1.12988,400.1588806566528,0.4621225845244749,11.72643285002682,0,0,0,0,0,0,0,0
1.1299,400.0077413621127,0.4202155732130543,9.772734728402725,0,0,0,0,0,0,0,0
1.12992,399.8565915469982,0.3133538370925825,7.818650795927472,0,0,0,0,0,0,0,0
1.12994,399.70535315985046,0.2081649277634491,5.864258196524153,0,0,0,0,0,0,0,0
1.12996,399.55406114543325,0.1711839455840179,3.909634086248455,0,0,0,0,0,0,0,0
1.12998,399.40279198421854,0.1357138778726023,1.9548556302957127,0,0,0,0,0,0,0,0
1.13,399.2515594543058,0.0351558888291028,7.621568784343005e-12,0,0,0,0,0,0,0,0
1.13002,399.1003564417412,0.0025667576142692,-1.954855630298156,0,0,0,0,0,0,0,0
1.13004,398.9492106924823,-0.0951617580196217,-3.9096340862332126,0,0,0,0,0,0,0,0
1.1300599999999998,398.7981420840272,-0.1250664373250865,-5.864258196508913,0,0,0,0,0,0,0,0
1.13008,398.6471447378244,-0.220151276937917,-7.818650795929916,0,0,0,0,0,0,0,0
1.1301,398.4962383705844,-0.38038574234581,-9.772734728387489,0,0,0,0,0,0,0,0
1.13012,398.3455292828253,-0.5393467618923175,-11.726432850029262,0,0,0,0,0,0,0,0
1.13014,398.1951360979312,-0.5643343828176621,-13.679668032163312,0,0,0,0,0,0,0,0
1.13016,398.0448474477236,-0.654552724644641,-15.632363164444463,0,0,0,0,0,0,0,0
1.13018,397.8948395967272,-0.7436467497355423,-17.584441157777114,0,0,0,0,0,0,0,0
1.1302,397.7450999037107,-0.8316429984184298,-19.535824947482247,0,0,0,0,0,0,0,0
1.13022,397.59565553939694,-0.9185673005000063,-21.48643749628679,0,0,0,0,0,0,0,0
1.13024,397.4464759888788,-1.0044405931381897,-23.436201797312016,0,0,0,0,0,0,0,0
1.13026,397.29779180312346,-1.023070509291953,-25.38504087723712,0,0,0,0,0,0,0,0
1.13028,397.14925708948135,-1.1069264225681046,-27.33287779919691,0,0,0,0,0,0,0,0
1.1303,397.0009903114647,-1.255952799680889,-29.27963566594259,0,0,0,0,0,0,0,0
1.13032,396.8533100895119,-1.337804910594306,-31.225237622842137,0,0,0,0,0,0,0,0
1.13034,396.7062655102168,-1.352565676766205,-33.16960686077372,0,0,0,0,0,0,0,0
1.13036,396.55939138983433,-1.4324945493427876,-35.11266661947466,0,0,0,0,0,0,0,0
1.13038,396.4128455381952,-1.577525960458639,-37.05434019018481,0,0,0,0,0,0,0,0
1.1303999999999998,396.2673541411263,-1.5894611833026238,-38.994550918991465,0,0,0,0,0,0,0,0
1.13042,396.1221006853637,-1.6004693537758783,-40.933222209714735,0,0,0,0,0,0,0,0
1.13044,395.9770341815913,-1.676544043387863,-42.87027752689655,0,0,0,0,0,0,0,0
1.13046,395.83235157907336,-1.8176096514381137,-44.80564039894479,0,0,0,0,0,0,0,0
1.13048,395.688544638646,-1.9576424969845223,-46.739234421012114,0,0,0,0,0,0,0,0
1.1304999999999998,395.5457374383544,-2.0307019078853608,-48.67098325813491,0,0,0,0,0,0,0,0
1.13052,395.4034362164856,-2.1027346211057827,-50.6008106481942,0,0,0,0,0,0,0,0
1.13054,395.2615686598312,-2.239599615783685,-52.528640404874125,0,0,0,0,0,0,0,0
1.13056,395.1209359554024,-2.309505647292033,-54.45439642079172,0,0,0,0,0,0,0,0
1.13058,394.9809968796937,-2.3783179935456022,-56.37800267036207,0,0,0,0,0,0,0,0
1.1306,394.8416243948443,-2.446005176514568,-58.299383212939,0,0,0,0,0,0,0,0
1.13062,394.7031031729161,-2.5125411617141635,-60.21846219567384,0,0,0,0,0,0,0,0
1.13064,394.56530136008007,-2.577887659629961,-62.13516385663173,0,0,0,0,0,0,0,0
1.13066,394.4282561567517,-2.642007432419665,-64.04941252773033,0,0,0,0,0,0,0,0
1.13068,394.2918184608939,-2.704857094342307,-65.96113263767518,0,0,0,0,0,0,0,0
1.1307,394.1563027647949,-2.766399114911177,-67.87024871506433,0,0,0,0,0,0,0,0
1.13072,394.0215547306323,-2.826583048948258,-69.77668539122944,0,0,0,0,0,0,0,0
1.13074,393.88733718582887,-2.9510059147744334,-71.68036740333213,0,0,0,0,0,0,0,0
1.13076,393.7542822011711,-3.073929444268925,-73.5812195972834,0,0,0,0,0,0,0,0
1.13078,393.62295512244697,-3.064092652994275,-75.479166930659,0,0,0,0,0,0,0,0
1.1308,393.49180941930126,-3.11829674527615,-77.37413447578238,0,0,0,0,0,0,0,0
1.13082,393.36121332366025,-3.236421557432455,-79.26604742254524,0,0,0,0,0,0,0,0
1.1308399999999998,393.23186269727023,-3.3528060769321817,-81.15483108148113,0,0,0,0,0,0,0,0
1.13086,393.1043550175952,-3.336350352639891,-83.0404108866623,0,0,0,0,0,0,0,0
1.13088,392.9769973591464,-3.3835811308452413,-84.9227123985926,0,0,0,0,0,0,0,0
1.1309,392.85019444948006,-3.494368675051525,-86.80166130728233,0,0,0,0,0,0,0,0
1.13092,392.7243500205164,-3.668577979187656,-88.67718343496098,0,0,0,0,0,0,0,0
1.13094,392.60124227437706,-3.6443466956816537,-90.54920473932812,0,0,0,0,0,0,0,0
1.13096,392.47823650854576,-3.683398626715419,-92.41765131610336,0,0,0,0,0,0,0,0
1.13098,392.35577317734806,-3.785594688845253,-94.282449402249,0,0,0,0,0,0,0,0
1.131,392.2342915787832,-3.950790006281911,-96.14352537874652,0,0,0,0,0,0,0,0
1.13102,392.11516848306064,-4.048138183923993,-98.00080577346937,0,0,0,0,0,0,0,0
1.13104,391.9975958106692,-4.077586875930906,-99.85421726420128,0,0,0,0,0,0,0,0
1.13106,391.880531694887,-4.169713304018007,-101.70368668139668,0,0,0,0,0,0,0,0
1.13108,391.76506507441337,-4.259075461975269,-103.54914101118652,0,0,0,0,0,0,0,0
1.1311,391.65094402436927,-4.345560619233179,-105.39050739821046,0,0,0,0,0,0,0,0
1.13112,391.53823965942007,-4.429059487156304,-107.2277131484431,0,0,0,0,0,0,0,0
1.13114,391.3980715910544,0.000282337082366,-109.0606857321805,0,0,0,0,0,1,0,0
1.13116,391.24984218342223,0.0002803383595545,-110.88935278677044,0,0,0,0,0,1,0,0
1.13118,391.10166908643913,0.0002770109129686,-112.71364211958536,0,0,0,0,0,1,0,0
1.1312,390.9535522763068,0.0001909508150496,-114.53348171082258,0,0,0,0,0,1,0,0
1.13122,390.8054917288606,-0.0001163487441614,-116.34879971629812,0,0,0,0,0,1,0,0
1.13124,390.65748733786097,-0.0001181594690363,-118.15952447039832,0,0,0,0,0,1,0,0
1.13126,390.5095390391815,-0.0001199655291776,-119.96558448877757,0,0,0,0,0,1,0,0
1.1312799999999998,390.3616467709117,-0.0001217668532852,-121.76690847129522,0,0,0,0,0,1,0,0
1.1313,390.2138105118317,-0.000123563370246,-123.56342530478103,0,0,0,0,0,1,0,0
1.13132,390.0660302407307,-0.0001253550091365,-125.35506406579408,0,0,0,0,0,1,0,0
1.13134,389.9183059364044,-0.0001271416992259,-127.1417540235362,0,0,0,0,0,1,0,0
1.13136,389.7706375776573,-0.0001289233699787,-128.9234246425149,0,0,0,0,0,1,0,0
1.13138,389.6230251433026,-0.0001306999510576,-130.70000558545706,0,0,0,0,0,1,0,0
1.1314,389.4754686121604,-0.0001324713723263,-132.4714267159569,0,0,0,0,0,1,0,0
1.13142,389.3279679630588,-0.0001342375638519,-134.23761810135747,0,0,0,0,0,1,0,0
1.13144,389.1805231748349,-0.0001359984559084,-135.99851001546295,0,0,0,0,0,1,0,0
1.13146,389.0331342263333,-0.0001377539789788,-137.75403294124385,0,0,0,0,0,1,0,0
1.13148,388.88580109640645,-0.0001395040637579,-139.50411757370858,0,0,0,0,0,1,0,0
1.1315,388.7385237639154,-0.0001412486411555,-141.24869482244915,0,0,0,0,0,1,0,0
1.13152,388.591302207728,-0.0001429876422985,-142.98769581455898,0,0,0,0,0,1,0,0
1.13154,388.4441364067212,-0.0001447209985343,-144.72105189731928,0,0,0,0,0,1,0,0
1.13156,388.29702633978,-0.0001464486414328,-146.44869464072147,0,0,0,0,0,1,0,0
1.13158,388.1499719857966,-0.0001481705027898,-148.17055584043516,0,0,0,0,0,1,0,0
1.1316,388.0029733236716,-0.000149886514629,-149.88656752029735,0,0,0,0,0,1,0,0
1.1316199999999998,387.85603033231337,-0.0001515966092052,-151.59666193512078,0,0,0,0,0,1,0,0
1.13164,387.7091429906392,-0.000153300719007,-153.30077157332153,0,0,0,0,0,1,0,0
1.13166,387.56231127757286,-0.0001549987767588,-154.9988291595381,0,0,0,0,0,1,0,0
1.13168,387.4155351720471,-0.0001566907154243,-156.69076765739533,0,0,0,0,0,1,0,0
1.1317,387.2688146530029,-0.0001583764682086,-158.3765202720277,0,0,0,0,0,1,0,0
1.13172,387.12214969938816,-0.0001600559685612,-160.056020452839,0,0,0,0,0,1,0,0
1.13174,386.9755402901596,-0.0001617291501782,-161.72920189600745,0,0,0,0,0,1,0,0
1.13176,386.8289864042816,-0.0001633959470052,-163.39599854720984,0,0,0,0,0,1,0,0
1.13178,386.6824880207269,-0.0001650562932401,-165.05634460418338,0,0,0,0,0,1,0,0
1.1318,386.536045118476,-0.0001667101233351,-166.71017451927872,0,0,0,0,0,1,0,0
1.13182,386.389657676517,-0.0001683573719999,-168.3574230021525,0,0,0,0,0,1,0,0
1.13184,386.2433256738457,-0.000169997974204,-169.9980250222253,0,0,0,0,0,1,0,0
1.13186,386.0970490894672,-0.0001716318651791,-171.6319158113536,0,0,0,0,0,1,0,0
1.13188,385.950827902393,-0.000173258980422,-173.25903086634125,0,0,0,0,0,1,0,0
1.1319,385.804662091644,-0.0001748792556971,-174.87930595144263,0,0,0,0,0,1,0,0
1.13192,385.6585516362472,-0.0001764926270385,-176.49267710100096,0,0,0,0,0,1,0,0
1.13194,385.5124965152394,-0.0001780990307533,-178.0990806218567,0,0,0,0,0,1,0,0
1.13196,385.36649670766406,-0.0001796984034233,-179.69845309596397,0,0,0,0,0,1,0,0
1.13198,385.2205521925737,-0.000181290681908,-181.29073138285048,0,0,0,0,0,1,0,0
1.132,385.07466294902775,-0.000182875803347,-182.87585262206707,0,0,0,0,0,1,0,0
1.13202,384.92882895609415,-0.0001844537051625,-184.45375423577008,0,0,0,0,0,1,0,0
1.13204,384.78305019284846,-0.0001860243250615,-186.02437393107692,0,0,0,0,0,1,0,0
1.1320599999999998,384.6373266383743,-0.0001875876010386,-187.58764970262592,0,0,0,0,0,1,0,0
1.13208,384.4916582717633,-0.0001891434713785,-189.1435198349943,0,0,0,0,0,1,0,0
1.1321,384.34604507211446,-0.000190691874658,-190.6919229050229,0,0,0,0,0,1,0,0
