Time / s,Vo:Measured voltage,IL:Measured current,Vin:Measured voltage,short1:Output,short2:Output,short3:Output,short4:Output,open1:Output,open3:Output,open2:Output,open4:Output
1.1756709206031322,405.3527824888165,-12.65948591852607,-304.4629250908102,0,0,0,0,0,0,0,0
1.1756799999999998,405.4872152134144,-12.664938459764544,-304.05448357351133,0,0,0,0,0,0,0,0
1.1757,405.6215262394844,-12.653216304113329,-303.634038505822,0,0,0,0,0,0,0,0
1.17572,405.75532088942697,-12.62392901319817,-303.20160648620094,0,0,0,0,0,0,0,0
1.17574,405.8881958828503,-12.576696716896006,-302.75720458631616,0,0,0,0,0,0,0,0
1.17576,406.0197395825601,-12.511150340212865,-302.30085035040173,0,0,0,0,0,0,0,0
1.17578,406.1495322455373,-12.426931823908731,-301.83256179453326,0,0,0,0,0,0,0,0
1.1758,406.2771462787687,-12.323694338744763,-301.35235740594953,0,0,0,0,0,0,0,0
1.17582,406.4001542334567,-12.336536097300366,-300.86025614229345,0,0,0,0,0,0,0,0
1.17584,406.5231834231376,-12.329740808037988,-300.35627743087554,0,0,0,0,0,0,0,0
1.17586,406.6457891797602,-12.302919547246146,-299.84044116792165,0,0,0,0,0,0,0,0
1.17588,406.76751841564896,-12.255695168293135,-299.31276771775475,0,0,0,0,0,0,0,0
1.1759,406.8870961734221,-12.255501206082224,-298.77327791202873,0,0,0,0,0,0,0,0
1.17592,407.0048124291711,-12.302018012013685,-298.22199304887266,0,0,0,0,0,0,0,0
1.17594,407.1232760371713,-12.32708463190229,-297.65893489206377,0,0,0,0,0,0,0,0
1.17596,407.2420078178979,-12.33029856661116,-297.0841256701842,0,0,0,0,0,0,0,0
1.17598,407.3605200096068,-12.311269866374309,-296.4975880757075,0,0,0,0,0,0,0,0
1.176,407.47831655158245,-12.269621350503831,-295.899345264144,0,0,0,0,0,0,0,0
1.1760199999999998,407.5948933720623,-12.2049888200974,-295.2894208530904,0,0,0,0,0,0,0,0
1.17604,407.7097386806749,-12.117021263635198,-294.66783892131247,0,0,0,0,0,0,0,0
1.17606,407.82037625287535,-12.141288991186258,-294.03462400781166,0,0,0,0,0,0,0,0
1.17608,407.9312397168808,-12.14159576792482,-293.38980111081725,0,0,0,0,0,0,0,0
1.1761,408.0418020790916,-12.117558223840897,-292.73339568684463,0,0,0,0,0,0,0,0
1.17612,408.15152833103446,-12.068806624871328,-292.06543364963807,0,0,0,0,0,0,0,0
1.17614,408.2598757520806,-11.994985075575604,-291.3859413692254,0,0,0,0,0,0,0,0
1.17616,408.3647546863848,-11.963795449696352,-290.6949456707741,0,0,0,0,0,0,0,0
1.17618,408.4678316949567,-11.974959469591036,-289.9924738336045,0,0,0,0,0,0,0,0
1.1762,408.5708297839769,-11.960077351088003,-289.2785535901273,0,0,0,0,0,0,0,0
1.17622,408.67318468816194,-11.918779013863093,-288.553213124672,0,0,0,0,0,0,0,0
1.17624,408.7743245499502,-11.85070880440567,-287.8164810724514,0,0,0,0,0,0,0,0
1.17626,408.8723589770363,-11.823655711152032,-287.06838651837893,0,0,0,0,0,0,0,0
1.17628,408.9688957864551,-11.837332579118774,-286.3089589959397,0,0,0,0,0,0,0,0
1.1763,409.06539121954233,-11.823253506425392,-285.5382284860456,0,0,0,0,0,0,0,0
1.17632,409.16125272059287,-11.781052889884188,-284.7562254158037,0,0,0,0,0,0,0,0
1.17634,409.2558803630373,-11.71038009669533,-283.9629806573702,0,0,0,0,0,0,0,0
1.17636,409.34866717166847,-11.610899645989273,-283.158525526683,0,0,0,0,0,0,0,0
1.17638,409.43671951423767,-11.618739646390154,-282.34289178224566,0,0,0,0,0,0,0,0
1.1764,409.5245950677743,-11.597182298644135,-281.5161116238967,0,0,0,0,0,0,0,0
1.17642,409.6116755788504,-11.545870816227032,-280.678217691486,0,0,0,0,0,0,0,0
1.17644,409.6960636889864,-11.532731647100215,-279.8292430636466,0,0,0,0,0,0,0,0
1.1764599999999998,409.7792607311525,-11.557472564035937,-278.9692212564355,0,0,0,0,0,0,0,0
1.17648,409.8626184953004,-11.551472557755975,-278.09818622203323,0,0,0,0,0,0,0,0
1.1765,409.94549984136177,-11.51437195452852,-277.2161723474271,0,0,0,0,0,0,0,0
1.17652,410.0272606221396,-11.445826793483516,-276.32321445299885,0,0,0,0,0,0,0,0
1.17654,410.107250011422,-11.345508994468169,-275.4193477912133,0,0,0,0,0,0,0,0
1.17656,410.18481083535727,-11.213106518364436,-274.50460804516206,0,0,0,0,0,0,0,0
1.17658,410.25707989179233,-11.185046696139798,-273.5790313272207,0,0,0,0,0,0,0,0
1.1766,410.3271948457513,-11.192727717395275,-272.642654177565,0,0,0,0,0,0,0,0
1.17662,410.3965602754433,-11.235849584972303,-271.69551356275286,0,0,0,0,0,0,0,0
1.17664,410.46642782854025,-11.24568537078507,-270.73764687429104,0,0,0,0,0,0,0,0
1.17666,410.5361281065986,-11.22187826420284,-269.76909192709905,0,0,0,0,0,0,0,0
1.17668,410.6049849906877,-11.164087562944076,-268.7898869580852,0,0,0,0,0,0,0,0
1.1767,410.6723159676179,-11.071988829549678,-267.8000706245764,0,0,0,0,0,0,0,0
1.17672,410.73743245910265,-10.945274040578791,-266.79968200281746,0,0,0,0,0,0,0,0
1.17674,410.79822601226647,-10.852102555069804,-265.7887605864564,0,0,0,0,0,0,0,0
1.17676,410.8548807343721,-10.860692432297942,-264.7673462849121,0,0,0,0,0,0,0,0
1.17678,410.9108133453093,-10.902316357761483,-263.7354794219093,0,0,0,0,0,0,0,0
1.1767999999999998,410.9671836921824,-10.908169018546175,-262.69320073377594,0,0,0,0,0,0,0,0
1.17682,411.02329461456753,-10.877906437691385,-261.6405513678519,0,0,0,0,0,0,0,0
1.17684,411.0784427047132,-10.811200996904134,-260.57757288097935,0,0,0,0,0,0,0,0
1.17686,411.1319186284892,-10.707741578065042,-259.50430723770006,0,0,0,0,0,0,0,0
1.17688,411.18300744889,-10.5672336977882,-258.42079680872325,0,0,0,0,0,0,0,0
1.1769,411.2284831304548,-10.526447790950764,-257.327084369166,0,0,0,0,0,0,0,0
1.17692,411.27272468833473,-10.516632418693971,-256.22321309694223,0,0,0,0,0,0,0,0
1.17694,411.3152591613492,-10.537478365372955,-255.10922657098988,0,0,0,0,0,0,0,0
1.17696,411.3578088081624,-10.520142705644895,-253.98516876957933,0,0,0,0,0,0,0,0
1.17698,411.39965332874567,-10.464302444587668,-252.85108406860823,0,0,0,0,0,0,0,0
1.177,411.4400667832096,-10.369651057965152,-251.7070172397782,0,0,0,0,0,0,0,0
1.17702,411.4783179045118,-10.235898616628042,-250.55301344890933,0,0,0,0,0,0,0,0
1.17704,411.51124313946553,-10.199915280946543,-249.3891182540852,0,0,0,0,0,0,0,0
1.17706,411.5426575168044,-10.192896841201168,-248.21537760388424,0,0,0,0,0,0,0,0
1.17708,411.5728436556201,-10.214548105318476,-247.03183783559896,0,0,0,0,0,0,0,0
1.1771,411.6030444114652,-10.195979990222131,-245.83854567333145,0,0,0,0,0,0,0,0
1.17712,411.6325257766964,-10.13688062179276,-244.63554822623465,0,0,0,0,0,0,0,0
1.17714,411.66054850082776,-10.03695447618202,-243.422892986577,0,0,0,0,0,0,0,0
1.17716,411.6863683907684,-9.895922492223228,-242.20062782790004,0,0,0,0,0,0,0,0
1.17718,411.7068935039279,-9.850731802852858,-240.96880100316145,0,0,0,0,0,0,0,0
1.1772,411.72578802595007,-9.83254714209308,-239.72746114275265,0,0,0,0,0,0,0,0
1.17722,411.7432818808588,-9.841082224434532,-238.4766572526684,0,0,0,0,0,0,0,0
1.1772399999999998,411.7605461598274,-9.80743126846125,-237.2164387124933,0,0,0,0,0,0,0,0
1.17726,411.7768369991964,-9.731298828125745,-235.946855273486,0,0,0,0,0,0,0,0
1.17728,411.79140576702326,-9.612405590076248,-234.6679570566498,0,0,0,0,0,0,0,0
1.1773,411.80349934926704,-9.450488473104976,-233.3797945506616,0,0,0,0,0,0,0,0
1.17732,411.8090460419066,-9.519795493536682,-232.0824186100297,0,0,0,0,0,0,0,0
1.17734,411.81539484948655,-9.545584556466537,-230.77588045286456,0,0,0,0,0,0,0,0
1.17736,411.8218044814415,-9.527549456207897,-229.4602316591144,0,0,0,0,0,0,0,0
1.17738,411.8275288654674,-9.465399638638347,-228.13552416832923,0,0,0,0,0,0,0,0
1.1774,411.8318174157152,-9.35886029761014,-226.80181027764445,0,0,0,0,0,0,0,0
1.17742,411.83391530247167,-9.207672466258323,-225.4591426398609,0,0,0,0,0,0,0,0
1.17744,411.83088994041645,-9.148846131040912,-224.10757426116163,0,0,0,0,0,0,0,0
1.17746,411.82611301373686,-9.113526916505258,-222.7471584991764,0,0,0,0,0,0,0,0
1.17748,411.81972405621485,-9.101443960491755,-221.377949060778,0,0,0,0,0,0,0,0
1.1775,411.81276343291967,-9.04369915469431,-219.99999999999795,0,0,0,0,0,0,0,0
1.17752,411.8044820877452,-8.940026130902929,-218.61336571593068,0,0,0,0,0,0,0,0
1.17754,411.79412701615627,-8.790173898522422,-217.21810095049844,0,0,0,0,0,0,0,0
1.17756,411.7784985331874,-8.799764759659714,-215.8142607863903,0,0,0,0,0,0,0,0
1.1775799999999998,411.76201417349176,-8.831313133369667,-214.4019006447996,0,0,0,0,0,0,0,0
1.1776,411.7456602179168,-8.815923741483848,-212.9810762832734,0,0,0,0,0,0,0,0
1.17762,411.72869496878496,-8.753327070443778,-211.5518437935505,0,0,0,0,0,0,0,0
1.17764,411.71037287991817,-8.64326841367901,-210.11425959925643,0,0,0,0,0,0,0,0
1.17766,411.6899447919613,-8.48550794492917,-208.66838045377963,0,0,0,0,0,0,0,0
1.1776799999999998,411.6643033038709,-8.485623094582369,-207.21426343794008,0,0,0,0,0,0,0,0
1.1777,411.63767747550327,-8.506166420029299,-205.75196595777444,0,0,0,0,0,0,0,0
1.17772,411.6110026423529,-8.478274612894259,-204.28154574230987,0,0,0,0,0,0,0,0
1.17774,411.58354312822576,-8.40169291771451,-202.8030608411921,0,0,0,0,0,0,0,0
1.17776,411.5545597845115,-8.276180851110265,-201.31656962250008,0,0,0,0,0,0,0,0
1.17778,411.52331020819446,-8.10151226603277,-199.82213077033515,0,0,0,0,0,0,0,0
1.1778,411.48681983429833,-8.083190949751808,-198.31980328261125,0,0,0,0,0,0,0,0
1.17782,411.4491124493,-8.083829676114682,-196.80964646863168,0,0,0,0,0,0,0,0
1.17784,411.41106235640166,-8.034609373189955,-195.2917199467879,0,0,0,0,0,0,0,0
1.17786,411.3719428326886,-7.935292003985923,-193.76608364224737,0,0,0,0,0,0,0,0
1.17788,411.3310240684449,-7.785653226698155,-192.2327977844776,0,0,0,0,0,0,0,0
1.1779,411.2854282932013,-7.7910987515223855,-190.69192290504824,0,0,0,0,0,0,0,0
1.17792,411.2389831687987,-7.8142998665464605,-189.14351983500563,0,0,0,0,0,0,0,0
1.17794,411.1925194025055,-7.786474620913949,-187.58764970263732,0,0,0,0,0,0,0,0
1.17796,411.1453242009574,-7.707390087618525,-186.0243739310885,0,0,0,0,0,0,0,0
1.17798,411.0966818855055,-7.57682638457708,-184.45375423576732,0,0,0,0,0,0,0,0
1.178,411.04587407546927,-7.39457672481884,-182.8758526220787,0,0,0,0,0,0,0,0
1.1780199999999998,410.9896120778321,-7.434409571452288,-181.29073138286213,0,0,0,0,0,0,0,0
1.17804,410.93355059178026,-7.422105757883611,-179.69845309597568,0,0,0,0,0,0,0,0
1.17806,410.8769929798793,-7.357439680164835,-178.09908062186844,0,0,0,0,0,0,0,0
1.17808,410.8192399436792,-7.240198112395704,-176.4926771009982,0,0,0,0,0,0,0,0
1.1781,410.75958969003017,-7.070180251512119,-174.87930595145448,0,0,0,0,0,0,0,0
1.17812,410.6954146660251,-7.052522594829113,-173.2590308663385,0,0,0,0,0,0,0,0
1.17814,410.6301598511775,-7.050094241585012,-171.63191581136556,0,0,0,0,0,0,0,0
1.17816,410.5645543040528,-6.994236361143424,-169.9980250222373,0,0,0,0,0,0,0,0
1.17818,410.49791693909606,-6.884744194352552,-168.35742300214966,0,0,0,0,0,0,0,0
1.1782,410.4295643980316,-6.721424726326212,-166.71017451929083,0,0,0,0,0,0,0,0
1.17822,410.3564759773112,-6.777640808118287,-165.05634460418057,0,0,0,0,0,0,0,0
1.17824,410.2837628046103,-6.779585790638104,-163.39599854722204,0,0,0,0,0,0,0,0
1.17826,410.21076575272815,-6.727053823839556,-161.72920189601967,0,0,0,0,0,0,0,0
1.17828,410.1368235164253,-6.619850089949932,-160.05602045283612,0,0,0,0,0,0,0,0
1.1783,410.0612727471576,-6.457790837847958,-158.37652027204004,0,0,0,0,0,0,0,0
1.17832,409.9819407220043,-6.377348212250574,-156.69076765739243,0,0,0,0,0,0,0,0
1.17834,409.9006360764512,-6.378295339604887,-154.99882915955052,0,0,0,0,0,0,0,0
1.17836,409.81904867793423,-6.323778742325024,-153.300771573334,0,0,0,0,0,0,0,0
1.17838,409.7365389945341,-6.213614678598084,-151.59666193513328,0,0,0,0,0,0,0,0
1.1784,409.65246568110206,-6.0476297943976505,-149.88656752030988,0,0,0,0,0,0,0,0
1.17842,409.5643222482223,-6.030423945512454,-148.1705558404322,0,0,0,0,0,0,0,0
1.17844,409.4754800058321,-6.025246556375036,-146.4486946407341,0,0,0,0,0,0,0,0
1.1784599999999998,409.3863018082157,-5.963651760490537,-144.72105189733196,0,0,0,0,0,0,0,0
1.17848,409.2961714721751,-5.8454677566029005,-142.9876958145874,0,0,0,0,0,0,0,0
1.1785,409.20367291866864,-5.738724542493052,-141.2486948224619,0,0,0,0,0,0,0,0
1.17852,409.109322347734,-5.643233355198539,-139.50411757368977,0,0,0,0,0,0,0,0
1.17854,409.0129381143293,-5.626961416983817,-137.7540329412567,0,0,0,0,0,0,0,0
1.17856,408.91612177688376,-5.553366510429705,-135.9985100154599,0,0,0,0,0,0,0,0
1.17858,408.818282164568,-5.422289387781944,-134.2376181013704,0,0,0,0,0,0,0,0
1.1786,408.7176733436784,-5.369807211221503,-132.47142671596987,0,0,0,0,0,0,0,0
1.17862,408.6157635349592,-5.327590698959453,-130.700005585454,0,0,0,0,0,0,0,0
1.17864,408.51299607023134,-5.295446833231641,-128.92342464252792,0,0,0,0,0,0,0,0
1.17866,408.4096677692988,-5.205111022977627,-127.14175402353314,0,0,0,0,0,0,0,0
1.17868,206.4677595784112,-7.300758241097268,-125.35506406580716,0,0,0,1,0,0,0,0
1.1787,45.42508421630001,-9.71010436838182,-123.5634253047942,0,0,0,1,0,0,0,0
1.17872,10.071112129345268,-13.413922215924618,-121.7669084713084,0,0,0,1,0,0,0,0
1.17874,2.333850456015228,-17.354301475939945,-119.96558448879078,0,0,0,1,0,0,0,0
1.17876,0.6642511545555215,-21.2986831015852,-118.1595244703952,0,0,0,1,0,0,0,0
1.17878,0.3274094074416888,-25.19586174157696,-116.3487997163114,0,0,0,1,0,0,0,0
1.1787999999999998,0.2840256614593683,-29.034493946885306,-114.5334817108359,0,0,0,1,0,0,0,0
1.17882,0.3133314977406474,-32.81207123203518,-112.71364211959876,0,0,0,1,0,0,0,0
1.17884,0.3499574775790987,-36.52775624303106,-110.88935278678385,0,0,0,1,0,0,0,0
1.17886,0.3863402729528981,-40.18133987646648,-109.06068573217736,0,0,0,1,0,0,0,0
1.17888,0.4221243094645,-43.77269404993636,-107.22771314845656,0,0,0,1,0,0,0,0
1.1788999999999998,0.4572917695717875,-47.30169681297629,-105.39050739822392,0,0,0,1,0,0,0,0
1.17892,0.4918406851778772,-50.76822884256484,-103.54914101120004,0,0,0,1,0,0,0,0
1.17894,0.5257698540595509,-54.17217328340135,-101.70368668141022,0,0,0,1,0,0,0,0
1.17896,0.5590781331401434,-57.51341574481568,-99.85421726419808,0,0,0,1,0,0,0,0
1.17898,0.5917644054173549,-60.79184430492554,-98.00080577348297,0,0,0,1,0,0,0,0
1.179,0.623827578455589,-64.00734951504032,-96.14352537874336,0,0,0,1,0,0,0,0
1.17902,0.6552665843563875,-67.15982440398287,-94.28244940226269,0,0,0,1,0,0,0,0
1.17904,0.6860803797972077,-70.24916448231556,-92.41765131611704,0,0,0,1,0,0,0,0
1.17906,0.7162679460724781,-73.27526774646688,-90.549204739308,0,0,0,1,0,0,0,0
1.17908,0.7458282891338126,-76.2380346827605,-88.67718343499166,0,0,0,1,0,0,0,0
1.1791,0.7747604396292876,-79.13736827134589,-86.80166130726212,0,0,0,1,0,0,0,0
1.17912,0.8030634529417338,-81.9731739900314,-84.92271239860636,0,0,0,1,0,0,0,0
1.17914,0.8307364092260415,-84.74535981801763,-83.04041088667611,0,0,0,1,0,0,0,0
1.17916,0.8577784134455009,-87.45383623953234,-81.15483108149496,0,0,0,1,0,0,0,0
1.17918,0.8841885954071571,-90.09851624736665,-79.2660474225591,0,0,0,1,0,0,0,0
1.1792,0.9099661097961818,-92.67931534631184,-77.37413447577913,0,0,0,1,0,0,0,0
1.17922,0.9351101362092754,-95.1961515564976,-75.47916693067289,0,0,0,1,0,0,0,0
1.1792399999999998,0.9596198791870656,-97.64894541663053,-73.58121959729732,0,0,0,1,0,0,0,0
1.17926,0.9834945682455398,-100.0376199871332,-71.68036740334607,0,0,0,1,0,0,0,0
1.17928,1.0067334579064815,-102.36210085318385,-69.7766853912434,0,0,0,1,0,0,0,0
1.1793,1.0293358277269238,-104.62231612765638,-67.87024871506107,0,0,0,1,0,0,0,0
1.17932,1.0513009823276087,-106.8181964539603,-65.96113263768919,0,0,0,1,0,0,0,0
1.17934,1.0726282514204624,-108.94967500878138,-64.04941252772704,0,0,0,1,0,0,0,0
1.17936,1.0933169898350834,-111.01668750472098,-62.13516385664577,0,0,0,1,0,0,0,0
1.17938,1.113366577544222,-113.01917219283716,-60.21846219568789,0,0,0,1,0,0,0,0
1.1794,1.1327764196883028,-114.95706986508443,-58.299383212935695,0,0,0,1,0,0,0,0
1.17942,1.1515459465988989,-116.83032385665308,-56.37800267037617,0,0,0,1,0,0,0,0
1.17944,1.1696746138212704,-118.63888004820792,-54.45439642078842,0,0,0,1,0,0,0,0
1.17946,1.1871619021358573,-120.38268686802763,-52.52864040488824,0,0,0,1,0,0,0,0
1.17948,1.20400731757882,-122.06169529404328,-50.600810648208345,0,0,0,1,0,0,0,0
1.1795,1.22021039146155,-123.67585885577486,-48.67098325814906,0,0,0,1,0,0,0,0
1.17952,1.2357706803891912,-125.2251336361681,-46.73923442102629,0,0,0,1,0,0,0,0
1.17954,1.2506877662781692,-126.709478273331,-44.805640398941456,0,0,0,1,0,0,0,0
1.17956,1.2649612563727246,-128.1288539621684,-42.87027752691073,0,0,0,1,0,0,0,0
1.17958,1.2785907832604286,-129.4832244559166,-40.93322220972895,0,0,0,1,0,0,0,0
1.1796,1.2915760048867249,-130.77255606757615,-38.99455091900568,0,0,0,1,0,0,0,0
1.17962,1.3039166045684345,-131.9968176712436,-37.05434019019904,0,0,0,1,0,0,0,0
1.17964,1.3156122910062902,-133.15598070334278,-35.11266661945375,0,0,0,1,0,0,0,0
