Time / s,Vo:Measured voltage,IL:Measured current,Vin:Measured voltage,short1:Output,short2:Output,short3:Output,short4:Output,open1:Output,open3:Output,open2:Output,open4:Output
1.151555007934134,389.5251446680131,-5.916970088386279,-144.72105189731334,0,0,0,0,0,0,0,0
1.15156,389.44416976543766,-6.029835145880711,-146.44869464071556,0,0,0,0,0,0,0,0
1.15158,389.3659106554466,-6.071363058675934,-148.17055584042924,0,0,0,0,0,0,0,0
1.1516,389.28896972786816,-6.10627200031871,-149.88656752029146,0,0,0,0,0,0,0,0
1.15162,389.2127996352469,-6.199240200579675,-151.59666193511492,0,0,0,0,0,0,0,0
1.15164,389.1380672203056,-6.350043324905841,-153.30077157331567,0,0,0,0,0,0,0,0
1.15166,389.0672679961317,-6.363934579073403,-154.9988291595323,0,0,0,0,0,0,0,0
1.15168,388.9975065333927,-6.370419674978459,-156.69076765738953,0,0,0,0,0,0,0,0
1.1517,388.92820212291593,-6.434120773973738,-158.3765202720219,0,0,0,0,0,0,0,0
1.15172,388.8600465898644,-6.554808439657632,-160.05602045281807,0,0,0,0,0,0,0,0
1.15174,388.7944156861646,-6.667450222926568,-161.7292018960017,0,0,0,0,0,0,0,0
1.15176,388.73227828598647,-6.642261310243998,-163.39599854720413,0,0,0,0,0,0,0,0
1.15178,388.6702073516894,-6.673394787114648,-165.05634460419273,0,0,0,0,0,0,0,0
1.1518,388.6089180645813,-6.7606177328817685,-166.71017451927307,0,0,0,0,0,0,0,0
1.1518199999999998,388.549122293842,-6.903685102919176,-168.35742300213198,0,0,0,0,0,0,0,0
1.15184,388.4932238698333,-6.972860753460202,-169.99802502223451,0,0,0,0,0,0,0,0
1.15186,388.43944459488335,-6.967918757560582,-171.63191581136277,0,0,0,0,0,0,0,0
1.15188,388.38599216923575,-7.018110186777913,-173.25903086635037,0,0,0,0,0,0,0,0
1.1519,388.3335997882528,-7.123187667890761,-174.8793059514517,0,0,0,0,0,0,0,0
1.15192,388.2829969862556,-7.282891011461331,-176.49267710101003,0,0,0,0,0,0,0,0
1.15194,388.2372611001237,-7.302855882157417,-178.0990806218657,0,0,0,0,0,0,0,0
1.15196,388.1925046273418,-7.312239326314794,-179.69845309597292,0,0,0,0,0,0,0,0
1.15198,388.1482759176525,-7.375493873562383,-181.2907313828594,0,0,0,0,0,0,0,0
1.152,388.1053237366335,-7.49235849062226,-182.875852622076,0,0,0,0,0,0,0,0
1.15202,388.0643928340536,-7.662558651248817,-184.4537542357789,0,0,0,0,0,0,0,0
1.15204,388.02903217193614,-7.627156719764715,-186.02437393108576,0,0,0,0,0,0,0,0
1.15206,387.9935584142655,-7.644555917565019,-187.5876497026347,0,0,0,0,0,0,0,0
1.15208,387.95873758727504,-7.714496963247147,-189.1435198349889,0,0,0,0,0,0,0,0
1.1521,387.9253315527095,-7.836706345890215,-190.6919229050316,0,0,0,0,0,0,0,0
1.15212,387.89409780304726,-8.010896405572081,-192.23279778448887,0,0,0,0,0,0,0,0
1.15214,387.86873127884087,-7.978224956906244,-193.7660836422309,0,0,0,0,0,0,0,0
1.15216,387.8432730032965,-7.996961600247907,-195.2917199467716,0,0,0,0,0,0,0,0
1.15218,387.8184997322041,-8.066836849658145,-196.80964646861537,0,0,0,0,0,0,0,0
1.1522,387.795183731972,-8.18756635393815,-198.31980328259505,0,0,0,0,0,0,0,0
1.15222,387.77522049331566,-8.2942341896468,-199.82213077033256,0,0,0,0,0,0,0,0
1.15224,387.7591714108664,-8.257294759828152,-201.31656962248408,0,0,0,0,0,0,0,0
1.1522599999999998,387.7429439941955,-8.270320544700038,-202.8030608411761,0,0,0,0,0,0,0,0
1.15228,387.7273233065525,-8.333033951696814,-204.281545742294,0,0,0,0,0,0,0,0
1.1523,387.7130896183591,-8.44514191645455,-205.7519659577587,0,0,0,0,0,0,0,0
1.15232,387.7010181660461,-8.60633600102108,-207.2142634379244,0,0,0,0,0,0,0,0
1.15234,387.6943886715941,-8.622478523826286,-208.668380453764,0,0,0,0,0,0,0,0
1.15236,387.6890570090148,-8.622456229596995,-210.114259599267,0,0,0,0,0,0,0,0
1.15238,387.6841246039402,-8.670581786381389,-211.55184379354807,0,0,0,0,0,0,0,0
1.1524,387.6803765856732,-8.766556127875873,-212.9810762832581,0,0,0,0,0,0,0,0
1.15242,387.6785927627356,-8.910064263736528,-214.4019006447972,0,0,0,0,0,0,0,0
1.15244,387.6823858517917,-8.90696896315208,-215.81426078638788,0,0,0,0,0,0,0,0
1.15246,387.6869278854141,-8.886130751660861,-217.2181009505087,0,0,0,0,0,0,0,0
1.15248,387.6915132116525,-8.911860222078683,-218.6133657159283,0,0,0,0,0,0,0,0
1.1525,387.69692934814105,-8.983855633451622,-219.9999999999956,0,0,0,0,0,0,0,0
1.15252,387.7039582550765,-9.101798810979773,-221.3779490607756,0,0,0,0,0,0,0,0
1.15254,387.7133760595094,-9.26535526612756,-222.74715849917408,0,0,0,0,0,0,0,0
1.15256,387.7286647974203,-9.28034666498312,-224.1075742611716,0,0,0,0,0,0,0,0
1.15258,387.7452787456019,-9.275620907118029,-225.4591426398586,0,0,0,0,0,0,0,0
1.1525999999999998,387.7621983409646,-9.31547397025844,-226.80181027764212,0,0,0,0,0,0,0,0
1.15262,387.7802040438681,-9.399588595869758,-228.13552416831493,0,0,0,0,0,0,0,0
1.15264,387.8000702966439,-9.527630778820935,-229.4602316591121,0,0,0,0,0,0,0,0
1.15266,387.8248908709492,-9.57000152343868,-230.77588045287416,0,0,0,0,0,0,0,0
1.15268,387.8513074597623,-9.590938254630611,-232.08241861001568,0,0,0,0,0,0,0,0
1.1527,387.87917217564177,-9.590102346167404,-233.37979455067105,0,0,0,0,0,0,0,0
1.15272,387.9074007972004,-9.631796608182114,-234.667957056636,0,0,0,0,0,0,0,0
1.15274,387.9367633362013,-9.71569243928652,-235.94685527347227,0,0,0,0,0,0,0,0
1.15276,387.96802338468575,-9.841444257431467,-237.2164387124797,0,0,0,0,0,0,0,0
1.15278,388.0030252001389,-9.94403520040022,-238.4766572526549,0,0,0,0,0,0,0,0
1.1528,388.04280110627127,-9.89375066953882,-239.72746114275049,0,0,0,0,0,0,0,0
1.15282,388.08200275045937,-9.884191097812137,-240.9688010031481,0,0,0,0,0,0,0,0
1.15284,388.12139236809065,-9.915039041381258,-242.20062782788685,0,0,0,0,0,0,0,0
1.15286,388.1617257803495,-9.985959783293223,-243.42289298656388,0,0,0,0,0,0,0,0
1.15288,388.2037520735885,-10.09660148408856,-244.6355482262216,0,0,0,0,0,0,0,0
1.1529,388.2493297875258,-10.181900239772052,-245.83854567332943,0,0,0,0,0,0,0,0
1.15292,388.2973795460828,-10.241451932366507,-247.0318378355862,0,0,0,0,0,0,0,0
1.15294,388.34899842027227,-10.21016231456651,-248.2153776038716,0,0,0,0,0,0,0,0
1.15296,388.40036397406544,-10.217065193475404,-249.3891182540832,0,0,0,0,0,0,0,0
1.15298,388.4522136333016,-10.261826120819244,-250.55301344889688,0,0,0,0,0,0,0,0
1.153,388.50527789282336,-10.344093492977208,-251.70701723978664,0,0,0,0,0,0,0,0
1.15302,388.5602799880569,-10.463498717387282,-252.85108406860627,0,0,0,0,0,0,0,0
1.1530399999999998,388.6191006799072,-10.554900273749103,-253.9851687695774,0,0,0,0,0,0,0,0
1.15306,388.6819621976392,-10.553107163828168,-255.109226570988,0,0,0,0,0,0,0,0
1.15308,388.7458609106428,-10.52246047952959,-256.2232130969403,0,0,0,0,0,0,0,0
1.1531,388.8094806383244,-10.52737834784828,-257.32708436917403,0,0,0,0,0,0,0,0
1.15312,388.873529218205,-10.567517192553966,-258.4207968087215,0,0,0,0,0,0,0,0
1.15314,388.9387071801787,-10.642516538704731,-259.504307237708,0,0,0,0,0,0,0,0
1.15316,389.005707413158,-10.751999192390484,-260.5775728809776,0,0,0,0,0,0,0,0
1.15318,389.0764150789734,-10.830739555993672,-261.6405513678501,0,0,0,0,0,0,0,0
1.1532,389.14956875491606,-10.878298617361688,-262.6932007337647,0,0,0,0,0,0,0,0
1.15322,389.22399923252624,-10.959119493431164,-263.7354794219075,0,0,0,0,0,0,0,0
1.15324,389.3025843678305,-10.943078470136072,-264.76734628491965,0,0,0,0,0,0,0,0
1.15326,389.381145699801,-10.959479230522192,-265.78876058644545,0,0,0,0,0,0,0,0
1.15328,389.4603479154444,-11.007962232465175,-266.79968200280666,0,0,0,0,0,0,0,0
1.1533,389.54084787462256,-11.088151657678068,-267.8000706245657,0,0,0,0,0,0,0,0
1.15332,389.6245351607957,-11.134732896573876,-268.78988695807465,0,0,0,0,0,0,0,0
1.15334,389.7100424686944,-11.147263974580763,-269.7690919270974,0,0,0,0,0,0,0,0
1.15336,389.796099434904,-11.190283242174996,-270.7376468742807,0,0,0,0,0,0,0,0
1.1533799999999998,389.8833392712056,-11.263411988808336,-271.69551356274263,0,0,0,0,0,0,0,0
1.1534,389.9746353454446,-11.236295122724938,-272.6426541775549,0,0,0,0,0,0,0,0
1.15342,390.0656341474432,-11.238446065821206,-273.5790313272107,0,0,0,0,0,0,0,0
1.15344,390.15695267057583,-11.269502231807245,-274.50460804516047,0,0,0,0,0,0,0,0
1.15346,390.2491998200912,-11.329085543526846,-275.4193477912035,0,0,0,0,0,0,0,0
1.1534799999999998,390.3429760898383,-11.41680264123626,-276.32321445298925,0,0,0,0,0,0,0,0
1.1535,390.4401573218372,-11.46718699616878,-277.2161723474176,0,0,0,0,0,0,0,0
1.15352,390.5392556876564,-11.479775532115951,-278.0981862220238,0,0,0,0,0,0,0,0
1.15354,390.63887757376017,-11.519228795900682,-278.969221256434,0,0,0,0,0,0,0,0
1.15356,390.7395965125822,-11.585158479252224,-279.8292430636451,0,0,0,0,0,0,0,0
1.15358,390.8434829936165,-11.612038055993304,-280.67821769149214,0,0,0,0,0,0,0,0
1.1536,390.94898567820087,-11.599400619955102,-281.51611162389526,0,0,0,0,0,0,0,0
1.15362,391.054449586242,-11.61197739958847,-282.34289178224424,0,0,0,0,0,0,0,0
1.15364,391.1604206327537,-11.649389416759076,-283.1585255266816,0,0,0,0,0,0,0,0
1.15366,391.2674361053156,-11.711243649657549,-283.96298065736886,0,0,0,0,0,0,0,0
1.15368,391.37602436345713,-11.797133259464816,-284.7562254158095,0,0,0,0,0,0,0,0
1.1537,391.48864319507936,-11.776173934630418,-285.5382284860443,0,0,0,0,0,0,0,0
1.15372,391.6010129527884,-11.77835815196284,-286.3089589959384,0,0,0,0,0,0,0,0
1.15374,391.7136414285003,-11.803307449751236,-287.0683865183776,0,0,0,0,0,0,0,0
1.15376,391.82702770469854,-11.850630143246356,-287.81648107245013,0,0,0,0,0,0,0,0
1.15378,391.94166186782655,-11.919921556161643,-288.55321312467737,0,0,0,0,0,0,0,0
1.1538,392.0580247269864,-12.010764259101526,-289.278553590126,0,0,0,0,0,0,0,0
1.1538199999999998,392.1789606701248,-11.992035474141202,-289.99247383360324,0,0,0,0,0,0,0,0
1.15384,392.2996637759804,-11.99393480957054,-290.6949456707666,0,0,0,0,0,0,0,0
1.15386,392.4205923204058,-12.01607848962305,-291.385941369218,0,0,0,0,0,0,0,0
1.15388,392.5421956655695,-12.05807066070004,-292.065433649643,0,0,0,0,0,0,0,0
1.1539,392.6649139952141,-12.119503630674252,-292.7333956868376,0,0,0,0,0,0,0,0
1.15392,392.78981138296496,-12.134510209161524,-293.38980111081617,0,0,0,0,0,0,0,0
1.15394,392.9165777475727,-12.102625186759177,-294.03462400780484,0,0,0,0,0,0,0,0
1.15396,393.0427787914528,-12.088881565747997,-294.6678389213057,0,0,0,0,0,0,0,0
1.15398,393.16882265289695,-12.092899511730485,-295.2894208530838,0,0,0,0,0,0,0,0
1.154,393.2951085605051,-12.114288304198364,-295.8993452641375,0,0,0,0,0,0,0,0
1.15402,393.4220265919354,-12.152646578523896,-296.4975880757064,0,0,0,0,0,0,0,0
1.15404,393.5499574383068,-12.207562573923644,-297.084125670178,0,0,0,0,0,0,0,0
1.15406,393.6792721743984,-12.278614387250208,-297.6589348920577,0,0,0,0,0,0,0,0
1.15408,393.8103320347631,-12.36537023246505,-298.22199304886664,0,0,0,0,0,0,0,0
1.1541,393.9434881958862,-12.467388705641262,-298.7732779120229,0,0,0,0,0,0,0,0
1.15412,394.0815379301713,-12.452893628984492,-299.3127677177587,0,0,0,0,0,0,0,0
1.15414,394.2193675508647,-12.452691506589916,-299.84044116792074,0,0,0,0,0,0,0,0
1.15416,394.3573017173737,-12.466388427425134,-300.3562774308701,0,0,0,0,0,0,0,0
1.15418,394.49565579459113,-12.493581718327132,-300.8602561422926,0,0,0,0,0,0,0,0
1.1542,394.63615422783687,-12.468104420743318,-301.35235740594874,0,0,0,0,0,0,0,0
1.15422,394.7761571053426,-12.455258034159431,-301.8325617945368,0,0,0,0,0,0,0,0
1.15424,394.9159528491597,-12.454653643633668,-302.30085035040094,0,0,0,0,0,0,0,0
1.1542599999999998,395.0558206667798,-12.465894503258818,-302.75720458631537,0,0,0,0,0,0,0,0
1.15428,395.1960303760524,-12.488576289674723,-303.2016064862002,0,0,0,0,0,0,0,0
1.1543,395.3374893552573,-12.456415734960734,-303.6340385058212,0,0,0,0,0,0,0,0
1.15432,395.4776269423375,-12.500745517544123,-304.05448357351065,0,0,0,0,0,0,0,0
1.15434,395.6195077705548,-12.489380738041191,-304.4629250908095,0,0,0,0,0,0,0,0
1.15436,395.7611847589018,-12.487792403727806,-304.8593469331534,0,0,0,0,0,0,0,0
1.15438,395.9028814054983,-12.495581205261736,-305.2437334504797,0,0,0,0,0,0,0,0
1.1544,396.04481173672144,-12.512341735203448,-305.61606946787043,0,0,0,0,0,0,0,0
1.15442,396.18718017156897,-12.537662749183491,-305.97634028614044,0,0,0,0,0,0,0,0
1.15444,396.3301813922103,-12.571127430471238,-306.32453168240806,0,0,0,0,0,0,0,0
1.15446,396.47400022079165,-12.612313657784888,-306.66062991067963,0,0,0,0,0,0,0,0
1.15448,396.61881150258,-12.660794276179852,-306.9846217023664,0,0,0,0,0,0,0,0
1.1545,396.76477999549536,-12.71613737085162,-307.29649426683034,0,0,0,0,0,0,0,0
1.15452,396.9120602661144,-12.777906543687068,-307.5962352918792,0,0,0,0,0,0,0,0
1.15454,397.0607965921874,-12.845661192396596,-307.8838329442453,0,0,0,0,0,0,0,0
1.15456,373.8671437732335,-12.689304111054822,-308.1592758700708,0,1,0,0,0,0,0,0
1.15458,314.2945981015001,-12.346188719823166,-308.42255319533564,0,1,0,0,0,0,0,0
1.1545999999999998,305.1651717535409,-12.449983834699765,-308.67365452630446,0,1,0,0,0,0,0,0
1.15462,300.83817184818287,-12.693324534189586,-308.91256994992875,0,1,0,0,0,0,0,0
1.15464,296.5873912839579,-13.086688945312163,-309.1392900342324,0,1,0,0,0,0,0,0
1.15466,292.4160992540968,-13.627087549707218,-309.3538058286986,0,1,0,0,0,0,0,0
1.15468,288.32742352516,-14.311424452544044,-309.55610886460744,0,1,0,0,0,0,0,0
1.1546999999999998,284.32434950473885,-15.136502105475078,-309.74619115538326,0,1,0,0,0,0,0,0
1.15472,280.4097194652676,-16.09902605792333,-309.92404519690604,0,1,0,0,0,0,0,0
1.15474,276.5862319222932,-17.195609731551876,-310.08966396779465,0,1,0,0,0,0,0,0
1.15476,272.8564411654661,-18.42277921282016,-310.2430409297127,0,1,0,0,0,0,0,0
1.15478,269.22275694033493,-19.77697805859304,-310.38417002759326,0,1,0,0,0,0,0,0
1.1548,265.6874442789589,-21.2545721098314,-310.5130456899051,0,1,0,0,0,0,0,0
1.15482,262.2526234772013,-22.85185430846431,-310.62966282885554,0,1,0,0,0,0,0,0
1.15484,258.9202702164704,-24.565049512612536,-310.7340168406007,0,1,0,0,0,0,0,0
1.15486,255.69221582755776,-26.39031930541089,-310.82610360542384,0,1,0,0,0,0,0,0
1.15488,252.57014769413016,-28.323766792756032,-310.9059194878953,0,1,0,0,0,0,0,0
1.1549,249.5556097933092,-30.36144138538901,-310.97346133702223,0,1,0,0,0,0,0,0
1.15492,246.6500033707028,-32.499343560808825,-311.0287264863669,0,1,0,0,0,0,0,0
1.15494,243.85458774713857,-34.73342960060147,-311.0717127541564,0,1,0,0,0,0,0,0
1.15496,241.17048125427328,-37.05961629886407,-311.10241844336684,0,1,0,0,0,0,0,0
1.15498,238.5986622961608,-39.47378563749373,-311.1208423417896,0,1,0,0,0,0,0,0
1.155,236.13997053378452,-41.97178942421648,-311.12698372208087,0,1,0,0,0,0,0,0
1.15502,233.7951081894904,-44.54945388932367,-311.1208423417896,0,1,0,0,0,0,0,0
1.1550399999999998,231.56464146816364,-47.202584237193534,-311.102418443367,0,1,0,0,0,0,0,0
1.15506,229.44900209195472,-49.926969148776536,-311.0717127541567,0,1,0,0,0,0,0,0
1.15508,227.44848894527377,-52.71838523133188,-311.02872648636725,0,1,0,0,0,0,0,0
1.1551,225.5632698267266,-55.57260141181354,-310.97346133702206,0,1,0,0,0,0,0,0
1.15512,223.79338330459876,-58.48538327041248,-310.9059194878958,0,1,0,0,0,0,0,0
1.15514,222.13874067245635,-61.45249731087815,-310.82610360542367,0,1,0,0,0,0,0,0
1.15516,220.5991280013796,-64.46971516435583,-310.73401684060144,0,1,0,0,0,0,0,0
1.15518,219.17420828530007,-67.53281772359034,-310.62966282885634,0,1,0,0,0,0,0,0
1.1552,217.8635236758824,-70.6375992044707,-310.51304568990486,0,1,0,0,0,0,0,0
1.15522,216.6664978033465,-73.77987113199922,-310.3841700275942,0,1,0,0,0,0,0,0
1.15524,215.58243817961312,-76.95546624790006,-310.2430409297112,0,1,0,0,0,0,0,0
1.15526,214.6105386801054,-80.1602423371911,-310.08966396779726,0,1,0,0,0,0,0,0
1.15528,213.74988210054408,-83.39008597117497,-309.9240451969073,0,1,0,0,0,0,0,0
1.1553,212.9994427850348,-86.64091616442052,-309.7461911553846,0,1,0,0,0,0,0,0
1.15532,212.3580893217471,-89.90868794343065,-309.55610886460886,0,1,0,0,0,0,0,0
1.15534,211.82458730246304,-93.189395824817,-309.3538058286982,0,1,0,0,0,0,0,0
1.15536,211.39760214227545,-96.47907720092395,-309.139290034234,0,1,0,0,0,0,0,0
1.15538,211.07570195571063,-99.77381563096732,-308.91256994993046,0,1,0,0,0,0,0,0
1.1554,210.8573604855512,-103.06974403587726,-308.6736545263062,0,1,0,0,0,0,0,0
1.15542,210.7409600806394,-106.36304779516244,-308.4225531953375,0,1,0,0,0,0,0,0
1.15544,210.72479471895485,-109.64996774422517,-308.1592758700703,0,1,0,0,0,0,0,0
1.15546,210.8070730722617,-112.9268030706926,-307.88383294424733,0,1,0,0,0,0,0,0
1.1554799999999998,210.98592160865329,-116.18991410844367,-307.5962352918814,0,1,0,0,0,0,0,0
1.1555,211.2593877293199,-119.43572502813456,-307.2964942668325,0,1,0,0,0,0,0,0
1.15552,211.62544293590983,-122.6607264231474,-306.9846217023688,0,1,0,0,0,0,0,0
