Time / s,Vo:Measured voltage,IL:Measured current,Vin:Measured voltage,short1:Output,short2:Output,short3:Output,short4:Output,open1:Output,open3:Output,open2:Output,open4:Output
1.168760110604545,407.86160186740153,4.842477787250924,118.1595244703921,0,0,0,0,0,0,0,0
1.16878,407.74972879826754,4.739736459187252,116.34879971630828,0,0,0,0,0,0,0,0
1.1687999999999998,407.6365022970908,4.64563512946239,114.53348171083276,0,0,0,0,0,0,0,0
1.16882,407.521344976838,4.627908523410178,112.71364211959562,0,0,0,0,0,0,0,0
1.16884,407.40583055093,4.550533820528725,110.88935278678072,0,0,0,0,0,0,0,0
1.16886,407.28895688904447,4.4812608246933445,109.06068573217424,0,0,0,0,0,0,0,0
1.16888,407.17108897019534,4.419919376996789,107.22771314845342,0,0,0,0,0,0,0,0
1.1689,407.0525194789285,4.298494005736128,105.39050739820414,0,0,0,0,0,0,0,0
1.16892,406.9319485657434,4.252504891168597,103.54914101119688,0,0,0,0,0,0,0,0
1.16894,406.8103559357556,4.21393187526246,101.70368668140704,0,0,0,0,0,0,0,0
1.16896,406.6880685067479,4.182609245467272,99.85421726419492,0,0,0,0,0,0,0,0
1.16898,406.56536157779,4.09060770869711,98.00080577347978,0,0,0,0,0,0,0,0
1.169,406.4417752894256,3.937817676739414,96.14352537874016,0,0,0,0,0,0,0,0
1.16902,406.3161239348855,3.859568579858687,94.28244940225947,0,0,0,0,0,0,0,0
1.16904,406.18911228711926,3.855648770873577,92.4176513161138,0,0,0,0,0,0,0,0
1.16906,406.06190920273,3.790491158159671,90.54920473932172,0,0,0,0,0,0,0,0
1.16908,405.9340876708941,3.663994189546069,88.67718343498846,0,0,0,0,0,0,0,0
1.1691,405.80477512382976,3.5436919532785653,86.80166130727591,0,0,0,0,0,0,0,0
1.16912,405.6736946404823,3.5646595610146963,84.92271239862019,0,0,0,0,0,0,0,0
1.1691399999999998,405.5426017517111,3.523859499329295,83.04041088668993,0,0,0,0,0,0,0,0
1.16916,405.4111031733714,3.4211989939117475,81.1548310815088,0,0,0,0,0,0,0,0
1.16918,405.2788051966732,3.2565905278494154,79.26604742257298,0,0,0,0,0,0,0,0
1.1692,405.1445730716234,3.164993500094895,77.37413447577589,0,0,0,0,0,0,0,0
1.16922,405.00930031183935,3.146213971559188,75.47916693068682,0,0,0,0,0,0,0,0
1.16924,404.8737921791517,3.0650898047655524,73.58121959727688,0,0,0,0,0,0,0,0
1.16926,404.737689649444,2.921542393198655,71.68036740334281,0,0,0,0,0,0,0,0
1.16928,404.6003221155581,2.782928775467932,69.77668539124014,0,0,0,0,0,0,0,0
1.1693,404.4614303074199,2.7839370493410804,67.87024871505777,0,0,0,0,0,0,0,0
1.16932,404.3224354185013,2.7221482086042923,65.9611326376859,0,0,0,0,0,0,0,0
1.16934,404.183013869832,2.597493080155804,64.04941252772376,0,0,0,0,0,0,0,0
1.16936,404.0424351026692,2.5445860381624152,62.13516385664248,0,0,0,0,0,0,0,0
1.16938,403.9011920225289,2.495918003938096,60.2184621956846,0,0,0,0,0,0,0,0
1.1694,403.7594742646555,2.4513666005779187,58.299383212932405,0,0,0,0,0,0,0,0
1.16942,403.61746466975086,2.3435381461604807,56.37800267037287,0,0,0,0,0,0,0,0
1.16944,403.4746208818618,2.239621144021015,54.45439642078511,0,0,0,0,0,0,0,0
1.16946,403.3311310122732,2.1395009321870275,52.528640404884925,0,0,0,0,0,0,0,0
1.16948,403.186887466703,2.043058364250033,50.60081064820504,0,0,0,0,0,0,0,0
1.1695,403.04206524414326,1.950182776079593,48.67098325814575,0,0,0,0,0,0,0,0
1.16952,402.8964981694176,1.9279104222679748,46.73923442102297,0,0,0,0,0,0,0,0
1.16954,402.7507892348211,1.841813860495184,44.80564039893815,0,0,0,0,0,0,0,0
1.16956,402.6047063752681,1.69185261600354,42.87027752690743,0,0,0,0,0,0,0,0
1.1695799999999998,402.45755582160575,1.67921705186881,40.93322220972561,0,0,0,0,0,0,0,0
1.1696,402.310229802052,1.6695672001055275,38.99455091900235,0,0,0,0,0,0,0,0
1.16962,402.1628331747074,1.5957727805427204,37.05434019019571,0,0,0,0,0,0,0,0
1.16964,402.0151715789552,1.457803562299298,35.11266661946799,0,0,0,0,0,0,0,0
1.16966,401.8669013342684,1.3226095354564766,33.16960686080222,0,0,0,0,0,0,0,0
1.16968,401.7179298926033,1.324006470168127,31.22523762283546,0,0,0,0,0,0,0,0
1.1697,401.5689401779328,1.260977043002584,29.27963566597112,0,0,0,0,0,0,0,0
1.16972,401.41977601697977,1.1335014608442169,27.33287779922546,0,0,0,0,0,0,0,0
1.16974,401.2701681711807,1.0084408508588667,25.385040877248056,0,0,0,0,0,0,0,0
1.16976,401.12011491534497,0.9525664105918163,23.43620179734059,0,0,0,0,0,0,0,0
1.16978,400.9698980988053,0.8988977175045914,21.4864374962801,0,0,0,0,0,0,0,0
1.1698,400.81958182133366,0.7805499969037542,19.5358249474932,0,0,0,0,0,0,0,0
1.16982,400.6689414670069,0.7310750606235894,17.584441157805728,0,0,0,0,0,0,0,0
1.16984,400.5182338992439,0.6168192480609427,15.632363164437765,0,0,0,0,0,0,0,0
1.16986,400.36727844472784,0.571239207738044,13.679668032174275,0,0,0,0,0,0,0,0
1.16988,400.2162856097965,0.4607863722483353,11.726432850022556,0,0,0,0,0,0,0,0
1.1699,400.0651233346776,0.4188224087273663,9.772734728398456,0,0,0,0,0,0,0,0
1.1699199999999998,399.91395049594206,0.3119037618072831,7.818650795940883,0,0,0,0,0,0,0,0
1.16994,399.76268926978247,0.206667541726452,5.864258196519885,0,0,0,0,0,0,0,0
1.16996,399.6113748543552,0.1696583932509222,3.9096340862441856,0,0,0,0,0,0,0,0
1.16998,399.4600835224947,0.1341697311679456,1.9548556302914444,0,0,0,0,0,0,0,0
1.17,399.30882882470206,0.0335931612765531,3.3525966865869426e-12,0,0,0,0,0,0,0,0
1.1700199999999998,399.15760412330206,0.0010045508840928,-1.9548556302847395,0,0,0,0,0,0,0,0
1.17004,399.0064366932186,-0.0967232133025729,-3.9096340862374808,0,0,0,0,0,0,0,0
1.17006,398.8553468824596,-0.1266083085451759,-5.86425819651318,0,0,0,0,0,0,0,0
1.17008,398.7043283360504,-0.2216735776227998,-7.818650795934181,0,0,0,0,0,0,0,0
1.1701,398.5534007707058,-0.3818884860180136,-9.772734728391754,0,0,0,0,0,0,0,0
1.17012,398.40267071095326,-0.5408204409794675,-11.726432850033529,0,0,0,0,0,0,0,0
1.17014,398.2522571989469,-0.5657504632498611,-13.679668032167577,0,0,0,0,0,0,0,0
1.17016,398.1019481769906,-0.6559112453886583,-15.632363164431066,0,0,0,0,0,0,0,0
1.17018,397.9519201060614,-0.7449382385454468,-17.584441157781377,0,0,0,0,0,0,0,0
1.1702,397.8021603145192,-0.8328579922362517,-19.535824947486507,0,0,0,0,0,0,0,0
1.17022,397.6526959384021,-0.9196963456108204,-21.486437496291053,0,0,0,0,0,0,0,0
1.17024,397.5034964238442,-1.0054742449044407,-23.43620179731627,0,0,0,0,0,0,0,0
1.17026,397.35479241860776,-1.0239898340100062,-25.385040877223744,0,0,0,0,0,0,0,0
1.17028,397.20623768523205,-1.1077314958878393,-27.332877799201164,0,0,0,0,0,0,0,0
1.1703,397.057950687442,-1.25664369762873,-29.27963566594684,0,0,0,0,0,0,0,0
1.17032,396.9102502177955,-1.3383627308174453,-31.225237622828782,0,0,0,0,0,0,0,0
1.17034,396.7631852421976,-1.3529715360005727,-33.16960686077797,0,0,0,0,0,0,0,0
1.1703599999999998,396.6162903650384,-1.4327485490450675,-35.11266661944375,0,0,0,0,0,0,0,0
1.17038,396.4697233965324,-1.5776282030150202,-37.054340190189045,0,0,0,0,0,0,0,0
1.1704,396.3242104939722,-1.5893833430847508,-38.99455091897816,0,0,0,0,0,0,0,0
1.17042,396.1789349829396,-1.6002020807537236,-40.93322220971898,0,0,0,0,0,0,0,0
1.17044,396.0338458585188,-1.6760874688316671,-42.87027752690079,0,0,0,0,0,0,0,0
1.17046,395.8891400705869,-1.8169639084620133,-44.805640398949016,0,0,0,0,0,0,0,0
1.17048,395.7453092534034,-1.9567982583532249,-46.739234421016334,0,0,0,0,0,0,0,0
1.1705,395.602477235371,-2.0296404001972608,-48.67098325813912,0,0,0,0,0,0,0,0
1.17052,395.4601502539939,-2.101446550086246,-50.60081064819841,0,0,0,0,0,0,0,0
1.17054,395.3182561241866,-2.238085152531904,-52.52864040487833,0,0,0,0,0,0,0,0
1.17056,395.17759550356055,-2.3077460734283464,-54.45439642079592,0,0,0,0,0,0,0,0
1.17058,395.0376272527831,-2.376304061192346,-56.37800267036628,0,0,0,0,0,0,0,0
1.1706,394.898224219624,-2.443727655049441,-58.29938321292582,0,0,0,0,0,0,0,0
1.17062,394.75967095767913,-2.5099908395528274,-60.21846219567802,0,0,0,0,0,0,0,0
1.17064,394.6218354906164,-2.5750553448797167,-62.13516385663591,0,0,0,0,0,0,0,0
1.17066,394.4844986564162,-2.7046297664517778,-64.04941252773449,0,0,0,0,0,0,0,0
1.17068,394.34834245582647,-2.767161227252052,-65.96113263767936,0,0,0,0,0,0,0,0
1.1707,394.2133550212872,-2.7626733810072968,-67.87024871505125,0,0,0,0,0,0,0,0
1.17072,394.078565361266,-2.822535211618783,-69.7766853912336,0,0,0,0,0,0,0,0
1.17074,393.94430454820616,-2.946636303623526,-71.68036740333629,0,0,0,0,0,0,0,0
1.17076,393.8112039437674,-3.069228903068539,-73.58121959728754,0,0,0,0,0,0,0,0
1.17078,393.67982721560895,-3.059033081365159,-75.47916693066315,0,0,0,0,0,0,0,0
1.1707999999999998,393.5486298162736,-3.1128785610297296,-77.3741344757694,0,0,0,0,0,0,0,0
1.17082,393.4179799809052,-3.2306451912182195,-79.26604742254939,0,0,0,0,0,0,0,0
1.17084,393.28857264443207,-3.346662510052403,-81.15483108148524,0,0,0,0,0,0,0,0
1.17086,393.16100314252935,-3.3298117010614248,-83.04041088666642,0,0,0,0,0,0,0,0
1.17088,393.033581173292,-3.3766479400035543,-84.9227123985967,0,0,0,0,0,0,0,0
1.1709,392.90671146874337,-3.487041507640511,-86.80166130728644,0,0,0,0,0,0,0,0
1.17092,392.7807977653789,-3.660857415123469,-88.67718343496507,0,0,0,0,0,0,0,0
1.17094,392.6574864820798,-3.701638443637508,-90.54920473929836,0,0,0,0,0,0,0,0
1.17096,392.5348570893544,-3.74024307686125,-92.4176513161074,0,0,0,0,0,0,0,0
1.17098,392.4127668621583,-3.8419890833359616,-94.2824494022531,0,0,0,0,0,0,0,0
1.171,392.29222687649394,-3.9413557584123846,-96.1435253787506,0,0,0,0,0,0,0,0
1.17102,392.173011564508,-4.038243269039105,-98.0008057734734,0,0,0,0,0,0,0,0
1.17104,392.0553402236226,-4.067212877788983,-99.85421726418856,0,0,0,0,0,0,0,0
1.17106,391.9381738515869,-4.158861179463012,-101.70368668140073,0,0,0,0,0,0,0,0
1.17108,391.82259967854,-4.247736589306662,-103.54914101119056,0,0,0,0,0,0,0,0
1.1711,391.70836556788527,-4.33372645882246,-105.39050739821448,0,0,0,0,0,0,0,0
1.17112,391.59570307758,-4.3514568130189,-107.22771314844712,0,0,0,0,0,0,0,0
1.1711399999999998,391.4834860735373,-4.4313575356149215,-109.06068573216794,0,0,0,0,0,0,0,0
1.17116,391.3728696806045,-4.508043108368512,-110.88935278677444,0,0,0,0,0,0,0,0
1.17118,391.2635739660798,-4.581388431587539,-112.71364211958937,0,0,0,0,0,0,0,0
1.1712,391.1552104211903,-4.7164606810772085,-114.53348171082656,0,0,0,0,0,0,0,0
1.17122,391.0489734190921,-4.78274126649756,-116.34879971630208,0,0,0,0,0,0,0,0
1.1712399999999998,390.9443251241004,-4.845306394160065,-118.1595244703859,0,0,0,0,0,0,0,0
1.17126,390.8409563426016,-4.904018484547446,-119.9655844887815,0,0,0,0,0,0,0,0
1.17128,390.7384446907543,-5.023862978056273,-121.76690847129916,0,0,0,0,0,0,0,0
1.1713,390.6380612421556,-5.074449976568928,-123.56342530478496,0,0,0,0,0,0,0,0
1.17132,390.5392084108981,-5.120772886402896,-125.35506406579796,0,0,0,0,0,0,0,0
1.17134,390.44154623244754,-5.16268233036611,-127.1417540235401,0,0,0,0,0,0,0,0
1.17136,390.3446268920927,-5.265086686182504,-128.92342464251877,0,0,0,0,0,0,0,0
1.17138,390.2495750379817,-5.36275657365679,-130.7000055854449,0,0,0,0,0,0,0,0
1.1714,390.15604204845584,-5.455531482838165,-132.47142671596075,0,0,0,0,0,0,0,0
1.17142,390.0649986571504,-5.478253378440568,-134.2376181013613,0,0,0,0,0,0,0,0
1.17144,389.9745378683145,-5.560777824484401,-135.9985100154668,0,0,0,0,0,0,0,0
1.17146,389.8852744467756,-5.702903789104611,-137.7540329412477,0,0,0,0,0,0,0,0
1.17148,389.7986542642509,-5.774497776558399,-139.5041175736808,0,0,0,0,0,0,0,0
1.1715,389.7144258814852,-5.775428339960835,-141.2486948224372,0,0,0,0,0,0,0,0
1.17152,389.6305674598946,-5.835421506073384,-142.98769581456276,0,0,0,0,0,0,0,0
1.17154,389.5477219137108,-5.954269376936636,-144.72105189732306,0,0,0,0,0,0,0,0
1.17156,389.4671493640515,-6.066849428800839,-146.44869464072522,0,0,0,0,0,0,0,0
1.1715799999999998,389.3897753784842,-6.043186851443749,-148.1705558404078,0,0,0,0,0,0,0,0
1.1716,389.31249932252257,-6.0778014793093975,-149.88656752030107,0,0,0,0,0,0,0,0
1.17162,389.23599086487445,-6.170479691682303,-151.5966619351245,0,0,0,0,0,0,0,0
1.17164,389.1609168995221,-6.320997193784619,-153.30077157332522,0,0,0,0,0,0,0,0
1.17166,389.08975965832656,-6.334595834433337,-154.99882915954183,0,0,0,0,0,0,0,0
1.17168,389.0196323519335,-6.340789373779636,-156.69076765739902,0,0,0,0,0,0,0,0
1.1717,388.94995873300434,-6.404203874446271,-158.3765202720314,0,0,0,0,0,0,0,0
1.17172,388.88143068832846,-6.524609943489284,-160.0560204528275,0,0,0,0,0,0,0,0
1.17174,388.8147369935072,-6.701766816164651,-161.72920189601112,0,0,0,0,0,0,0,0
1.17176,388.7530267063677,-6.676283804718643,-163.39599854721348,0,0,0,0,0,0,0,0
1.17178,388.6957292990329,0.2607815171650853,-165.05634460418702,0,0,0,0,1,0,0,0
1.1718,388.5476345868074,0.1847151020060525,-166.71017451928233,0,0,0,0,1,0,0,0
1.17182,388.4000053447333,0.146537707893343,-168.3574230021412,0,0,0,0,1,0,0,0
1.17184,388.2526683136222,0.0725842939332682,-169.99802502222892,0,0,0,0,1,0,0,0
1.17186,388.1055483435608,-0.0001716318651791,-171.63191581135715,0,0,0,0,1,0,0,0
1.17188,387.95856105254376,-0.000173258980422,-173.25903086634483,0,0,0,0,1,0,0,0
1.1719,387.8116348808299,-0.0001748792556971,-174.87930595144616,0,0,0,0,1,0,0,0
1.17192,387.6647643524298,-0.0001764926270385,-176.49267710098994,0,0,0,0,1,0,0,0
1.17194,387.51794944627056,-0.0001780990307533,-178.09908062186017,0,0,0,0,1,0,0,0
1.17196,387.37119014128666,-0.0001796984034233,-179.6984530959675,0,0,0,0,1,0,0,0
1.17198,387.22448641642166,-0.000181290681908,-181.29073138285395,0,0,0,0,1,0,0,0
1.172,387.0778382506258,-0.000182875803347,-182.8758526220705,0,0,0,0,1,0,0,0
1.1720199999999998,386.93124562285846,-0.0001844537051625,-184.45375423575928,0,0,0,0,1,0,0,0
1.17204,386.7847085120867,-0.0001860243250615,-186.02437393108045,0,0,0,0,1,0,0,0
1.17206,386.6382268972849,-0.0001875876010386,-187.58764970262936,0,0,0,0,1,0,0,0
1.17208,386.4918007574358,-0.0001891434713785,-189.14351983499765,0,0,0,0,1,0,0,0
1.1721,386.3454300715305,-0.000190691874658,-190.6919229050263,0,0,0,0,1,0,0,0
1.17212,386.1991148185671,-0.0001922327497488,-192.2327977844975,0,0,0,0,1,0,0,0
1.17214,386.0528549775533,-0.0001937660358198,-193.7660836422395,0,0,0,0,1,0,0,0
1.17216,385.90665052750296,-0.0001952916723395,-195.2917199467663,0,0,0,0,1,0,0,0
1.17218,385.76050144743846,-0.0001968095990783,-196.80964646862387,0,0,0,0,1,0,0,0
1.1722,385.6144077163906,-0.0001983197561112,-198.31980328260352,0,0,0,0,1,0,0,0
1.17222,385.46836931339794,-0.0001998220838197,-199.82213077034103,0,0,0,0,1,0,0,0
1.17224,385.32238621750633,-0.0002013165228944,-201.31656962249244,0,0,0,0,1,0,0,0
1.17226,385.17645840777055,-0.0002028030143376,-202.80306084118448,0,0,0,0,1,0,0,0
1.17228,385.03058586325255,-0.0002042814994649,-204.2815457423023,0,0,0,0,1,0,0,0
1.1723,384.8847685630225,-0.0002057519199085,-205.75196595776688,0,0,0,0,1,0,0,0
1.17232,384.73900648615887,-0.0002072142176186,-207.2142634379326,0,0,0,0,1,0,0,0
1.17234,384.5932996117477,-0.0002086683348662,-208.66838045377216,0,0,0,0,1,0,0,0
1.1723599999999998,384.447647918883,-0.0002101142142452,-210.11425959924892,0,0,0,0,1,0,0,0
1.17238,384.3020513866661,-0.0002115517986748,-211.5518437935432,0,0,0,0,1,0,0,0
1.1724,384.1565099942069,-0.0002129810314016,-212.98107628326608,0,0,0,0,1,0,0,0
1.17242,384.01102372062326,-0.000214401856002,-214.40190064479228,0,0,0,0,1,0,0,0
1.17244,383.8655925450408,-0.0002158142163842,-215.81426078638304,0,0,0,0,1,0,0,0
1.17246,383.7202164465926,-0.0002172180567908,-217.2181009505039,0,0,0,0,1,0,0,0
1.17248,383.5748954044207,-0.0002186133218003,-218.61336571592352,0,0,0,0,1,0,0,0
1.1725,383.42962939767415,-0.0002199999563302,-219.9999999999908,0,0,0,0,1,0,0,0
1.17252,383.2844184055102,-0.0002213779056386,-221.3779490607709,0,0,0,0,1,0,0,0
1.17254,383.1392624070932,-0.0002227471153263,-222.74715849916944,0,0,0,0,1,0,0,0
1.17256,382.9941613815972,-0.0002241075313393,-224.1075742611669,0,0,0,0,1,0,0,0
1.17258,382.84911530820256,-0.0002254590999707,-225.459142639854,0,0,0,0,1,0,0,0
1.1726,382.70412416609776,-0.0002268017678629,-226.8018102776376,0,0,0,0,1,0,0,0
1.17262,382.5591879344796,-0.0002281354820096,-228.1355241683104,0,0,0,0,1,0,0,0
1.17264,382.4143065925534,-0.0002294601897581,-229.4602316591076,0,0,0,0,1,0,0,0
1.17266,382.2694801195304,-0.0002307758388113,-230.77588045288155,0,0,0,0,1,0,0,0
1.17268,382.1247084946313,-0.0002320823772295,-232.08241861001125,0,0,0,0,1,0,0,0
1.1727,381.9799916970844,-0.0002333797534328,-233.37979455065488,0,0,0,0,1,0,0,0
1.17272,381.83532970612566,-0.000234667916203,-234.6679570566432,0,0,0,0,1,0,0,0
1.17274,381.69072250099856,-0.0002359468146858,-235.94685527347949,0,0,0,0,1,0,0,0
