Time / s,Vo:Measured voltage,IL:Measured current,Vin:Measured voltage,short1:Output,short2:Output,short3:Output,short4:Output,open1:Output,open3:Output,open2:Output,open4:Output
1.1204029675918457,396.2454681671976,1.615840708052687,38.99455091897725,0,0,0,0,0,0,0,0
1.12042,396.10029747985294,1.6269133310242043,40.93322220970054,0,0,0,0,0,0,0,0
1.12044,395.9553139103865,1.703052159354444,42.870277526882354,0,0,0,0,0,0,0,0
1.12046,395.81071440726544,1.844181591901889,44.80564039894811,0,0,0,0,0,0,0,0
1.12048,395.6669361244209,1.9842802019032195,46.73923442101543,0,0,0,0,0,0,0,0
1.1205,395.5242958780029,1.991491314779788,48.67098325815569,0,0,0,0,0,0,0,0
1.12052,395.38185391452487,2.0636208304363985,50.60081064819752,0,0,0,0,0,0,0,0
1.12054,395.2398460266109,2.2005831355577623,52.52864040487743,0,0,0,0,0,0,0,0
1.12056,395.09878928846337,2.3364416577411835,54.45439642079504,0,0,0,0,0,0,0,0
1.12058,394.9590501319345,2.3395167605135128,56.378002670365376,0,0,0,0,0,0,0,0
1.1206,394.8195142535621,2.407316752105785,58.299383212942296,0,0,0,0,0,0,0,0
1.12062,394.6804559135181,2.539746048220455,60.21846219567713,0,0,0,0,0,0,0,0
1.12064,394.54262429826656,2.6051936280047348,62.13516385663502,0,0,0,0,0,0,0,0
1.12066,394.4056291399055,2.6694197849453256,64.04941252773361,0,0,0,0,0,0,0,0
1.12068,394.2693249792756,2.732380516577852,65.96113263767846,0,0,0,0,0,0,0,0
1.1207,394.13386220870825,2.794034942280867,67.8702487150676,0,0,0,0,0,0,0,0
1.12072,393.9990829638556,2.854333235010304,69.7766853912327,0,0,0,0,0,0,0,0
1.1207399999999998,393.8648300082792,2.9788705164250446,71.6803674033354,0,0,0,0,0,0,0,0
1.12076,393.7320362744517,3.0362925105633054,73.58121959728666,0,0,0,0,0,0,0,0
1.12078,393.6001412933785,3.092202007978684,75.47916693066227,0,0,0,0,0,0,0,0
1.1208,393.4689641475808,3.1465370178482663,77.37413447578564,0,0,0,0,0,0,0,0
1.12082,393.3383326056736,3.264792813989597,79.26604742254851,0,0,0,0,0,0,0,0
1.12084,393.2090485441042,3.3813138409221386,81.15483108150146,0,0,0,0,0,0,0,0
1.12086,393.0815140757884,3.365003499539214,83.04041088666554,0,0,0,0,0,0,0,0
1.12088,392.9541258210042,3.4123797026230656,84.92271239859582,0,0,0,0,0,0,0,0
1.1209,392.8272885176487,3.5233127404902294,86.80166130726857,0,0,0,0,0,0,0,0
1.12092,392.7014059083362,3.697667633805493,88.67718343496419,0,0,0,0,0,0,0,0
1.12094,392.57802837236886,3.7390252354498736,90.54920473931442,0,0,0,0,0,0,0,0
1.12096,392.4554500994968,3.778221122023391,92.41765131608966,0,0,0,0,0,0,0,0
1.12098,392.33341039420606,3.88055770950345,94.28244940223534,0,0,0,0,0,0,0,0
1.121,392.212348541669,4.045890152928377,96.14352537873287,0,0,0,0,0,0,0,0
1.12102,392.0939524801596,4.07803232595398,98.00080577345577,0,0,0,0,0,0,0,0
1.12104,391.9763539838964,4.10764120361323,99.85421726420444,0,0,0,0,0,0,0,0
1.12106,391.85926061235,4.199927864870034,101.70368668139984,0,0,0,0,0,0,0,0
1.12108,391.74314633765766,4.354737854628491,103.549141011173,0,0,0,0,0,0,0,0
1.1211,391.629248872462,4.441374023502516,105.3905073982136,0,0,0,0,0,0,0,0
1.12112,391.51721967905127,4.4597767945762,107.22771314844624,0,0,0,0,0,0,0,0
1.12114,391.4056365971137,4.540343915731977,109.06068573218364,0,0,0,0,0,0,0,0
1.12116,391.29553177213467,4.617700777806801,110.8893527867736,0,0,0,0,0,0,0,0
1.1211799999999998,391.1866221396506,4.691723807816931,112.7136421195885,0,0,0,0,0,0,0,0
1.1212,391.079262166887,4.762296273310584,114.5334817108257,0,0,0,0,0,0,0,0
1.12122,390.97315632202094,4.829287397295519,116.34879971630124,0,0,0,0,0,0,0,0
1.12124,390.86849925203535,4.892571940564063,118.15952447040142,0,0,0,0,0,0,0,0
1.12126,390.7649787301049,4.9520143674339,119.96558448878066,0,0,0,0,0,0,0,0
1.12128,390.662312957577,5.072590338052442,121.76690847131458,0,0,0,0,0,0,0,0
1.1213,390.56209753777466,5.123938298832591,123.56342530478412,0,0,0,0,0,0,0,0
1.12132,390.46326511605565,5.171030514506265,125.35506406579714,0,0,0,0,0,0,0,0
1.12134,390.3654727526412,5.213719912249905,127.14175402353924,0,0,0,0,0,0,0,0
1.12136,390.26842186383095,5.31690521262388,128.92342464251794,0,0,0,0,0,0,0,0
1.12138,390.17340946350345,5.415371685074005,130.7000055854601,0,0,0,0,0,0,0,0
1.1214,390.0800906130864,5.508956036346793,132.47142671595995,0,0,0,0,0,0,0,0
1.12142,389.9889444672889,5.53250628184988,134.23761810136048,0,0,0,0,0,0,0,0
1.12144,389.8983806276867,5.615859823732517,135.99851001546594,0,0,0,0,0,0,0,0
1.12146,389.8097651079271,5.693855170932883,137.75403294124686,0,0,0,0,0,0,0,0
1.12148,389.72271936415046,5.766317381917192,139.5041175736958,0,0,0,0,0,0,0,0
1.1215,389.6374326069284,5.833078497214239,141.2486948224364,0,0,0,0,0,0,0,0
1.12152,389.55350646066887,5.893960244276838,142.98769581456193,0,0,0,0,0,0,0,0
1.12154,389.4705941788158,6.01369706679816,144.7210518973066,0,0,0,0,0,0,0,0
1.12156,389.39058469963487,6.062287592061729,146.44869464070882,0,0,0,0,0,0,0,0
1.12158,389.312146811768,6.104456953780998,148.1705558404381,0,0,0,0,0,0,0,0
1.1216,389.23484545832576,6.140016909270222,149.8865675202848,0,0,0,0,0,0,0,0
1.1216199999999998,389.1583139849962,6.233640304846494,151.59666193510824,0,0,0,0,0,0,0,0
1.12164,389.08321931323775,6.3851028175599405,153.30077157332445,0,0,0,0,0,0,0,0
1.12166,389.0122671698756,6.3996854202359374,154.99882915952568,0,0,0,0,0,0,0,0
1.12168,388.94216401805375,6.406871468338732,156.69076765739825,0,0,0,0,0,0,0,0
1.1217,388.8725180826876,6.471277670784944,158.3765202720306,0,0,0,0,0,0,0,0
1.12172,388.80402127069846,6.592674588564888,160.05602045284186,0,0,0,0,0,0,0,0
1.12174,388.73825888292487,6.706041187947137,161.72920189601032,0,0,0,0,0,0,0,0
1.12176,388.67549187539663,6.746377888353501,163.3959985472127,0,0,0,0,0,0,0,0
1.12178,388.6139297350069,6.778252764081564,165.05634460418625,0,0,0,0,0,0,0,0
1.1218,388.55315011373057,6.866209567725047,166.71017451928157,0,0,0,0,0,0,0,0
1.12182,388.4938648175971,7.010003245399716,168.3574230021553,0,0,0,0,0,0,0,0
1.12184,388.4382664983537,7.079913875437838,169.99802502222812,0,0,0,0,0,0,0,0
1.12186,388.3850646249916,7.075721615858613,171.6319158113564,0,0,0,0,0,0,0,0
1.12188,388.3321911331584,7.126653887122564,173.25903086634406,0,0,0,0,0,0,0,0
1.1219,388.2803791334527,7.232463296955785,174.8793059514454,0,0,0,0,0,0,0,0
1.12192,388.2303580755413,7.392889638119283,176.49267710100375,0,0,0,0,0,0,0,0
1.12194,388.18557429756265,7.348902683789666,178.09908062185946,0,0,0,0,0,0,0,0
1.1219599999999998,388.1405681927711,7.359037732441829,179.6984530959667,0,0,0,0,0,0,0,0
1.12198,388.0960924378672,7.423047277299976,181.2907313828532,0,0,0,0,0,0,0,0
1.122,388.0528958805834,7.540670245416533,182.8758526220698,0,0,0,0,0,0,0,0
1.12202,388.01172335256393,7.7116320696313565,184.4537542357728,0,0,0,0,0,0,0,0
1.12204,387.97615406929407,7.67702926878456,186.02437393107968,0,0,0,0,0,0,0,0
1.12206,387.94047555418166,7.6952304822216515,187.58764970264272,0,0,0,0,0,0,0,0
1.12208,387.90545391088347,7.765976366928703,189.14351983498287,0,0,0,0,0,0,0,0
1.1221,387.8718510779447,7.888993349155971,190.6919229050256,0,0,0,0,0,0,0,0
1.12212,387.840424624,8.063993704945148,192.23279778448287,0,0,0,0,0,0,0,0
1.12214,387.8149022468335,8.032170055603247,193.7660836422249,0,0,0,0,0,0,0,0
1.12216,387.7892933706554,8.051756625683721,195.2917199467931,0,0,0,0,0,0,0,0
1.12218,387.764374819751,8.122483842209038,196.80964646860943,0,0,0,0,0,0,0,0
1.1222,387.7409189279754,8.244067265828921,198.3198032825892,0,0,0,0,0,0,0,0
1.12222,387.72083498867727,8.351599820053345,199.82213077034027,0,0,0,0,0,0,0,0
1.12224,387.704692453814,8.31555307905557,201.31656962249176,0,0,0,0,0,0,0,0
1.12226,387.6883782265801,8.329472686919475,202.8030608411972,0,0,0,0,0,0,0,0
1.12228,387.67267742509136,8.393080936819798,204.28154574230163,0,0,0,0,0,0,0,0
1.1223,387.6583703731073,8.50608464921901,205.75196595776623,0,0,0,0,0,0,0,0
1.12232,387.6462323588465,8.668175270104022,207.2142634379319,0,0,0,0,0,0,0,0
1.12234,387.6398337812727,8.685241874115723,208.66838045377148,0,0,0,0,0,0,0,0
1.12236,387.6344882508213,8.686147800128321,210.11425959926137,0,0,0,0,0,0,0,0
1.12238,387.6295499493504,8.735201330190877,211.55184379354247,0,0,0,0,0,0,0,0
1.1223999999999998,387.62580404009793,8.832103255869422,212.98107628326545,0,0,0,0,0,0,0,0
1.12242,387.624030363466,8.976538444124463,214.4019006447916,0,0,0,0,0,0,0,0
1.12244,387.6278995028469,8.974396251895667,215.8142607863824,0,0,0,0,0,0,0,0
1.12246,387.6325098010066,8.954518052734505,217.21810095050324,0,0,0,0,0,0,0,0
1.12248,387.6371726359277,8.981205754253084,218.6133657159229,0,0,0,0,0,0,0,0
1.1225,387.6426755336392,9.054157444839834,220.00000000000264,0,0,0,0,0,0,0,0
1.12252,387.6498004601108,9.17305477893514,221.37794906077025,0,0,0,0,0,0,0,0
1.12254,387.659323545542,9.33756309719065,222.7471584991688,0,0,0,0,0,0,0,0
1.12256,387.67544110670656,9.28892792176404,224.1075742611663,0,0,0,0,0,0,0,0
1.12258,387.6910889216459,9.28519032201431,225.45914263985333,0,0,0,0,0,0,0,0
1.1226,387.707053537298,9.326049700719576,226.80181027764905,0,0,0,0,0,0,0,0
1.12262,387.72411577214206,9.411188579518376,228.13552416830976,0,0,0,0,0,0,0,0
1.12264,387.74305042283856,9.540272726601971,229.460231659107,0,0,0,0,0,0,0,0
1.12266,387.7659674766102,9.648338181411203,230.77588045286907,0,0,0,0,0,0,0,0
1.12268,387.792941417621,9.670379145765253,232.08241861001065,0,0,0,0,0,0,0,0
1.1227,387.8210970710748,9.670645802929135,233.379794550666,0,0,0,0,0,0,0,0
1.12272,387.8496300448191,9.71343626400226,234.66795705663097,0,0,0,0,0,0,0,0
1.1227399999999998,387.8793102741564,9.798421662820427,235.9468552734673,0,0,0,0,0,0,0,0
1.12276,387.9109012701514,9.925256154172788,237.2164387124748,0,0,0,0,0,0,0,0
1.12278,387.94735095180863,9.964287897630967,238.47665725265,0,0,0,0,0,0,0,0
1.1228,387.98530744839167,9.979759075409747,239.72746114275688,0,0,0,0,0,0,0,0
1.12282,388.0249338418621,9.971319077066948,240.96880100315445,0,0,0,0,0,0,0,0
1.1228399999999998,388.0647628155269,10.0032772653665,242.20062782788204,0,0,0,0,0,0,0,0
1.12286,388.10555005526766,10.075298626049053,243.42289298657016,0,0,0,0,0,0,0,0
1.12288,388.1480445068728,10.187031025241517,244.6355482262278,0,0,0,0,0,0,0,0
1.1229,388.19442850531925,10.27342197363278,245.8385456733356,0,0,0,0,0,0,0,0
1.12292,388.2446718218727,10.26936177616723,247.0318378355923,0,0,0,0,0,0,0,0
1.12294,388.2956029487211,10.239145360446624,248.21537760388827,0,0,0,0,0,0,0,0
1.12296,388.34629608064927,10.247135573042854,249.38911825407865,0,0,0,0,0,0,0,0
1.12298,388.3974889582088,10.29299763574919,250.5530134489029,0,0,0,0,0,0,0,0
1.123,388.4499123846047,10.376379608409955,251.7070172397821,0,0,0,0,0,0,0,0
1.12302,388.5042898971536,10.496912555463611,252.85108406860184,0,0,0,0,0,0,0,0
1.12304,388.56282817692966,10.589466498179132,253.9851687695832,0,0,0,0,0,0,0,0
1.12306,388.6243641014384,10.65360448423646,255.1092265709836,0,0,0,0,0,0,0,0
1.12308,388.6890069671328,10.62414830401104,256.223213096936,0,0,0,0,0,0,0,0
1.1231,388.7533886729663,10.63023974048158,257.32708436916965,0,0,0,0,0,0,0,0
1.12312,388.8182167584624,10.671534832592553,258.4207968087172,0,0,0,0,0,0,0,0
1.12314,388.88419144822296,10.74767272726041,259.50430723770376,0,0,0,0,0,0,0,0
1.12316,388.9520053187037,10.858275859275334,260.5775728809734,0,0,0,0,0,0,0,0
1.1231799999999998,389.02476654054993,10.873305169884572,261.640551367846,0,0,0,0,0,0,0,0
1.1232,389.0981454663008,10.92196079725606,262.69320073376053,0,0,0,0,0,0,0,0
1.12322,389.17282073814783,11.003872678154613,263.73547942190345,0,0,0,0,0,0,0,0
1.12324,389.2510168951338,10.988932492726972,264.7673462849156,0,0,0,0,0,0,0,0
1.12326,389.3292070479287,11.006442372077784,265.7887605864416,0,0,0,0,0,0,0,0
1.12328,389.40805609619446,11.05604236954597,266.79968200281183,0,0,0,0,0,0,0,0
1.1233,389.4882211041948,11.137356257627967,267.80007062456184,0,0,0,0,0,0,0,0
1.12332,389.5719386137648,11.185080421379723,268.7898869580708,0,0,0,0,0,0,0,0
1.12334,389.657843683473,11.19876058234984,269.7690919271024,0,0,0,0,0,0,0,0
1.12336,389.7443197938185,11.242919242074898,270.73764687427695,0,0,0,0,0,0,0,0
1.12338,389.8319999679081,11.317177203329845,271.6955135627561,0,0,0,0,0,0,0,0
1.1234,389.9230869089414,11.291195088400986,272.64265417755973,0,0,0,0,0,0,0,0
1.12342,389.8039554947183,1.6863708541227227,273.5790313272155,0,0,0,0,1,0,0,0
1.12344,389.6563360169952,1.8292404672535416,274.50460804516524,0,0,0,0,1,0,0,0
1.12346,389.5087729870336,1.9270847859201008,275.41934779120817,0,0,0,0,1,0,0,0
1.12348,389.36126640036144,2.0254573485033287,276.323214453002,0,0,0,0,1,0,0,0
1.1235,389.2138162518848,2.170511794816224,277.2161723474222,0,0,0,0,1,0,0,0
1.12352,389.0664225442012,2.2701643117173496,278.0981862220283,0,0,0,0,1,0,0,0
1.12354,388.9190849990436,2.282094336975203,278.9692212564306,0,0,0,0,1,0,0,0
1.12356,388.7718032850961,2.2876546782285536,279.8292430636418,0,0,0,0,1,0,0,0
1.12358,388.62457737518247,2.293115500733809,280.6782176914889,0,0,0,0,1,0,0,0
1.1236,388.4774072385902,2.3733918336791566,281.516111623892,0,0,0,0,1,0,0,0
1.1236199999999998,388.3302929873152,2.3816052642985697,282.34289178224105,0,0,0,0,1,0,0,0
1.12364,388.1832344767018,2.388502260317666,283.15852552667843,0,0,0,0,1,0,0,0
1.12366,388.03623168419193,2.3953046242866174,283.96298065736573,0,0,0,0,1,0,0,0
1.12368,387.8892845883447,2.40201241027036,284.75622541580645,0,0,0,0,1,0,0,0
1.1237,387.74239316772736,2.4086253535479614,285.5382284860413,0,0,0,0,1,0,0,0
1.12372,387.5955574009135,2.415143193057604,286.3089589959423,0,0,0,0,1,0,0,0
1.12374,387.448777266485,2.421565671491953,287.06838651837467,0,0,0,0,1,0,0,0
1.12376,387.3020527430304,2.4278925353083705,287.81648107244723,0,0,0,0,1,0,0,0
1.12378,387.15538380914455,2.4341235347389247,288.5532131246745,0,0,0,0,1,0,0,0
1.1238,387.0087704434304,2.440258423800236,289.27855359012324,0,0,0,0,1,0,0,0
1.12382,386.86221262449885,2.446296960303206,289.9924738336069,0,0,0,0,1,0,0,0
1.12384,386.7157103309669,2.452238905862552,290.6949456707639,0,0,0,0,1,0,0,0
1.12386,386.5692635414589,2.458084025906245,291.38594136921535,0,0,0,0,1,0,0,0
1.12388,386.4228722346061,2.4638320896847543,292.0654336496404,0,0,0,0,1,0,0,0
1.1239,386.2765363890485,2.4694828702801725,292.73339568683485,0,0,0,0,1,0,0,0
1.12392,386.13025598343273,2.4750361446151534,293.3898011108195,0,0,0,0,1,0,0,0
1.12394,385.9840309964114,2.4804916934617247,294.03462400780234,0,0,0,0,1,0,0,0
1.1239599999999998,385.8378614066468,2.4858493014499614,294.66783892130326,0,0,0,0,1,0,0,0
1.12398,385.6917471928061,2.4911087570764563,295.28942085308694,0,0,0,0,1,0,0,0
1.124,385.5456883335657,2.4962698527127096,295.8993452641406,0,0,0,0,1,0,0,0
1.12402,385.3996848076079,2.5013323846132853,296.4975880757095,0,0,0,0,1,0,0,0
1.12404,385.2537365936233,2.506296152923869,297.084125670181,0,0,0,0,1,0,0,0
1.12406,385.10784367030976,2.5111609616891823,297.6589348920657,0,0,0,0,1,0,0,0
1.12408,384.9620060163722,2.515926618860676,298.22199304886954,0,0,0,0,1,0,0,0
1.1241,384.81622361052337,2.520592936304153,298.77327791202566,0,0,0,0,1,0,0,0
1.12412,384.67049643148215,2.525159729807163,299.3127677177566,0,0,0,0,1,0,0,0
1.12414,384.5248244579763,2.5296268190862903,299.84044116791875,0,0,0,0,1,0,0,0
1.12416,384.3792076687408,2.533994027794276,300.3562774308773,0,0,0,0,1,0,0,0
1.12418,384.2336460425177,2.538261183526961,300.8602561422906,0,0,0,0,1,0,0,0
1.1242,384.0881395580559,2.542428117830122,301.3523574059468,0,0,0,0,1,0,0,0
1.12422,383.9426881941126,2.5464946662060832,301.83256179453485,0,0,0,0,1,0,0,0
1.12424,383.7972919294522,2.55046066812025,302.3008503503992,0,0,0,0,1,0,0,0
1.12426,383.65195074284657,2.5543259670074083,302.7572045863177,0,0,0,0,1,0,0,0
1.12428,383.50666461307446,2.558090410277947,303.20160648619844,0,0,0,0,1,0,0,0
1.1243,383.36143351892406,2.5617538493238428,303.63403850581955,0,0,0,0,1,0,0,0
1.12432,383.216257439188,2.565316139524548,304.05448357350906,0,0,0,0,1,0,0,0
1.12434,383.0711363526699,2.568777140252701,304.462925090808,0,0,0,0,1,0,0,0
1.12436,382.92607023817817,2.5721367148796657,304.859346933152,0,0,0,0,1,0,0,0
1.12438,382.7810590745298,2.5753947307809417,305.2437334504782,0,0,0,0,1,0,0,0
