Time / s,Vo:Measured voltage,IL:Measured current,Vin:Measured voltage,short1:Output,short2:Output,short3:Output,short4:Output,open1:Output,open3:Output,open2:Output,open4:Output
1.1638757668276862,392.43526218052784,12.102852352376791,291.3859413692168,0,0,0,0,0,0,0,0
1.16388,392.557323107011,12.144406593225566,292.0654336496418,0,0,0,0,0,0,0,0
1.1639,392.68223011950863,12.139962507766857,292.7333956868364,0,0,0,0,0,0,0,0
1.1639199999999998,392.8064630136389,12.154485124277612,293.3898011108091,0,0,0,0,0,0,0,0
1.16394,392.9329260770815,12.122132786936234,294.0346240078037,0,0,0,0,0,0,0,0
1.16396,393.0588118570744,12.107929510099057,294.6678389213046,0,0,0,0,0,0,0,0
1.16398,393.18452870330793,12.111495757195163,295.2894208530883,0,0,0,0,0,0,0,0
1.164,393.31047606247023,12.132441100152482,295.89934526413646,0,0,0,0,0,0,0,0
1.16402,393.437044236866,12.170364461223745,296.4975880757108,0,0,0,0,0,0,0,0
1.16404,393.5646141486894,12.224854360788395,297.08412567018223,0,0,0,0,0,0,0,0
1.16406,393.69355711008745,12.295489170985752,297.65893489206184,0,0,0,0,0,0,0,0
1.16408,393.8242345991344,12.3818373750326,298.2219930488708,0,0,0,0,0,0,0,0
1.1641,393.9569980418504,12.483457832074505,298.77327791202686,0,0,0,0,0,0,0,0
1.16412,394.093424036811,12.534233770374192,299.31276771775777,0,0,0,0,0,0,0,0
1.16414,394.2316017964128,12.533656273985583,299.8404411679199,0,0,0,0,0,0,0,0
1.16416,394.3698726581927,12.546969070999308,300.35627743087383,0,0,0,0,0,0,0,0
1.16418,394.5103570223604,12.508037877286526,300.86025614229175,0,0,0,0,0,0,0,0
1.1642,394.64823575757566,12.547894334126877,301.3523574059479,0,0,0,0,0,0,0,0
1.16422,394.788172252463,12.534664886204672,301.83256179453593,0,0,0,0,0,0,0,0
1.16424,394.92788985593694,12.533679203141196,302.30085035040014,0,0,0,0,0,0,0,0
1.16426,395.06766789971607,12.544540839730551,302.75720458631463,0,0,0,0,0,0,0,0
1.16428,395.2095797045285,12.500997307018269,303.2016064861994,0,0,0,0,0,0,0,0
1.1643,395.348751721008,12.534312827369677,303.63403850582046,0,0,0,0,0,0,0,0
1.16432,395.49057057247455,12.512385542672176,304.0544835735099,0,0,0,0,0,0,0,0
1.16434,395.6301400198119,12.56655940290616,304.4629250908088,0,0,0,0,0,0,0,0
1.1643599999999998,395.7728379030045,12.564625450669816,304.85934693314925,0,0,0,0,0,0,0,0
1.16438,395.915545770975,12.5720425150643,305.24373345047906,0,0,0,0,0,0,0,0
1.1644,396.0584770779009,12.588405448344355,305.6160694678698,0,0,0,0,0,0,0,0
1.16442,396.2018356770655,12.613303280420157,305.9763402861398,0,0,0,0,0,0,0,0
1.16444,396.3458156917381,12.646319483254274,306.3245316824075,0,0,0,0,0,0,0,0
1.16446,396.4906013923136,12.687032238491314,306.66062991067906,0,0,0,0,0,0,0,0
1.16448,396.6363670797778,12.735014708157507,306.98462170236587,0,0,0,0,0,0,0,0
1.1645,396.78327697556784,12.789835308266564,307.2964942668298,0,0,0,0,0,0,0,0
1.16452,396.9314851178854,12.851057985165667,307.5962352918787,0,0,0,0,0,0,0,0
1.16454,397.0811352645304,12.91824249445452,307.8838329442448,0,0,0,0,0,0,0,0
1.16456,397.2323608023022,12.990944682308504,308.1592758700727,0,0,0,0,0,0,0,0
1.16458,397.3870526559151,12.936291703784544,308.4225531953375,0,0,0,0,0,0,0,0
1.1646,397.53996712450544,12.952446970577538,308.67365452630406,0,0,0,0,0,0,0,0
1.16462,397.69373584221023,12.90655108384778,308.91256994993046,0,0,0,0,0,0,0,0
1.16464,397.84593080260873,12.930722859385831,309.139290034234,0,0,0,0,0,0,0,0
1.16466,397.99915483697055,12.891995200708108,309.35380582870016,0,0,0,0,0,0,0,0
1.16468,398.15018739737735,12.922587887496144,309.55610886460886,0,0,0,0,0,0,0,0
1.1646999999999998,398.3031699726299,12.889440093370496,309.7461911553846,0,0,0,0,0,0,0,0
1.16472,398.45408405938576,12.9248528529009,309.9240451969057,0,0,0,0,0,0,0,0
1.16474,398.60705209422775,12.895660629594838,310.08966396779584,0,0,0,0,0,0,0,0
1.16476,398.75928847317465,12.867819498334368,310.24304092971244,0,0,0,0,0,0,0,0
1.16478,398.9103550911952,12.907404665777529,310.38417002759303,0,0,0,0,0,0,0,0
1.1648,399.06277267729286,12.881082961758004,310.51304568990486,0,0,0,0,0,0,0,0
1.16482,399.2140458363577,12.92141608620586,310.62966282885526,0,0,0,0,0,0,0,0
1.16484,399.366678824906,12.894968980080105,310.73401684060053,0,0,0,0,0,0,0,0
1.16486,399.5173691081134,12.934408313323129,310.82610360542367,0,0,0,0,0,0,0,0
1.16488,399.67017454057,12.906210628222068,310.9059194878952,0,0,0,0,0,0,0,0
1.1649,399.82098524501134,12.9431282201542,310.97346133702206,0,0,0,0,0,0,0,0
1.16492,399.9738428314872,12.91153788467696,311.0287264863668,0,0,0,0,0,0,0,0
1.16494,400.1246159786805,12.94429504183818,311.07171275415635,0,0,0,0,0,0,0,0
1.16496,400.27732809169896,12.907677754696572,311.10241844336684,0,0,0,0,0,0,0,0
1.16498,400.4286146084216,12.934641702259563,311.1208423417895,0,0,0,0,0,0,0,0
1.165,400.5796510723409,12.958101769068694,311.12698372208087,0,0,0,0,0,0,0,0
1.16502,400.7323942200157,12.910880237429176,311.1208423417897,0,0,0,0,0,0,0,0
1.16504,400.8834481158781,12.926090914009803,311.10241844336707,0,0,0,0,0,0,0,0
1.16506,401.0347473740365,12.936576164302735,311.0717127541568,0,0,0,0,0,0,0,0
1.16508,401.1853907160997,12.941926040730928,311.02872648636736,0,0,0,0,0,0,0,0
1.1651,401.3360387443942,12.941746238116082,310.97346133702223,0,0,0,0,0,0,0,0
1.16512,401.4873420006587,12.935625609211602,310.905919487896,0,0,0,0,0,0,0,0
1.1651399999999998,401.63837051291694,12.92314427401468,310.8261036054246,0,0,0,0,0,0,0,0
1.16516,401.787712496406,12.970851029538029,310.7340168406007,0,0,0,0,0,0,0,0
1.16518,401.9385085953915,12.944465016730462,310.62966282885645,0,0,0,0,0,0,0,0
1.1652,402.089324666924,12.910508431476512,310.513045689904,0,0,0,0,0,0,0,0
1.16522,402.23794041303057,12.935602307466915,310.38417002759326,0,0,0,0,0,0,0,0
1.16524,402.38698932688334,12.952374052151423,310.2430409297114,0,0,0,0,0,0,0,0
1.16526,402.5375299476464,12.893334288581872,310.0896639677961,0,0,0,0,0,0,0,0
1.16528,402.6852727865033,12.89221133184496,309.92404519690604,0,0,0,0,0,0,0,0
1.1653,402.8328236469149,12.881574200648364,309.746191155385,0,0,0,0,0,0,0,0
1.16532,402.9799560018458,12.861023729320056,309.5561088646092,0,0,0,0,0,0,0,0
1.16534,403.1264341698244,12.830166956639712,309.3538058286986,0,0,0,0,0,0,0,0
1.16536,403.27201346605614,12.788617374477154,309.1392900342344,0,0,0,0,0,0,0,0
1.16538,403.4164403592413,12.73599517244951,308.91256994993086,0,0,0,0,0,0,0,0
1.1654,403.5594526339865,12.671927478452202,308.6736545263067,0,0,0,0,0,0,0,0
1.16542,403.70077955872176,12.596048594920626,308.422553195338,0,0,0,0,0,0,0,0
1.16544,403.8373043097402,12.642577706726382,308.1592758700708,0,0,0,0,0,0,0,0
1.16546,403.9747072553802,12.676654571413271,307.88383294424784,0,0,0,0,0,0,0,0
1.1654799999999998,404.1126965009955,12.697856293112183,307.5962352918819,0,0,0,0,0,0,0,0
1.1655,404.2509706155612,12.705767895787972,307.2964942668331,0,0,0,0,0,0,0,0
1.16552,404.3892188205842,12.699982577790548,306.9846217023693,0,0,0,0,0,0,0,0
1.16554,404.52712118474864,12.680101961512367,306.66062991067963,0,0,0,0,0,0,0,0
1.16556,404.66434882417707,12.64573633800752,306.3245316824112,0,0,0,0,0,0,0,0
1.1655799999999998,404.8001075986618,12.663952358462648,305.9763402861436,0,0,0,0,0,0,0,0
1.1656,404.9360588465506,12.666940062568756,305.6160694678738,0,0,0,0,0,0,0,0
1.16562,405.071849563801,12.654297879294642,305.24373345048315,0,0,0,0,0,0,0,0
1.16564,405.20588122990256,12.693152262952722,304.8593469331534,0,0,0,0,0,0,0,0
1.16566,405.3405605277701,12.71563095652776,304.46292509081314,0,0,0,0,0,0,0,0
1.16568,405.47675306576514,12.653759531488134,304.0544835735069,0,0,0,0,0,0,0,0
1.1657,405.6100516416674,12.64225761614382,303.63403850582506,0,0,0,0,0,0,0,0
1.16572,405.7428406651075,12.613215848551906,303.2016064862042,0,0,0,0,0,0,0,0
1.16574,405.874717455832,12.566254180500858,302.75720458631537,0,0,0,0,0,0,0,0
1.16576,406.0052709722996,12.501003343974524,302.30085035040094,0,0,0,0,0,0,0,0
1.16578,406.13408206231605,12.41710507189393,301.83256179453247,0,0,0,0,0,0,0,0
1.1658,406.25793848647953,12.449597473599567,301.35235740594874,0,0,0,0,0,0,0,0
1.16582,406.38226308422566,12.462821024385748,300.8602561422926,0,0,0,0,0,0,0,0
1.16584,406.50661920126015,12.456374992318416,300.3562774308747,0,0,0,0,0,0,0,0
1.16586,406.6305614934333,12.429870213609,299.84044116792074,0,0,0,0,0,0,0,0
1.16588,406.753636191932,12.382929318308218,299.31276771775384,0,0,0,0,0,0,0,0
1.1659,406.8753813733488,12.315186949352189,298.7732779120278,0,0,0,0,0,0,0,0
1.1659199999999998,406.9936741443482,12.361921448366727,298.2219930488717,0,0,0,0,0,0,0,0
1.16594,407.1139339075584,12.319354907939212,297.6589348920628,0,0,0,0,0,0,0,0
1.16596,407.23175283076654,12.322753192817236,297.08412567018325,0,0,0,0,0,0,0,0
1.16598,407.3493583737428,12.303931067913522,296.4975880757064,0,0,0,0,0,0,0,0
1.166,407.4662549927889,12.262511195276954,295.89934526414294,0,0,0,0,0,0,0,0
1.16602,407.5819391292832,12.198129206220434,295.2894208530838,0,0,0,0,0,0,0,0
1.16604,407.69416735016097,12.17836424948595,294.6678389213114,0,0,0,0,0,0,0,0
1.16606,407.8046696968944,12.202937266735384,294.0346240078106,0,0,0,0,0,0,0,0
1.16608,407.9154079831,12.203552562595211,293.38980111081617,0,0,0,0,0,0,0,0
1.1661,408.02585533777153,12.179826526561564,292.7333956868435,0,0,0,0,0,0,0,0
1.16612,408.13547686957446,12.131389181221897,292.065433649643,0,0,0,0,0,0,0,0
1.16614,408.243729969503,12.057884385062692,291.3859413692242,0,0,0,0,0,0,0,0
1.16616,408.34888281312806,12.027013481736956,290.6949456707729,0,0,0,0,0,0,0,0
1.16618,408.45260034038574,12.038485226772506,289.99247383360967,0,0,0,0,0,0,0,0
1.1662,408.5562470256549,12.023895678284964,289.2785535901325,0,0,0,0,0,0,0,0
1.16622,408.6592583013884,11.982874571910743,288.55321312467737,0,0,0,0,0,0,0,0
1.16624,408.7610620039193,11.915066077313597,287.81648107245684,0,0,0,0,0,0,0,0
1.16626,408.8593949777924,11.88825407985168,287.06838651838444,0,0,0,0,0,0,0,0
1.16628,408.955866276162,11.902164467921168,286.30895899594526,0,0,0,0,0,0,0,0
1.1663,409.0523051315564,11.88832047726376,285.53822848605137,0,0,0,0,0,0,0,0
1.16632,409.148119072823,11.846356297489308,284.7562254158024,0,0,0,0,0,0,0,0
1.16634,409.2427082533439,11.775921086695387,283.96298065736886,0,0,0,0,0,0,0,0
1.1663599999999998,409.33546577321766,11.676679153117473,283.15852552668895,0,0,0,0,0,0,0,0
1.16638,409.4246330836984,11.616533522532544,282.34289178224424,0,0,0,0,0,0,0,0
1.1664,409.5117630387204,11.595209866767066,281.5161116238952,0,0,0,0,0,0,0,0
1.16642,409.5964681611492,11.612397727088654,280.6782176914846,0,0,0,0,0,0,0,0
1.16644,409.68118999705297,11.59953543801752,279.8292430636451,0,0,0,0,0,0,0,0
1.16646,409.7643665006029,11.624544572721764,278.9692212564262,0,0,0,0,0,0,0,0
1.16648,409.8477137125692,11.618813290963182,278.0981862220317,0,0,0,0,0,0,0,0
1.1665,409.9305945527459,11.581981694254305,277.21617234742564,0,0,0,0,0,0,0,0
1.16652,410.0123649289544,11.51370559568908,276.32321445299726,0,0,0,0,0,0,0,0
1.16654,410.0923740651377,11.41365668790859,275.4193477912117,0,0,0,0,0,0,0,0
1.16656,410.1699648327043,11.281522703529076,274.50460804516047,0,0,0,0,0,0,0,0
1.16658,410.2429453236473,11.253727164471211,273.5790313272192,0,0,0,0,0,0,0,0
1.1666,410.31342412144346,11.261651665508376,272.64265417756343,0,0,0,0,0,0,0,0
1.16662,410.3828073902957,11.305007948480933,271.6955135627512,0,0,0,0,0,0,0,0
1.16664,410.4527023471247,11.315077827050134,270.7376468742894,0,0,0,0,0,0,0,0
1.16666,410.5224396353758,11.291504282016176,269.7690919270974,0,0,0,0,0,0,0,0
1.16668,410.59134317361526,11.233946401676098,268.7898869580836,0,0,0,0,0,0,0,0
1.1666999999999998,410.6587304817498,11.142079538393686,267.80007062457474,0,0,0,0,0,0,0,0
1.16672,410.7239130101677,11.01559545789231,266.79968200281576,0,0,0,0,0,0,0,0
1.16674,410.7851076027266,10.922653675635589,265.78876058645466,0,0,0,0,0,0,0,0
1.16676,410.8421508298255,10.931456731485982,264.76734628491965,0,0,0,0,0,0,0,0
1.16678,410.89813520558096,10.97328451106239,263.73547942191686,0,0,0,0,0,0,0,0
1.1667999999999998,410.95456655479126,10.979340017512618,262.69320073377406,0,0,0,0,0,0,0,0
1.16682,411.0107477445271,10.949279078840547,261.6405513678597,0,0,0,0,0,0,0,0
1.16684,411.0659753905218,10.882773881194064,260.5775728809872,0,0,0,0,0,0,0,0
1.16686,411.119540178116,10.779513110456616,259.50430723769824,0,0,0,0,0,0,0,0
1.16688,317.8001981745259,11.188218744076394,258.42079680873127,0,1,0,0,0,0,0,0
1.1669,74.2928022451956,17.10155322529579,257.3270843691641,0,1,0,0,0,0,0,0
1.16692,16.492779055821956,25.018117319819105,256.2232130969403,0,1,0,0,0,0,0,0
1.16694,3.8590093811845474,33.39168676537249,255.109226570988,0,1,0,0,0,0,0,0
1.16696,1.149230225353173,41.83428517982596,253.9851687695774,0,1,0,0,0,0,0,0
1.16698,0.6197176655327369,50.260412615626,252.85108406860627,0,1,0,0,0,0,0,0
1.167,0.571735837266508,58.65106338478677,251.70701723977623,0,1,0,0,0,0,0,0
1.16702,0.6430334186452914,67.0019349257701,250.55301344890745,0,1,0,0,0,0,0,0
1.16704,0.725659881341493,75.31152287754318,249.3891182540832,0,1,0,0,0,0,0,0
1.16706,0.8084372765134544,83.57938919086382,248.21537760388225,0,1,0,0,0,0,0,0
1.16708,0.8908227351612468,91.80521444347252,247.0318378355969,0,1,0,0,0,0,0,0
1.1671,0.9727870656367654,99.98868651871008,245.83854567332943,0,1,0,0,0,0,0,0
1.16712,1.0543259021305478,108.12949524054343,244.6355482262325,0,1,0,0,0,0,0,0
1.1671399999999998,1.135436093845289,116.2273321260946,243.42289298657488,0,1,0,0,0,0,0,0
1.16716,1.2161145647372404,124.28189038527616,242.200627827898,0,1,0,0,0,0,0,0
1.16718,1.2963582585585265,132.29286493229856,240.96880100315929,0,1,0,0,0,0,0,0
1.1672,1.3761641363175636,140.2599523976877,239.72746114275049,0,1,0,0,0,0,0,0
1.16722,1.4555291762705629,148.18285114025943,238.47665725266623,0,1,0,0,0,0,0,0
1.16724,1.5344503740346191,156.06126125903063,237.2164387124797,0,1,0,0,0,0,0,0
1.16726,1.612924742706053,163.8948846050601,235.94685527348383,0,1,0,0,0,0,0,0
1.16728,1.6909493129783044,171.68342479321953,234.6679570566476,0,1,0,0,0,0,0,0
1.1673,1.768521133259197,179.42658721389722,233.37979455067105,0,1,0,0,0,0,0,0
1.16732,1.845637269787452,187.1240790446279,232.08241861002747,0,1,0,0,0,0,0,0
1.16734,1.922294806748535,194.77560926165663,230.77588045287416,0,1,0,0,0,0,0,0
1.16736,1.998490846389779,202.3808886514288,229.4602316591241,0,1,0,0,0,0,0,0
1.16738,2.074222509134802,209.9396298220077,228.13552416832687,0,1,0,0,0,0,0,0
1.1674,2.1494869336971814,217.45154721442296,226.80181027765423,0,1,0,0,0,0,0,0
1.16742,2.224281277193463,224.91635711394565,225.4591426398708,0,1,0,0,0,0,0,0
1.16744,2.298602715255372,232.33377766128976,224.1075742611593,0,1,0,0,0,0,0,0
1.16746,2.372448442141343,239.70352886374064,222.74715849918644,0,1,0,0,0,0,0,0
1.16748,2.4458156708473138,247.02533260621107,221.37794906078804,0,1,0,0,0,0,0,0
1.1675,2.5187016332167462,254.29891266222097,219.9999999999956,0,1,0,0,0,0,0,0
1.16752,2.5911035800499267,261.5239947048044,218.6133657159283,0,1,0,0,0,0,0,0
1.16754,2.663018781212517,268.7003063173416,217.21810095049605,0,1,0,0,0,0,0,0
1.16756,2.7344445257433447,275.8275770043126,215.81426078638788,0,1,0,0,0,0,0,0
1.1675799999999998,2.8053781219614464,282.9055382019803,214.4019006447972,0,1,0,0,0,0,0,0
1.1676,2.8758168975723466,289.93392328899256,212.98107628327097,0,1,0,0,0,0,0,0
1.16762,2.9457581997735813,296.91246759691046,211.55184379354807,0,1,0,0,0,0,0,0
1.16764,3.0151993953593967,303.8409084206561,210.114259599254,0,1,0,0,0,0,0,0
1.16766,3.084137870824761,310.7189850288891,208.6683804537772,0,1,0,0,0,0,0,0
1.16768,3.1525710324685594,317.5464386742977,207.2142634379244,0,1,0,0,0,0,0,0
1.1677,3.22049630649596,324.32301260381706,205.751965957772,0,1,0,0,0,0,0,0
1.16772,3.287911139120073,331.04845206876405,204.2815457423073,0,1,0,0,0,0,0,0
1.16774,3.3548129966627687,337.7225043349006,202.8030608411896,0,1,0,0,0,0,0,0
1.16776,3.421199365654725,344.34491869240645,201.31656962249755,0,1,0,0,0,0,0,0
1.16778,3.4870677529346747,350.9154464657876,199.82213077033256,0,1,0,0,0,0,0,0
1.1678,3.552415685747819,357.43384102368185,198.31980328260863,0,1,0,0,0,0,0,0
1.16782,3.617240711843493,363.89985778860864,196.8096464686291,0,1,0,0,0,0,0,0
1.16784,3.681540399571975,370.3132542466191,195.2917199467853,0,1,0,0,0,0,0,0
