Time / s,Vo:Measured voltage,IL:Measured current,Vin:Measured voltage,short1:Output,short2:Output,short3:Output,short4:Output,open1:Output,open3:Output,open2:Output,open4:Output
1.1148862520237297,399.58328659658673,-12.859070278473263,-310.9059194878951,0,0,0,0,0,0,0,0
1.1149,399.7358675431887,-12.831687225828638,-310.97346133702206,0,0,0,0,0,0,0,0
1.11492,399.88687262551366,-12.86902575373252,-311.0287264863668,0,0,0,0,0,0,0,0
1.11494,400.03952579379154,-12.83743205451204,-311.0717127541567,0,0,0,0,0,0,0,0
1.11496,400.1904940347844,-12.869791791337164,-311.1024184433668,0,0,0,0,0,0,0,0
1.11498,400.3413438676892,-12.899058204088638,-311.1208423417895,0,0,0,0,0,0,0,0
1.115,400.4944263885537,-12.858096783716308,-311.12698372208087,0,0,0,0,0,0,0,0
1.11502,400.6455863685062,-12.879929004925474,-311.1208423417897,0,0,0,0,0,0,0,0
1.11504,400.79636616098526,-12.897438847811223,-311.10241844336684,0,0,0,0,0,0,0,0
1.11506,400.947445379709,-12.910229470201472,-311.0717127541568,0,0,0,0,0,0,0,0
1.1150799999999998,401.0987082256058,-12.917885606614464,-311.02872648636736,0,0,0,0,0,0,0,0
1.1151,401.25002922986096,-12.919995187628984,-310.9734613370223,0,0,0,0,0,0,0,0
1.11512,401.4012733357417,-12.9161496045523,-310.905919487896,0,0,0,0,0,0,0,0
1.11514,401.5522959865691,-12.905943971872528,-310.82610360542384,0,0,0,0,0,0,0,0
1.11516,401.70294321979446,-12.888977387336464,-310.73401684060167,0,0,0,0,0,0,0,0
1.11518,401.8538362709056,-12.864854249402908,-310.6296628288546,0,0,0,0,0,0,0,0
1.1152,402.00237764183856,-12.900143150650546,-310.5130456899052,0,0,0,0,0,0,0,0
1.11522,402.1532384084727,-12.860509554109784,-310.3841700275945,0,0,0,0,0,0,0,0
1.11524,402.301376589386,-12.879527446068636,-310.24304092971147,0,0,0,0,0,0,0,0
1.11526,402.4498013550139,-12.889829426427896,-310.0896639677962,0,0,0,0,0,0,0,0
1.11528,402.59830443791816,-12.89100331270804,-309.92404519690456,0,0,0,0,0,0,0,0
1.1153,402.7466680998624,-12.882642631069366,-309.7461911553851,0,0,0,0,0,0,0,0
1.11532,402.8946652715729,-12.864346873272543,-309.55610886460926,0,0,0,0,0,0,0,0
1.11534,403.0420596984093,-12.835721749947744,-309.3538058286987,0,0,0,0,0,0,0,0
1.11536,403.1886060918405,-12.796379440021129,-309.1392900342345,0,0,0,0,0,0,0,0
1.11538,403.3340502866358,-12.74593883615093,-308.91256994992887,0,0,0,0,0,0,0,0
1.1154,403.47812940367095,-12.68402578602698,-308.6736545263068,0,0,0,0,0,0,0,0
1.11542,403.620572018258,-12.610273329390832,-308.4225531953381,0,0,0,0,0,0,0,0
1.11544,403.76109833388665,-12.524321930635628,-308.15927587007087,0,0,0,0,0,0,0,0
1.11546,403.89738440788136,-12.560418026879027,-307.883832944248,0,0,0,0,0,0,0,0
1.11548,404.034302526848,-12.583666476926478,-307.5962352918794,0,0,0,0,0,0,0,0
1.1155,404.1715518007426,-12.593651134359908,-307.29649426683324,0,0,0,0,0,0,0,0
1.1155199999999998,404.3088219648054,-12.589964013880126,-306.98462170236945,0,0,0,0,0,0,0,0
1.11554,404.445793573916,-12.572205541659253,-306.66062991067975,0,0,0,0,0,0,0,0
1.11556,404.5805309610173,-12.607396977758516,-306.32453168241136,0,0,0,0,0,0,0,0
1.11558,404.7158538363696,-12.627782292629508,-305.9763402861406,0,0,0,0,0,0,0,0
1.1156,404.85141856962986,-12.632949403704608,-305.6160694678739,0,0,0,0,0,0,0,0
1.11562,404.98764354308486,-12.622496896399742,-305.24373345047985,0,0,0,0,0,0,0,0
1.11564,405.1217771642212,-12.663512934261822,-304.85934693315363,0,0,0,0,0,0,0,0
1.11566,405.25745841799096,-12.620623768531528,-304.46292509081337,0,0,0,0,0,0,0,0
1.11568,405.3910713721534,-12.628472911493906,-304.0544835735109,0,0,0,0,0,0,0,0
1.1157,405.52461762154303,-12.619166964746784,-303.6340385058253,0,0,0,0,0,0,0,0
1.11572,405.6577028975893,-12.592314108317073,-303.2016064862004,0,0,0,0,0,0,0,0
1.11574,405.789924297266,-12.54753308076796,-302.7572045863197,0,0,0,0,0,0,0,0
1.11576,405.92087052888553,-12.48445340687184,-302.30085035040537,0,0,0,0,0,0,0,0
1.11578,406.05012216289225,-12.4027156190345,-301.832561794537,0,0,0,0,0,0,0,0
1.1158,406.1758661962626,-12.369651154111448,-301.35235740595334,0,0,0,0,0,0,0,0
1.11582,406.29997072085376,-12.38497365302365,-300.86025614228834,0,0,0,0,0,0,0,0
1.11584,406.4241513726311,-12.380631163265273,-300.35627743087497,0,0,0,0,0,0,0,0
1.11586,406.5479628212288,-12.35623341770454,-299.8404411679257,0,0,0,0,0,0,0,0
1.11588,406.67095128697673,-12.311401943109017,-299.3127677177541,0,0,0,0,0,0,0,0
1.1159,406.7910772489736,-12.313551264379475,-298.7732779120281,0,0,0,0,0,0,0,0
1.11592,406.91097123803706,-12.294580458417798,-298.22199304886686,0,0,0,0,0,0,0,0
1.11594,407.0293311591173,-12.321932477868772,-297.65893489206303,0,0,0,0,0,0,0,0
1.1159599999999998,407.148009859516,-12.327433513740766,-297.08412567018354,0,0,0,0,0,0,0,0
1.11598,407.26651958233816,-12.310692384628847,-296.4975880757067,0,0,0,0,0,0,0,0
1.116,407.38436424447633,-12.271330678530388,-295.8993452641432,0,0,0,0,0,0,0,0
1.11602,407.5010397245598,-12.208982966215274,-295.2894208530841,0,0,0,0,0,0,0,0
1.11604,407.616034155437,-12.123297007484258,-294.66783892131167,0,0,0,0,0,0,0,0
1.11606,407.7274818865615,-12.081872721655252,-294.0346240078051,0,0,0,0,0,0,0,0
1.11608,407.83710890865046,-12.084429340149562,-293.38980111081645,0,0,0,0,0,0,0,0
1.1161,407.9464846924138,-12.062670503943664,-292.73339568684383,0,0,0,0,0,0,0,0
1.11612,408.05507482704695,-12.016225272388182,-292.0654336496433,0,0,0,0,0,0,0,0
1.11614,408.1623371628891,-11.9447365295454,-291.3859413692245,0,0,0,0,0,0,0,0
1.11616,408.26538207172274,-11.98391773427686,-290.69494567076686,0,0,0,0,0,0,0,0
1.11618,408.3689548002959,-11.997425747141545,-289.99247383361,0,0,0,0,0,0,0,0
1.1162,408.4724987105136,-11.984875070146314,-289.27855359013284,0,0,0,0,0,0,0,0
1.11622,408.5754492354065,-11.945894442029283,-288.55321312467765,0,0,0,0,0,0,0,0
1.11624,408.6772341905199,-11.880127035894375,-287.81648107245724,0,0,0,0,0,0,0,0
1.11626,408.77727408935607,-11.787230649371864,-287.068386518378,0,0,0,0,0,0,0,0
1.11628,408.87309802814656,-11.803138104961748,-286.30895899594566,0,0,0,0,0,0,0,0
1.1162999999999998,408.96892833721273,-11.79130547325245,-285.5382284860517,0,0,0,0,0,0,0,0
1.11632,409.06417276713,-11.751366031819872,-284.75622541580987,0,0,0,0,0,0,0,0
1.11634,409.1582316736857,-11.68296802187221,-283.9629806573765,0,0,0,0,0,0,0,0
1.11636,409.2504983399716,-11.585774830353069,-283.1585255266746,0,0,0,0,0,0,0,0
1.11638,409.3380862897352,-11.59588062467758,-282.3428917822521,0,0,0,0,0,0,0,0
1.1164,409.42554509844615,-11.57659896964696,-281.5161116238881,0,0,0,0,0,0,0,0
1.11642,409.5122566900876,-11.527571979782984,-280.67821769148486,0,0,0,0,0,0,0,0
1.11644,409.5970341132551,-11.516708297247447,-279.8292430636455,0,0,0,0,0,0,0,0
1.11646,409.6799617065549,-11.54369861506515,-278.9692212564266,0,0,0,0,0,0,0,0
1.11648,409.76309652322647,-11.539953350103104,-278.0981862220321,0,0,0,0,0,0,0,0
1.1165,409.8458015047439,-11.505111773119433,-277.216172347418,0,0,0,0,0,0,0,0
1.11652,409.92743256365935,-11.43882886624529,-276.3232144529978,0,0,0,0,0,0,0,0
1.11654,410.0073389117025,-11.340775491334858,-275.41934779121215,0,0,0,0,0,0,0,0
1.11656,410.08339886686974,-11.278969644264432,-274.50460804516086,0,0,0,0,0,0,0,0
1.11658,410.1570661073085,-11.253151791354766,-273.5790313272196,0,0,0,0,0,0,0,0
1.1166,410.22984957282375,-11.194669248280254,-272.64265417755536,0,0,0,0,0,0,0,0
1.11662,410.2993120959376,-11.239931380649162,-271.69551356275167,0,0,0,0,0,0,0,0
1.11664,410.3693194759628,-11.251904582585665,-270.73764687428985,0,0,0,0,0,0,0,0
1.11666,410.4392022319199,-11.230231104571535,-269.76909192709786,0,0,0,0,0,0,0,0
1.11668,410.5082841436169,-11.174569307566015,-268.789886958084,0,0,0,0,0,0,0,0
1.1167,410.5758825779364,-11.08459381988992,-267.80007062456616,0,0,0,0,0,0,0,0
1.11672,410.6413088180578,-10.959995686831167,-266.7996820028162,0,0,0,0,0,0,0,0
1.1167399999999998,410.7024517051439,-10.868917349182464,-265.7887605864551,0,0,0,0,0,0,0,0
1.11676,410.75949136355433,-10.879560196268576,-264.76734628492005,0,0,0,0,0,0,0,0
1.11678,410.8170389452487,-10.854756840884145,-263.7354794219174,0,0,0,0,0,0,0,0
1.1168,410.8725421257398,-10.862624928186342,-262.69320073376514,0,0,0,0,0,0,0,0
1.11682,410.9278254641077,-10.834395608843158,-261.64055136786016,0,0,0,0,0,0,0,0
1.11684,410.9821858752055,-10.769740414578038,-260.57757288097804,0,0,0,0,0,0,0,0
1.11686,411.03491433083866,-10.668347370685757,-259.5043072377085,0,0,0,0,0,0,0,0
1.11688,411.0852961831516,-10.529921130949983,-258.4207968087318,0,0,0,0,0,0,0,0
1.1169,411.1293837901067,-10.559708053867617,-257.32708436917454,0,0,0,0,0,0,0,0
1.11692,411.1736635168016,-10.551945291642612,-256.2232130969509,0,0,0,0,0,0,0,0
1.11694,411.216917974977,-10.574826525768684,-255.1092265709784,0,0,0,0,0,0,0,0
1.11696,411.26022542115055,-10.559510625695138,-253.9851687695881,0,0,0,0,0,0,0,0
1.11698,411.3028652419916,-10.505673820235073,-252.85108406861715,0,0,0,0,0,0,0,0
1.117,411.3441111699092,-10.413008815609492,-251.7070172397768,0,0,0,0,0,0,0,0
1.11702,411.383231595894,-10.281224920143352,-250.553013448908,0,0,0,0,0,0,0,0
1.11704,411.4181513274671,-10.178603211626587,-249.3891182540731,0,0,0,0,0,0,0,0
1.11706,411.44985556238896,-10.173471525630305,-248.2153776038828,0,0,0,0,0,0,0,0
1.11708,411.4797406385923,-10.196984361781022,-247.03183783559749,0,0,0,0,0,0,0,0
1.1171,411.5096743366162,-10.180283251485646,-245.83854567333,0,0,0,0,0,0,0,0
1.11712,411.5389227285044,-10.12305563903254,-244.63554822623308,0,0,0,0,0,0,0,0
1.11714,411.5667466310261,-10.025005317602618,-243.42289298656448,0,0,0,0,0,0,0,0
1.11716,411.5924019058909,-9.885852541929015,-242.2006278278985,0,0,0,0,0,0,0,0
1.1171799999999998,411.61279913879207,-9.84251242174731,-240.96880100315985,0,0,0,0,0,0,0,0
1.1172,411.6322065101071,-9.826167994901809,-239.72746114275108,0,0,0,0,0,0,0,0
1.11722,411.64963961712175,-9.83651372446864,-238.4766572526668,0,0,0,0,0,0,0,0
1.11724,411.66687499496686,-9.804674028785213,-237.21643871248028,0,0,0,0,0,0,0,0
1.11726,411.68316877328346,-9.730352846104513,-235.94685527348443,0,0,0,0,0,0,0,0
1.11728,411.6977723026183,-9.613270247695478,-234.66795705663657,0,0,0,0,0,0,0,0
1.1173,411.7099324406142,-9.453162537500162,-233.3797945506716,0,0,0,0,0,0,0,0
1.11732,411.7155747469492,-9.524214773330389,-232.0824186100281,0,0,0,0,0,0,0,0
1.11734,411.72204872331446,-9.551746735142544,-230.7758804528748,0,0,0,0,0,0,0,0
1.11736,411.7286130239737,-9.535451666435668,-229.46023165912467,0,0,0,0,0,0,0,0
1.11738,411.73452151213695,-9.475038463470456,-228.1355241683156,0,0,0,0,0,0,0,0
1.1174,411.7390235281823,-9.370231771853442,-226.80181027765488,0,0,0,0,0,0,0,0
1.11742,411.74136415936,-9.220772078017689,-225.45914263987143,0,0,0,0,0,0,0,0
1.11744,411.7398281050269,-9.09502818961943,-224.10757426117223,0,0,0,0,0,0,0,0
1.11746,411.7335568712252,-9.129991692299546,-222.7471584991871,0,0,0,0,0,0,0,0
1.11748,411.72748593150345,-9.119569272966343,-221.37794906077625,0,0,0,0,0,0,0,0
1.1175,411.7208703226126,-9.063478782247792,-220.0000000000087,0,0,0,0,0,0,0,0
1.1175199999999998,411.7129608724707,-8.961453368018246,-218.6133657159416,0,0,0,0,0,0,0,0
1.11754,411.7030044527132,-8.813241557999204,-217.21810095050927,0,0,0,0,0,0,0,0
1.11756,411.6889719190872,-8.755817884577139,-215.8142607864013,0,0,0,0,0,0,0,0
1.11758,411.671841408504,-8.788930595032395,-214.401900644785,0,0,0,0,0,0,0,0
1.1176,411.65486627736107,-8.775116272458089,-212.98107628327165,0,0,0,0,0,0,0,0
1.11762,411.63730498417846,-8.714104967344174,-211.5518437935357,0,0,0,0,0,0,0,0
1.11764,411.6184121320287,-8.605641534591383,-210.11425959925464,0,0,0,0,0,0,0,0
1.11766,411.5974387038201,-8.449485706954256,-208.6683804537778,0,0,0,0,0,0,0,0
1.11768,411.5712930842309,-8.451168133663499,-207.21426343792507,0,0,0,0,0,0,0,0
1.1177,411.5441923395364,-8.473271232408862,-205.75196595777263,0,0,0,0,0,0,0,0
1.11772,411.5170664553575,-8.446946654520584,-204.2815457422947,0,0,0,0,0,0,0,0
1.11774,411.48917985638286,-8.371939244722544,-202.80306084119024,0,0,0,0,0,0,0,0
1.11776,411.4597934887785,-8.248008118257722,-201.3165696224983,0,0,0,0,0,0,0,0
1.11778,411.4273229527447,-8.143488554172116,-199.8221307703333,0,0,0,0,0,0,0,0
1.1178,411.3914970605147,-8.126706352289121,-198.31980328260937,0,0,0,0,0,0,0,0
1.11782,411.3544696164638,-8.128857158240196,-196.80964646861608,0,0,0,0,0,0,0,0
1.11784,411.3171211148797,-8.081137621299863,-195.291719946786,0,0,0,0,0,0,0,0
1.11786,411.2787246576206,-7.9833093614566675,-193.76608364224543,0,0,0,0,0,0,0,0
1.11788,411.23855025484335,-7.8351476967885585,-192.2327977844896,0,0,0,0,0,0,0,0
1.1179,411.1940220231455,-7.773486470414406,-190.6919229050463,0,0,1,0,0,0,0,0
1.11792,411.1473758537612,-7.798093758055645,-189.1435198349897,0,0,1,0,0,0,0,0
1.11794,411.1007307351285,-7.7716773634339456,-187.58764970264951,0,0,1,0,0,0,0,0
1.1179599999999998,411.0533739016458,-7.6940040569161265,-186.0243739311007,0,0,1,0,0,0,0,0
1.11798,411.00458969819454,-7.564853653453428,-184.45375423577968,0,0,1,0,0,0,0,0
1.118,410.953659763393,-7.384019062835603,-182.87585262209103,0,0,1,0,0,0,0,0
1.11802,410.8973009778536,-7.425206961869127,-181.29073138286017,0,0,1,0,0,0,0,0
1.11804,410.8411608116898,-7.414259234430461,-179.69845309598813,0,0,1,0,0,0,0,0
1.11806,410.7845426326182,-7.350950010780535,-178.09908062186642,0,0,1,0,0,0,0,0
1.11808,410.72674714379406,-7.235065799228035,-176.4926771010108,0,0,1,0,0,0,0,0
1.1181,410.6670725501308,-7.0664055309698695,-174.87930595146707,0,0,1,0,0,0,0,0
1.11812,410.6023565239688,-7.118486512548154,-173.25903086633645,0,0,1,0,0,0,0,0
1.11814,410.5379845156208,-7.117341934593484,-171.63191581137826,0,0,1,0,0,0,0,0
1.11816,410.4732776958434,-7.062755111541847,-169.99802502222045,0,0,1,0,0,0,0,0
1.11818,410.4075548098216,-6.954521065011318,-168.35742300214764,0,0,1,0,0,0,0,0
1.1182,410.3401323273097,-6.792446563316372,-166.71017451928876,0,0,1,0,0,0,0,0
1.11822,410.2687369237647,-6.713089585921016,-165.0563446041785,0,0,1,0,0,0,0,0
1.11824,410.1952818750788,-6.716222175873342,-163.39599854721996,0,0,1,0,0,0,0,0
1.11826,410.1215576787965,-6.664887371615515,-161.7292018960025,0,0,1,0,0,0,0,0
1.11828,410.0469031386902,-6.5588901563331135,-160.05602045283402,0,0,1,0,0,0,0,0
1.1182999999999998,409.9706550127688,-6.398046578466019,-158.37652027203796,0,0,1,0,0,0,0,0
1.11832,409.8901741910628,-6.387108004903294,-156.69076765739032,0,0,1,0,0,0,0,0
1.11834,409.8090233391297,-6.389214411036017,-154.99882915954842,0,0,1,0,0,0,0,0
1.11836,409.7276030098199,-6.335854821018818,-153.30077157331647,0,0,1,0,0,0,0,0
1.11838,409.6452736390704,-6.226845325569733,-151.59666193513115,0,0,1,0,0,0,0,0
1.1183999999999998,409.5613938476749,-6.062012403647125,-149.88656752030775,0,0,1,0,0,0,0,0
1.11842,409.4734500608028,-6.0459102318617886,-148.17055584043007,0,0,1,0,0,0,0,0
1.11844,409.38481706687264,-6.041818645200982,-146.44869464073196,0,0,1,0,0,0,0,0
1.11846,409.2958598661368,-5.981306838946713,-144.72105189731414,0,0,1,0,0,0,0,0
1.11848,409.2059622395036,-5.864202871690814,-142.98769581458524,0,0,1,0,0,0,0,0
1.1185,409.1145063790791,-5.690344519185754,-141.24869482244398,0,0,1,0,0,0,0,0
1.11852,409.01912403327935,-5.664071015799787,-139.5041175737034,0,0,1,0,0,0,0,0
1.11854,408.9229938464957,-5.6488151987837085,-137.75403294127037,0,0,1,0,0,0,0,0
1.11856,408.826441910426,-5.576233252322065,-135.99851001547364,0,0,1,0,0,0,0,0
1.11858,408.7288770171584,-5.446165812224068,-134.23761810138413,0,0,1,0,0,0,0,0
1.1186,408.62896327177407,-5.32655946851666,-132.47142671596768,0,0,1,0,0,0,0,0
1.11862,408.5266660010505,-5.285315710772641,-130.70000558546784,0,0,1,0,0,0,0,0
1.11864,408.4235270769926,-5.254133681202577,-128.92342464254182,0,0,1,0,0,0,0,0
1.11866,408.31983680052815,-5.16476340034902,-127.14175402354704,0,0,1,0,0,0,0,0
1.11868,408.2143174550518,-5.085086600273435,-125.35506406582113,0,0,1,0,0,0,0,0
1.1187,408.10740656882064,-5.014922602525347,-123.56342530477572,0,0,1,0,0,0,0,0
1.11872,407.999116871466,-4.954082804514398,-121.76690847132244,0,0,1,0,0,0,0,0
1.1187399999999998,407.8898599254527,-4.902384054973794,-119.96558448880484,0,0,1,0,0,0,0,0
1.11876,407.7798999769652,-4.791676513072599,-118.15952447039297,0,0,1,0,0,0,0,0
1.11878,407.6676656241296,-4.757705936744087,-116.34879971630914,0,0,1,0,0,0,0,0
1.1188,407.5549114626489,-4.664403124161963,-114.53348171081718,0,0,1,0,0,0,0,0
1.11882,407.4406741390759,-4.579540492056692,-112.71364211959646,0,0,1,0,0,0,0,0
1.11884,407.32533642051607,-4.502945185376321,-110.88935278676504,0,0,1,0,0,0,0,0
1.11886,407.2085056829727,-4.434434067089354,-109.06068573217507,0,0,1,0,0,0,0,0
