Time / s,Vo:Measured voltage,IL:Measured current,Vin:Measured voltage,short1:Output,short2:Output,short3:Output,short4:Output,open1:Output,open3:Output,open2:Output,open4:Output
1.1578121791736768,411.4678321316815,-8.067148946428599,-198.31980328260607,0,0,0,0,0,0,0,0
1.1578199999999998,411.42990088155193,-8.068096026911489,-196.80964646862645,0,0,0,0,0,0,0,0
1.15784,411.3916315180842,-8.01918756950523,-195.29171994678268,0,0,0,0,0,0,0,0
1.15786,411.3522973668579,-7.920185462716995,-193.76608364224208,0,0,0,0,0,0,0,0
1.15788,411.3111686655435,-7.770865289487152,-192.23279778448625,0,0,0,0,0,0,0,0
1.1579,411.2653742675458,-7.776622727507162,-190.69192290504296,0,0,0,0,0,0,0,0
1.1579199999999998,411.2187371568695,-7.800135392732305,-189.14351983500032,0,0,0,0,0,0,0,0
1.15794,411.17208583897497,-7.772624550802301,-187.58764970264613,0,0,0,0,0,0,0,0
1.15796,411.12470755810944,-7.693857205915453,-186.0243739310973,0,0,0,0,0,0,0,0
1.15798,411.0758866722573,-7.56361340663659,-184.45375423577624,0,0,0,0,0,0,0,0
1.158,411.02490483638655,-7.381686296101122,-182.8758526220876,0,0,0,0,0,0,0,0
1.15802,410.9684810115418,-7.421830260573416,-181.29073138285668,0,0,0,0,0,0,0,0
1.15804,410.91226192231767,-7.409839849078143,-179.69845309598463,0,0,0,0,0,0,0,0
1.15806,410.85555095971455,-7.345489395084774,-178.09908062187745,0,0,0,0,0,0,0,0
1.15808,410.7976488528686,-7.228565609711306,-176.49267710100727,0,0,0,0,0,0,0,0
1.1581,410.737853835364,-7.058867626525346,-174.87930595146355,0,0,0,0,0,0,0,0
1.15812,410.67300879259386,-7.109960111830839,-173.2590308663476,0,0,0,0,0,0,0,0
1.15814,410.6084952510958,-7.107829122398019,-171.6319158113747,0,0,0,0,0,0,0,0
1.15816,410.5436344140069,-7.052258147250428,-169.99802502224654,0,0,0,0,0,0,0,0
1.15818,410.47774506109687,-6.943042382091159,-168.35742300214403,0,0,0,0,0,0,0,0
1.1582,410.41014369890615,-6.77998876878648,-166.71017451930007,0,0,0,0,0,0,0,0
1.15822,410.3380487857848,-6.768062551758261,-165.05634460417485,0,0,0,0,0,0,0,0
1.15824,410.265228016934,-6.77025584162103,-163.39599854721632,0,0,0,0,0,0,0,0
1.1582599999999998,410.192126427178,-6.717973546610318,-161.72920189601396,0,0,0,0,0,0,0,0
1.15828,410.1180827264042,-6.611020807806173,-160.05602045283035,0,0,0,0,0,0,0,0
1.1583,410.04243358069175,-6.449213832750074,-158.37652027203427,0,0,0,0,0,0,0,0
1.15832,409.9630088044272,-6.369018441261038,-156.69076765738663,0,0,0,0,0,0,0,0
1.15834,409.8816168207232,-6.3702076254252304,-154.99882915954473,0,0,0,0,0,0,0,0
1.15836,409.79994490993806,-6.315934123219372,-153.30077157331277,0,0,0,0,0,0,0,0
1.15838,409.7173535508276,-6.206014156757131,-151.59666193512743,0,0,0,0,0,0,0,0
1.1584,409.6332014084986,-6.040274335813631,-149.886567520304,0,0,0,0,0,0,0,0
1.15842,409.54498523708,-6.023304845954629,-148.1705558404263,0,0,0,0,0,0,0,0
1.15844,409.45607394494976,-6.018361411533202,-146.44869464072818,0,0,0,0,0,0,0,0
1.15846,409.366829279684,-5.95700133348378,-144.7210518973104,0,0,0,0,0,0,0,0
1.15848,409.276635065262,-5.839052779362331,-142.98769581458143,0,0,0,0,0,0,0,0
1.1585,409.1840761659007,-5.732542459768003,-141.24869482245597,0,0,0,0,0,0,0,0
1.15852,409.0896686819056,-5.6372815501109175,-139.50411757369957,0,0,0,0,0,0,0,0
1.15854,408.9932317366288,-5.621233938976956,-137.75403294126653,0,0,0,0,0,0,0,0
1.15856,408.8963650208633,-5.547863894274208,-135.9985100154698,0,0,0,0,0,0,0,0
1.15858,408.79847736826815,-5.417012141661084,-134.2376181013803,0,0,0,0,0,0,0,0
1.1586,408.6978243810535,-5.364749216859201,-132.47142671597982,0,0,0,0,0,0,0,0
1.15862,408.5958733502955,-5.322749073924985,-130.70000558546397,0,0,0,0,0,0,0,0
1.15864,408.49306751252607,-5.2908186498247405,-128.92342464253792,0,0,0,0,0,0,0,0
1.15866,408.38970292414416,-5.200696630969551,-127.14175402354316,0,0,0,0,0,0,0,0
1.15868,408.28521488805416,-5.052236710395462,-125.35506406581722,0,0,0,0,0,0,0,0
1.1586999999999998,408.17796522090015,-4.981349489366321,-123.56342530480428,0,0,0,0,0,0,0,0
1.15872,408.06915898010624,-4.987811619606861,-121.7669084713185,0,0,0,0,0,0,0,0
1.15874,407.9601788526329,-4.935403272477065,-119.96558448880091,0,0,0,0,0,0,0,0
1.15876,407.85048915645285,-4.823983563490302,-118.159524470389,0,0,0,0,0,0,0,0
1.15878,407.73888852712986,-4.721368782196783,-116.3487997163216,0,0,0,0,0,0,0,0
1.1588,407.625785144402,-4.627387845057712,-114.53348171081323,0,0,0,0,0,0,0,0
1.15882,407.51103999145766,-4.609779691707868,-112.71364211959248,0,0,0,0,0,0,0,0
1.15884,407.3959293313724,-4.53251939574794,-110.88935278677756,0,0,0,0,0,0,0,0
1.15886,407.2793155360399,-4.463353109412675,-109.06068573217108,0,0,0,0,0,0,0,0
1.15888,407.16156701537926,-4.4021127100034345,-107.22771314845023,0,0,0,0,0,0,0,0
1.1589,407.04311303497127,-4.28078715111966,-105.39050739820097,0,0,0,0,0,0,0,0
1.15892,406.9230653152513,-4.1670767692525175,-103.54914101119373,0,0,0,0,0,0,0,0
1.15894,406.80119483287206,-4.128613067291475,-101.70368668140388,0,0,0,0,0,0,0,0
1.15896,406.6785087196511,-4.097398939701671,-99.85421726419176,0,0,0,0,0,0,0,0
1.15898,406.55539938954166,-4.005509072125861,-98.0008057734766,0,0,0,0,0,0,0,0
1.159,406.4314069989517,-3.8528339061579295,-96.14352537873695,0,0,0,0,0,0,0,0
1.15902,406.3050650370329,-3.842414144278516,-94.28244940225626,0,0,0,0,0,0,0,0
1.1590399999999998,406.17816379549487,-3.838591097663703,-92.41765131611062,0,0,0,0,0,0,0,0
1.15906,406.0510670094092,-3.7735292594639582,-90.54920473931848,0,0,0,0,0,0,0,0
1.15908,405.92334765380826,-3.6471271090473545,-88.67718343498525,0,0,0,0,0,0,0,0
1.1591,405.7940741451383,-3.526915884186076,-86.80166130727265,0,0,0,0,0,0,0,0
1.15912,405.6630983340976,-3.5479693923487328,-84.92271239861692,0,0,0,0,0,0,0,0
1.1591399999999998,405.53210585254686,-3.507254369058832,-83.0404108866867,0,0,0,0,0,0,0,0
1.15916,405.4007034043639,-3.404678069910477,-81.15483108150556,0,0,0,0,0,0,0,0
1.15918,405.268497269168,-3.2401530079736007,-79.26604742256974,0,0,0,0,0,0,0,0
1.1592,405.1343580002173,-3.1486350192311403,-77.37413447578977,0,0,0,0,0,0,0,0
1.15922,404.9991790306417,-3.1299301961980084,-75.47916693068355,0,0,0,0,0,0,0,0
1.15924,404.8637602745283,-3.0488800232314404,-73.58121959729078,0,0,0,0,0,0,0,0
1.15926,404.7277426981322,-2.905405921813327,-71.68036740335675,0,0,0,0,0,0,0,0
1.15928,404.5901396543526,-2.834292158460823,-69.77668539125409,0,0,0,0,0,0,0,0
1.1593,404.4517736420044,-2.7679381612184377,-67.87024871507177,0,0,0,0,0,0,0,0
1.15932,404.3128607154098,-2.706213206196177,-65.96113263769992,0,0,0,0,0,0,0,0
1.15934,404.1735165871699,-2.581621392475523,-64.04941252772048,0,0,0,0,0,0,0,0
1.15936,404.03285656967387,-2.5287709945514134,-62.1351638566392,0,0,0,0,0,0,0,0
1.15938,403.8918407541223,-2.412845826663752,-60.218462195698656,0,0,0,0,0,0,0,0
1.1594,403.74989115398296,-2.368369563039705,-58.29938321292912,0,0,0,0,0,0,0,0
1.15942,403.6076452879228,-2.2606173047270017,-56.37800267036957,0,0,0,0,0,0,0,0
1.15944,403.46432155001895,-2.2240180361611768,-54.454396420781805,0,0,0,0,0,0,0,0
1.15946,403.3207622517584,-2.123951383932296,-52.52864040488162,0,0,0,0,0,0,0,0
1.1594799999999998,403.1765165908876,-2.027562281194532,-50.60081064820172,0,0,0,0,0,0,0,0
1.1595,403.0317558615173,-1.9347395789468769,-48.67098325814242,0,0,0,0,0,0,0,0
1.15952,402.8861302375415,-1.9125136686743351,-46.739234421019646,0,0,0,0,0,0,0,0
1.15954,402.7403629364561,-1.8264637447610328,-44.80564039893483,0,0,0,0,0,0,0,0
1.15956,402.5942218940642,-1.6765493316359406,-42.8702775269041,0,0,0,0,0,0,0,0
1.15958,402.44707449958304,-1.663956694586515,-40.933222209704766,0,0,0,0,0,0,0,0
1.1596,402.29970080258624,-1.654346750333818,-38.99455091899903,0,0,0,0,0,0,0,0
1.15962,402.15225663043617,-1.5805923665606645,-37.05434019019238,0,0,0,0,0,0,0,0
1.15964,402.00454762306896,-1.4426633118910452,-35.112666619464655,0,0,0,0,0,0,0,0
1.15966,401.8561901460373,-1.307506598422556,-33.16960686079888,0,0,0,0,0,0,0,0
1.15968,401.70718170165526,-1.3089369220670255,-31.225237622832125,0,0,0,0,0,0,0,0
1.1597,401.5581550746446,-1.2459409600397784,-29.279635665967778,0,0,0,0,0,0,0,0
1.15972,401.4089540920552,-1.1184989189539103,-27.33287779922212,0,0,0,0,0,0,0,0
1.15974,401.2591914525024,-1.0603461331712232,-25.385040877244712,0,0,0,0,0,0,0,0
1.15976,401.109298302782,-0.9376261883498576,-23.436201797337247,0,0,0,0,0,0,0,0
1.15978,400.9590549894968,-0.8839838740018027,-21.4864374962944,0,0,0,0,0,0,0,0
1.1598,400.808712270389,-0.7656625698340248,-19.535824947507503,0,0,0,0,0,0,0,0
1.15982,400.6580037227389,-0.716208496838233,-17.58444115780238,0,0,0,0,0,0,0,0
1.15984,400.50723294494975,-0.6019737005130686,-15.632363164452077,0,0,0,0,0,0,0,0
1.15986,400.3562613163245,-0.5564130840558451,-13.679668032188594,0,0,0,0,0,0,0,0
1.15988,400.2051801541117,-0.5126797827950461,-11.726432850036876,0,0,0,0,0,0,0,0
1.1599,400.0540403214808,-0.4707083110278269,-9.77273472841278,0,0,0,0,0,0,0,0
1.1599199999999998,399.9028948422354,-0.363782186624615,-7.818650795955211,0,0,0,0,0,0,0,0
1.15994,399.7516846852264,-0.1919108706379264,-5.864258196516532,0,0,0,0,0,0,0,0
1.15996,399.6003439253216,-0.2215126316902673,-3.909634086258517,0,0,0,0,0,0,0,0
1.15998,399.44906447116,-0.1860089338308501,-1.9548556302880904,0,0,0,0,0,0,0,0
1.16,399.29782657746233,-0.0854173832064688,1.540652627552874e-15,0,0,0,0,0,0,0,0
1.16002,399.14656311836205,-0.1858628999744376,1.9548556303057785,0,0,0,0,0,0,0,0
1.16004,398.9953364454936,-0.2210743844798048,3.9096340862408354,0,0,0,0,0,0,0,0
1.16006,398.8441663052286,-0.1910776688036709,5.864258196516534,0,0,0,0,0,0,0,0
1.16008,398.6930724282444,-0.0959011547610071,7.818650795937534,0,0,0,0,0,0,0,0
1.1601,398.542072916106,0.0644251409645293,9.772734728395104,0,0,0,0,0,0,0,0
1.16012,398.3911906921167,0.2898669193988971,11.72643285003688,0,0,0,0,0,0,0,0
1.16014,398.2404438221399,0.580389604423622,13.679668032170929,0,0,0,0,0,0,0,0
1.16016,398.09013707065935,0.7369093461712602,15.632363164434416,0,0,0,0,0,0,0,0
1.16018,397.9401100029039,0.8922478834431213,17.584441157784724,0,0,0,0,0,0,0,0
1.1602,397.7905308159116,0.980136073425584,19.535824947489854,0,0,0,0,0,0,0,0
1.16022,397.6412954828677,1.0669458035519852,21.4864374962944,0,0,0,0,0,0,0,0
1.16024,397.49237711493527,1.1526978887493171,23.43620179731961,0,0,0,0,0,0,0,0
1.1602599999999998,397.34394144485856,1.171189196655579,25.385040877227087,0,0,0,0,0,0,0,0
1.16028,397.195654900774,1.2549060415714417,27.332877799204507,0,0,0,0,0,0,0,0
1.1603,397.0478095121648,1.3376194803716286,29.27963566595017,0,0,0,0,0,0,0,0
1.16032,396.9005251980347,1.353189919006953,31.225237622832125,0,0,0,0,0,0,0,0
1.16034,396.7534953295316,1.3678198111969573,33.1696068607813,0,0,0,0,0,0,0,0
1.16036,396.6066355983897,1.4476177991035053,35.11266661946466,0,0,0,0,0,0,0,0
1.16038,396.46010381471774,1.5925183157306284,37.05434019017482,0,0,0,0,0,0,0,0
1.1604,396.3144858939428,1.6703512967515612,38.99455091898148,0,0,0,0,0,0,0,0
1.16042,396.169453847292,1.6811773131476877,40.933222209704766,0,0,0,0,0,0,0,0
1.16044,396.024608118276,1.7570691481404357,42.87027752688658,0,0,0,0,0,0,0,0
1.16046,395.88014565449765,1.897951203372831,44.80564039895233,0,0,0,0,0,0,0,0
1.16048,395.7367631954712,1.9718365415206032,46.739234421002166,0,0,0,0,0,0,0,0
1.1605,395.5940507624008,1.9787721807140044,48.67098325812497,0,0,0,0,0,0,0,0
1.16052,395.4515356387496,2.050626594132922,50.60081064820172,0,0,0,0,0,0,0,0
1.16054,395.3094536188679,2.1873141722431604,52.52864040488164,0,0,0,0,0,0,0,0
1.16056,395.1683197258269,2.3228867351071254,54.45439642079922,0,0,0,0,0,0,0,0
1.16058,395.0283404936888,2.391479691114706,56.378002670369575,0,0,0,0,0,0,0,0
1.1606,394.8889980630073,2.458941028199761,58.29938321292912,0,0,0,0,0,0,0,0
1.16062,394.7504322171173,2.5252416267873654,60.21846219568132,0,0,0,0,0,0,0,0
1.16064,394.61250739869655,2.5903437159266547,62.1351638566392,0,0,0,0,0,0,0,0
1.16066,394.47541520052727,2.6542132932332656,64.04941252773779,0,0,0,0,0,0,0,0
1.16068,394.3390100049767,2.7168064104930822,65.96113263768264,0,0,0,0,0,0,0,0
1.1606999999999998,394.2034420411175,2.7780822445931976,67.87024871505452,0,0,0,0,0,0,0,0
1.16072,394.0685532768039,2.837991028417371,69.77668539123687,0,0,0,0,0,0,0,0
1.16074,393.9341888389478,2.962139534763552,71.68036740333955,0,0,0,0,0,0,0,0
1.16076,393.8010745630705,3.0847832753082507,73.58121959729078,0,0,0,0,0,0,0,0
1.16078,393.6695938722984,3.0746417759904285,75.47916693066641,0,0,0,0,0,0,0,0
1.1608,393.5382880868991,3.128542125504325,77.37413447578977,0,0,0,0,0,0,0,0
1.16082,393.39830464003126,0.6057017335971234,79.26604742255262,0,0,0,0,1,0,0,0
1.16084,393.2493198611738,0.6336382869673121,81.15483108148851,0,0,0,0,1,0,0,0
1.16086,393.1003917534072,0.6484130959017352,83.04041088666966,0,0,0,0,1,0,0,0
1.16088,392.9515202107552,0.6772436569162273,84.92271239859993,0,0,0,0,1,0,0,0
1.1609,392.80270523692417,0.6922792447955902,86.80166130727268,0,0,0,0,1,0,0,0
1.16092,392.6539469019007,0.7228367711442513,88.67718343496828,0,0,0,0,1,0,0,0
1.16094,392.5052449749906,0.737907989544883,90.5492047393016,0,0,0,0,1,0,0,0
1.16096,392.3565994204632,0.753184957804635,92.41765131609374,0,0,0,0,1,0,0,0
1.16098,392.20801021730176,0.7681822458018425,94.28244940223942,0,0,0,0,1,0,0,0
1.161,392.05947734360336,0.7833942128426507,96.14352537873695,0,0,0,0,1,0,0,0
1.16102,391.91100087324736,0.8246002510796365,98.0008057734598,0,0,0,0,1,0,0,0
1.1610399999999998,391.76258071280193,0.8402540805376697,99.854217264175,0,0,0,0,1,0,0,0
1.16106,391.6142168176376,0.8558679859756153,101.70368668138715,0,0,0,0,1,0,0,0
1.16108,391.4659091663206,0.8714480859159294,103.54914101117704,0,0,0,0,1,0,0,0
1.1611,391.31765773742814,0.8869937670666694,105.39050739821762,0,0,0,0,1,0,0,0
1.16112,391.16946250954334,0.9025044157173466,107.22771314845023,0,0,0,0,1,0,0,0
1.1611399999999998,391.0213234612549,0.9179794195399604,109.06068573215452,0,0,0,0,1,0,0,0
1.16116,390.87324057115865,0.933418167613738,110.88935278677758,0,0,0,0,1,0,0,0
1.16118,390.725213817855,0.9488200504492134,112.71364211959248,0,0,0,0,1,0,0,0
1.1612,390.5772431799514,0.9641844600122648,114.53348171082968,0,0,0,0,1,0,0,0
1.16122,390.42932863606086,0.979510789748201,116.3487997163052,0,0,0,0,1,0,0,0
1.16124,390.2814701648017,0.9947984346056123,118.15952447040536,0,0,0,0,1,0,0,0
1.16126,390.1336677447984,1.010046791060321,119.9655844887846,0,0,0,0,1,0,0,0
1.16128,389.9859213546819,1.0252552571391813,121.76690847130224,0,0,0,0,1,0,0,0
1.1613,389.8382309730882,1.0404232324438385,123.56342530478804,0,0,0,0,1,0,0,0
1.16132,389.6905965786606,1.055550118174462,125.35506406580105,0,0,0,0,1,0,0,0
1.16134,389.543018150047,1.0706353171533451,127.14175402354316,0,0,0,0,1,0,0,0
1.16136,389.3954956659022,1.085678233848531,128.92342464252184,0,0,0,0,1,0,0,0
1.16138,389.248029104886,1.100678274397238,130.70000558544794,0,0,0,0,1,0,0,0
1.1614,389.1006184456649,1.11563484662941,132.4714267159638,0,0,0,0,1,0,0,0
1.16142,388.9532636669114,1.1305473600910347,134.23761810136432,0,0,0,0,1,0,0,0
1.16144,388.8059647473037,1.145415226067436,135.9985100154698,0,0,0,0,1,0,0,0
1.16146,388.6587216655256,1.1602378576065802,137.7540329412507,0,0,0,0,1,0,0,0
1.1614799999999998,388.51153440026775,1.1750146695421682,139.50411757368377,0,0,0,0,1,0,0,0
1.1615,388.36440293022497,1.1897450785168031,141.24869482244017,0,0,0,0,1,0,0,0
1.16152,388.2173272341007,1.2044285030050044,142.98769581456574,0,0,0,0,1,0,0,0
1.16154,388.0703072906021,1.219064363336127,144.7210518973104,0,0,0,0,1,0,0,0
1.16156,387.92334307844345,1.233652081717305,146.44869464071255,0,0,0,0,1,0,0,0
1.16158,387.77643457634525,1.2481910822562026,148.1705558404263,0,0,0,0,1,0,0,0
1.1616,387.6295817630334,1.2626807909838087,149.8865675202885,0,0,0,0,1,0,0,0
1.16162,387.4827846172394,1.2771206358770433,151.596661935112,0,0,0,0,1,0,0,0
1.16164,387.3360431177021,1.2915100468813794,153.30077157332815,0,0,0,0,1,0,0,0
1.16166,387.1893572431648,1.3058484559333192,154.99882915952938,0,0,0,0,1,0,0,0
1.16168,387.0427269723781,1.3201352969828213,156.69076765740192,0,0,0,0,1,0,0,0
1.1617,386.8961522840971,1.3343700060157035,158.37652027203427,0,0,0,0,1,0,0,0
1.16172,386.749633157085,1.348552021075808,160.05602045283035,0,0,0,0,1,0,0,0
1.16174,386.6031695701095,1.3626807822872984,161.72920189601396,0,0,0,0,1,0,0,0
1.16176,386.4567615019443,1.376755731876652,163.39599854721632,0,0,0,0,1,0,0,0
1.16178,386.3104089313701,1.3907763141947604,165.05634460418986,0,0,0,0,1,0,0,0
