Time / s,Vo:Measured voltage,IL:Measured current,Vin:Measured voltage,short1:Output,short2:Output,short3:Output,short4:Output,open1:Output,open3:Output,open2:Output,open4:Output
1.1453435936428409,403.100179418322,12.855879582768315,309.35380582869976,0,0,0,0,0,0,0,0
1.14536,403.24637628163447,12.814993982967648,309.1392900342356,0,0,0,0,0,0,0,0
1.1453799999999998,403.3914358109986,12.763019667918442,308.91256994993216,0,0,0,0,0,0,0,0
1.1454,403.5350954053664,12.69958338492175,308.67365452630804,0,0,0,0,0,0,0,0
1.14542,403.6770839388983,12.624319065856932,308.42255319533933,0,0,0,0,0,0,0,0
1.14544,403.8153145911216,12.604151072696004,308.15927587006973,0,0,0,0,0,0,0,0
1.14546,403.9518475894824,12.638799109622488,307.8838329442469,0,0,0,0,0,0,0,0
1.14548,404.088980620948,12.66059382275824,307.59623529187826,0,0,0,0,0,0,0,0
1.1455,404.22641274762486,12.669119880166615,307.29649426683204,0,0,0,0,0,0,0,0
1.14552,404.3638336756299,12.663970111939795,306.9846217023682,0,0,0,0,0,0,0,0
1.14554,404.5009239494502,12.644745760076544,306.6606299106785,0,0,0,0,0,0,0,0
1.14556,404.6361240453624,12.678480318131855,306.32453168241,0,0,0,0,0,0,0,0
1.14558,404.7718773636419,12.697397696952573,305.9763402861392,0,0,0,0,0,0,0,0
1.1456,404.907840088347,12.701086631427316,305.6160694678725,0,0,0,0,0,0,0,0
1.14562,405.04365923175897,12.689145124369087,305.24373345048184,0,0,0,0,0,0,0,0
1.14564,405.1797432624642,12.661177343764704,304.8593469331521,0,0,0,0,0,0,0,0
1.14566,405.3137134163836,12.684321019946331,304.4629250908118,0,0,0,0,0,0,0,0
1.14568,405.447969764422,12.69069545261743,304.05448357350923,0,0,0,0,0,0,0,0
1.1457,405.58212659465886,12.679899316888276,303.63403850582364,0,0,0,0,0,0,0,0
1.1457199999999998,405.71578933887554,12.651541620266755,303.20160648620265,0,0,0,0,0,0,0,0
1.14574,405.84855481335217,12.605241935981054,302.757204586318,0,0,0,0,0,0,0,0
1.14576,405.98001146481135,12.540630630176166,302.30085035040355,0,0,0,0,0,0,0,0
1.14578,406.10973962135296,12.457349082858167,301.83256179453514,0,0,0,0,0,0,0,0
1.1458,406.2355373868396,12.422736662959553,301.35235740595147,0,0,0,0,0,0,0,0
1.1458199999999998,406.3592745240666,12.436522349735258,300.8602561422954,0,0,0,0,0,0,0,0
1.14584,406.4830561668557,12.430652735497864,300.3562774308776,0,0,0,0,0,0,0,0
1.14586,406.6064372827056,12.404738331048032,299.8404411679237,0,0,0,0,0,0,0,0
1.14588,406.72896440694944,12.35840143345908,299.31276771775686,0,0,0,0,0,0,0,0
1.1459,406.850175912666,12.291276345310752,298.7732779120309,0,0,0,0,0,0,0,0
1.14592,406.9679562509038,12.338632564229687,298.22199304886976,0,0,0,0,0,0,0,0
1.14594,407.0865039441579,12.36453681904488,297.658934892066,0,0,0,0,0,0,0,0
1.14596,407.2053397902932,12.368586126433192,297.0841256701865,0,0,0,0,0,0,0,0
1.14598,407.3239759942026,12.350390053164997,296.4975880757044,0,0,0,0,0,0,0,0
1.146,407.4419164510844,12.309570936072337,295.89934526414635,0,0,0,0,0,0,0,0
1.14602,407.5586570343809,12.2457640950172,295.2894208530817,0,0,0,0,0,0,0,0
1.14604,407.6736858882607,12.158618038748251,294.6678389213092,0,0,0,0,0,0,0,0
1.14606,407.7837706652719,12.183689463901628,294.0346240078084,0,0,0,0,0,0,0,0
1.14608,407.8941025200246,12.1848130091232,293.3898011108139,0,0,0,0,0,0,0,0
1.1461,408.0041547890304,12.16160479318244,292.7333956868412,0,0,0,0,0,0,0,0
1.14612,408.11339278243736,12.11369456305744,292.0654336496407,0,0,0,0,0,0,0,0
1.14614,408.2212740865822,12.040725896889152,291.3859413692219,0,0,0,0,0,0,0,0
1.1461599999999998,408.3260695835887,12.01039607860148,290.6949456707705,0,0,0,0,0,0,0,0
1.14618,408.4294441462442,12.022413398668002,289.9924738336072,0,0,0,0,0,0,0,0
1.1462,408.532759818429,12.008377347817945,289.27855359013006,0,0,0,0,0,0,0,0
1.14622,408.6354521954282,11.967917376143893,288.5532131246748,0,0,0,0,0,0,0,0
1.14624,408.7369492701631,11.900677364013694,287.81648107245434,0,0,0,0,0,0,0,0
1.14626,408.83499013065006,11.874436859248355,287.06838651837506,0,0,0,0,0,0,0,0
1.14628,408.931183710966,11.88892131088387,286.3089589959427,0,0,0,0,0,0,0,0
1.1463,409.02735719537264,11.875657662359767,285.5382284860487,0,0,0,0,0,0,0,0
1.14632,409.1229182381257,11.834279813099151,284.7562254158068,0,0,0,0,0,0,0,0
1.14634,409.21726711178326,11.764436628188282,283.9629806573733,0,0,0,0,0,0,0,0
1.14636,409.30979702933286,11.665792120173313,283.15852552667883,0,0,0,0,0,0,0,0
1.14638,409.3987511071285,11.606244719879651,282.3428917822489,0,0,0,0,0,0,0,0
1.1464,409.4856820250753,11.585519694993485,281.5161116238999,0,0,0,0,0,0,0,0
1.14642,409.5702021236261,11.603306194157067,280.6782176914893,0,0,0,0,0,0,0,0
1.14644,409.6547514718576,11.591046562598136,279.82924306365,0,0,0,0,0,0,0,0
1.14646,409.73776929423167,11.616657666016016,278.96922125643107,0,0,0,0,0,0,0,0
1.14648,409.820970322389,11.61153174383784,278.09818622203665,0,0,0,0,0,0,0,0
1.1465,409.90371753832096,11.575308613239892,277.2161723474306,0,0,0,0,0,0,0,0
1.14652,409.9853669061546,11.507643801667172,276.3232144530024,0,0,0,0,0,0,0,0
1.14654,410.06526770021793,11.408208714933156,275.4193477912168,0,0,0,0,0,0,0,0
1.14656,410.1427628363664,11.276690797782235,274.50460804515734,0,0,0,0,0,0,0,0
1.14658,410.2156617233471,11.249504202391728,273.5790313272244,0,0,0,0,0,0,0,0
1.1465999999999998,410.2867611565976,11.258038746310318,272.6426541775687,0,0,0,0,0,0,0,0
1.14662,410.35608815178,11.301982631416674,271.695513562748,0,0,0,0,0,0,0,0
1.14664,410.4259386169143,11.312641153912368,270.7376468742861,0,0,0,0,0,0,0,0
1.14666,410.4956432092203,11.289657035129704,269.76909192709405,0,0,0,0,0,0,0,0
1.14668,410.5645258558473,11.232689103681254,268.7898869580802,0,0,0,0,0,0,0,0
1.1467,410.6319040800824,11.141412452144223,267.8000706245623,0,0,0,0,0,0,0,0
1.14672,410.6970893305021,11.015518586467588,266.79968200281235,0,0,0,0,0,0,0,0
1.14674,410.758298366556,10.923162293331163,265.78876058645113,0,0,0,0,0,0,0,0
1.14676,410.8153673158768,10.932541397273647,264.76734628491613,0,0,0,0,0,0,0,0
1.14678,410.8713884030752,10.974940022259531,263.73547942191334,0,0,0,0,0,0,0,0
1.1468,410.92786750964825,10.981565404631784,262.69320073376105,0,0,0,0,0,0,0,0
1.14682,410.9841074774024,10.95207313713978,261.64055136785606,0,0,0,0,0,0,0,0
1.14684,411.0394048922621,10.886135171292612,260.57757288098355,0,0,0,0,0,0,0,0
1.14686,411.093050405225,10.78343995904726,259.50430723770427,0,0,0,0,0,0,0,0
1.14688,411.1443290558722,10.643692587550843,258.4207968087276,0,0,0,0,0,0,0,0
1.1469,411.18999145541846,10.603650275492534,257.3270843691702,0,0,0,0,0,0,0,0
1.14692,411.2341035505357,10.594566930480566,256.2232130969465,0,0,0,0,0,0,0,0
1.1469399999999998,411.2768404073376,10.616142581575136,255.10922657099425,0,0,0,0,0,0,0,0
1.14696,411.31961175624497,10.599532386288924,253.98516876958368,0,0,0,0,0,0,0,0
1.14698,411.3616972572378,10.544412953533335,252.8510840686127,0,0,0,0,0,0,0,0
1.147,411.4023709227944,10.45047736385752,251.7070172397827,0,0,0,0,0,0,0,0
1.14702,411.44090143061527,10.317435294007064,250.5530134489139,0,0,0,0,0,0,0,0
1.1470399999999998,411.47410031209085,10.28214423842408,249.38911825408968,0,0,0,0,0,0,0,0
1.14706,411.5054799471519,10.275807010528649,248.21537760388884,0,0,0,0,0,0,0,0
1.14708,411.53595172067054,10.298133639534097,247.0318378356036,0,0,0,0,0,0,0,0
1.1471,411.5664563052273,10.280235151385234,245.83854567333609,0,0,0,0,0,0,0,0
1.14712,411.596259627766,10.221799311542886,244.63554822623928,0,0,0,0,0,0,0,0
1.14714,411.6246223656362,10.122530237158562,243.4228929865597,0,0,0,0,0,0,0,0
1.14716,411.6508002468559,9.982148509619645,242.2006278278937,0,0,0,0,0,0,0,0
1.14718,411.67268511709307,9.86898889211358,240.96880100316616,0,0,0,0,0,0,0,0
1.1472,411.6900107024766,9.920029292067785,239.72746114274625,0,0,0,0,0,0,0,0
1.14722,411.7078627868885,9.929188535459602,238.476657252662,0,0,0,0,0,0,0,0
1.14724,411.7255024817513,9.8961548184435,237.2164387124753,0,0,0,0,0,0,0,0
1.14726,411.7421858397119,9.82063236642674,235.94685527347943,0,0,0,0,0,0,0,0
1.14728,411.75716413915205,9.702341539229751,234.6679570566432,0,0,0,0,0,0,0,0
1.1473,411.7696841704063,9.541018930649257,233.37979455066656,0,0,0,0,0,0,0,0
1.14732,411.7760154246458,9.542271434176545,232.082418610023,0,0,0,0,0,0,0,0
1.14734,411.7816040978458,9.568631421016766,230.7758804528697,0,0,0,0,0,0,0,0
1.14736,411.787270384467,9.551181456483954,229.4602316591196,0,0,0,0,0,0,0,0
1.1473799999999998,411.79226849008825,9.489630670233732,228.1355241683224,0,0,0,0,0,0,0,0
1.1474,411.7958481009628,9.38370393480525,226.80181027764968,0,0,0,0,0,0,0,0
1.14742,411.79725465361616,9.233141957038436,225.45914263986617,0,0,0,0,0,0,0,0
1.14744,411.7938033738309,9.174943599497883,224.1075742611669,0,0,0,0,0,0,0,0
1.14746,411.7876928208127,9.20887499885306,222.7471584991817,0,0,0,0,0,0,0,0
1.14748,411.7817725586568,9.19741810141264,221.3779490607709,0,0,0,0,0,0,0,0
1.1475,411.77529763471466,9.140290939858462,220.0000000000033,0,0,0,0,0,0,0,0
1.14752,411.767518890202,9.037226843870538,218.61336571593608,0,0,0,0,0,0,0,0
1.14754,411.75768321274137,8.887974522679894,217.2181009505039,0,0,0,0,0,0,0,0
1.14756,411.74227231668834,8.898138302494083,215.81426078639572,0,0,0,0,0,0,0,0
1.14758,411.7266646253948,8.861637864387797,214.40190064479228,0,0,0,0,0,0,0,0
1.1476,411.7097380728272,8.846817271936226,212.98107628327887,0,0,0,0,0,0,0,0
1.14762,411.6922167486185,8.784799364994463,211.5518437935561,0,0,0,0,0,0,0,0
1.14764,411.67335529727416,8.67532914900977,210.11425959926208,0,0,0,0,0,0,0,0
1.14766,411.6512433503992,8.58676276613302,208.6683804537853,0,0,0,0,0,0,0,0
1.14768,411.6267634567845,8.518871076786793,207.2142634379326,0,0,0,0,0,0,0,0
1.1477,411.5996284479296,8.539997158665447,205.75196595778016,0,0,0,0,0,0,0,0
1.14772,411.5724609914877,8.512696633650254,204.28154574231564,0,0,0,0,0,0,0,0
1.14774,411.54452557281496,8.436714469102883,202.80306084118448,0,0,0,0,0,0,0,0
1.14776,411.5150832002744,8.311809901854689,201.316569622506,0,0,0,0,0,0,0,0
1.14778,411.4822872246712,8.206325240428917,199.82213077032745,0,0,0,0,0,0,0,0
1.1478,411.4461114283087,8.188604624539453,198.31980328260352,0,0,0,0,0,0,0,0
1.1478199999999998,411.4089706925733,8.18983301977069,196.80964646862387,0,0,0,0,0,0,0,0
1.14784,411.37150325409897,8.14119336534405,195.2917199467801,0,0,0,0,0,0,0,0
1.14786,411.3329822898638,8.042447371987695,193.7660836422395,0,0,0,0,0,0,0,0
1.14788,411.2926778861221,7.89337044728846,192.2327977844836,0,0,0,0,0,0,0,0
1.1479,411.2482530754451,7.830816621813732,190.69192290504031,0,0,0,0,0,0,0,0
1.14792,411.20143204429615,7.8545471318235025,189.1435198349836,0,0,0,0,0,0,0,0
1.14794,411.15460783188206,7.827257104371901,187.58764970264343,0,0,0,0,0,0,0,0
1.14796,411.10706775592575,7.748713374826447,186.0243739310946,0,0,0,0,0,0,0,0
1.14798,411.05809624518577,7.6186958218402685,184.4537542357735,0,0,0,0,0,0,0,0
1.148,411.0059747158564,7.505487937078033,182.87585262208484,0,0,0,0,0,0,0,0
1.14802,410.9503024300464,7.545847086830254,181.29073138285395,0,0,0,0,0,0,0,0
1.14804,410.8948454726762,7.534060991231582,179.6984530959819,0,0,0,0,0,0,0,0
1.14806,410.8389071206959,7.4699038324859375,178.0990806218747,0,0,0,0,0,0,0,0
1.14808,410.78178798690976,7.353162172157964,176.4926771010045,0,0,0,0,0,0,0,0
1.1481,410.7227861863112,7.183634996007156,174.8793059514608,0,0,0,0,0,0,0,0
1.14812,410.65900189382086,7.166440111054624,173.25903086634483,0,0,0,0,0,0,0,0
1.14814,410.594354749169,7.164464149245316,171.6319158113719,0,0,0,0,0,0,0,0
1.1481599999999998,410.52937063441607,7.109050236582407,169.9980250222437,0,0,0,0,0,0,0,0
1.14818,410.463368384338,6.999993424559614,168.35742300215605,0,0,0,0,0,0,0,0
1.1482,410.3956645582924,6.837100510101664,166.71017451929723,0,0,0,0,0,0,0,0
1.14822,410.32348927514727,6.825330167987185,165.05634460418702,0,0,0,0,0,0,0,0
1.14824,410.25055196592615,6.827678257459125,163.39599854722852,0,0,0,0,0,0,0,0
1.14826,410.17734421938366,6.775552476781055,161.72920189599597,0,0,0,0,0,0,0,0
1.14828,410.1032047937181,6.668757828949285,160.05602045284266,0,0,0,0,0,0,0,0
1.1483,410.0274704012902,6.5071103828132655,158.37652027204658,0,0,0,0,0,0,0,0
1.14832,409.9479531862439,6.427071209504092,156.69076765738373,0,0,0,0,0,0,0,0
1.14834,409.86646147027255,6.428413456674273,154.99882915954183,0,0,0,0,0,0,0,0
1.14836,225.27159221087587,4.55337764985907,153.30077157330985,1,0,0,0,0,0,0,0
1.14838,156.6364032380816,4.264901169644828,151.5966619351245,1,0,0,0,0,0,0,0
1.1484,143.09608783690965,4.521578020962516,149.88656752030107,1,0,0,0,0,0,0,0
1.14842,139.96825228322248,4.842292004317935,148.17055584042336,1,0,0,0,0,0,0,0
1.14844,137.96171696280172,5.1610756049994135,146.44869464072522,1,0,0,0,0,0,0,0
1.14846,138.0698126047657,5.4134163136610844,144.7210518973074,1,0,0,0,0,0,0,0
1.14848,137.1434045577673,5.650454951860878,142.98769581457847,1,0,0,0,0,0,0,0
1.1485,137.26529810166053,5.814278998270899,141.24869482245293,1,0,0,0,0,0,0,0
1.14852,136.35602265275412,5.961741752418356,139.5041175736966,1,0,0,0,0,0,0,0
1.14854,135.4567312212332,6.063758836122215,137.75403294126355,1,0,0,0,0,0,0,0
1.14856,134.5672051225396,6.137086094809602,135.9985100154668,1,0,0,0,0,0,0,0
1.14858,133.68649575860178,6.181234457957262,134.23761810137728,1,0,0,0,0,0,0,0
1.1485999999999998,133.8230993972023,6.1679053104445485,132.47142671597678,1,0,0,0,0,0,0,0
1.14862,131.94620289132652,6.163426850766691,130.70000558546093,1,0,0,0,0,0,0,0
1.14864,131.0856980318058,6.117502826903789,128.92342464253488,1,0,0,0,0,0,0,0
1.14866,130.23016521968069,6.040801541385518,127.1417540235401,1,0,0,0,0,0,0,0
1.14868,128.4039143379049,5.97628576282871,125.35506406581416,1,0,0,0,0,0,0,0
1.1487,127.56492495148856,5.869366116338152,123.56342530478496,1,0,0,0,0,0,0,0
1.14872,125.77411536494508,5.772883615226106,121.76690847131542,1,0,0,0,0,0,0,0
1.14874,124.0079868113406,5.67519980381336,119.96558448879784,1,0,0,0,0,0,0,0
1.14876,123.19539924933392,5.549714614408597,118.15952447040226,1,0,0,0,0,0,0,0
1.14878,121.46176795304493,5.416292326434488,116.34879971631848,1,0,0,0,0,0,0,0
1.1488,119.75079201766938,5.2793428653264005,114.53348171082656,1,0,0,0,0,0,0,0
1.14882,118.0620029145429,5.13797343750755,112.71364211960584,1,0,0,0,0,0,0,0
1.14884,116.3949127953593,4.991309445821996,110.88935278679097,1,0,0,0,0,0,0,0
1.14886,114.74901534590546,4.83849511966284,109.06068573218452,1,0,0,0,0,0,0,0
1.14888,113.12378664513456,4.67869411670454,107.22771314846372,1,0,0,0,0,0,0,0
1.1489,110.67746375897872,4.534435696446392,105.39050739819784,1,0,0,0,0,0,0,0
1.14892,108.28224903797184,4.3949202252989705,103.54914101119056,1,0,0,0,0,0,0,0
1.14894,106.74377946801346,4.263432385941853,101.70368668141742,1,0,0,0,0,0,0,0
1.14896,104.43115064239798,4.142899394973818,99.85421726418856,1,0,0,0,0,0,0,0
1.14898,102.1679548479047,4.036055188150171,98.0008057734734,1,0,0,0,0,0,0,0
1.149,99.95277460263436,3.928489746561058,96.14352537873376,1,0,0,0,0,0,0,0
1.14902,97.7851526943907,3.8314489812590833,94.28244940225304,1,0,0,0,0,0,0,0
1.1490399999999998,96.39205381910268,3.735187378801685,92.4176513161074,1,0,0,0,0,0,0,0
1.14906,94.30052789220916,3.6423223934626656,90.54920473931529,1,0,0,0,0,0,0,0
1.14908,92.25409259231982,3.555303717467536,88.67718343498201,1,0,0,0,0,0,0,0
1.1491,90.25186858103991,3.472541721882944,86.80166130726946,1,0,0,0,0,0,0,0
1.14912,88.29294963945888,3.3924786761864425,84.92271239861371,1,0,0,0,0,0,0,0
1.14914,85.72426202575238,3.3208120745449743,83.04041088666642,1,0,0,0,0,0,0,0
1.14916,83.86400771617228,3.2522208362514857,81.15483108150232,1,0,0,0,0,0,0,0
1.14918,82.04417616673655,3.181595939569632,79.26604742256649,1,0,0,0,0,0,0,0
1.1492,80.26429559530004,3.1176796181593978,77.37413447578653,1,0,0,0,0,0,0,0
1.14922,77.93023442570113,3.055235783830131,75.47916693068031,1,0,0,0,0,0,0,0
1.14924,76.24015852362217,2.989425268645552,73.58121959728754,1,0,0,0,0,0,0,0
1.14926,74.58711052759053,2.92505713119974,71.68036740335349,1,0,0,0,0,0,0,0
1.14928,72.41883137451272,2.8572716077404183,69.77668539125082,1,0,0,0,0,0,0,0
1.1493,70.31417392700516,2.7964821818924865,67.8702487150685,1,0,0,0,0,0,0,0
1.14932,68.27139033087377,2.74052757121056,65.96113263769664,1,0,0,0,0,0,0,0
